! COPPER MOUNTAIN TECHNOLOGIES, PLANAR TR1300/1, 00071119, 20.2.2/1.0
! Date: 11/21/2023 7:02:37 PM
! Data: Format [Calibration Info]
! Freq          	S11: Re/Im F1                  
# HZ S RI R 50
5.00000000E+07	-4.71097386E-01	 6.66748128E-01
5.00122080E+07	-4.66914668E-01	 6.69658842E-01
5.00244160E+07	-4.62692940E-01	 6.72551103E-01
5.00366241E+07	-4.58470279E-01	 6.75384109E-01
5.00488321E+07	-4.54213610E-01	 6.78214461E-01
5.00610401E+07	-4.49940713E-01	 6.81008712E-01
5.00732481E+07	-4.45655056E-01	 6.83772917E-01
5.00854562E+07	-4.41357909E-01	 6.86534219E-01
5.00976642E+07	-4.37037819E-01	 6.89261790E-01
5.01098722E+07	-4.32700974E-01	 6.91950871E-01
5.01220802E+07	-4.28317967E-01	 6.94568201E-01
5.01342883E+07	-4.23971066E-01	 6.97250808E-01
5.01464963E+07	-4.19576152E-01	 6.99860547E-01
5.01587043E+07	-4.15186213E-01	 7.02454621E-01
5.01709123E+07	-4.10757790E-01	 7.05002826E-01
5.01831204E+07	-4.06329684E-01	 7.07539493E-01
5.01953284E+07	-4.01878326E-01	 7.10037977E-01
5.02075364E+07	-3.97383170E-01	 7.12472504E-01
5.02197444E+07	-3.92925466E-01	 7.14963481E-01
5.02319525E+07	-3.88423942E-01	 7.17373048E-01
5.02441605E+07	-3.83918738E-01	 7.19761660E-01
5.02563685E+07	-3.79390040E-01	 7.22127777E-01
5.02685765E+07	-3.74830528E-01	 7.24418870E-01
5.02807846E+07	-3.70299985E-01	 7.26776931E-01
5.02929926E+07	-3.65711213E-01	 7.29042058E-01
5.03052006E+07	-3.61134127E-01	 7.31287127E-01
5.03174086E+07	-3.56537271E-01	 7.33516355E-01
5.03296167E+07	-3.51925627E-01	 7.35713475E-01
5.03418247E+07	-3.47293710E-01	 7.37874624E-01
5.03540327E+07	-3.42646532E-01	 7.40014092E-01
5.03662407E+07	-3.38005650E-01	 7.42124624E-01
5.03784488E+07	-3.33339612E-01	 7.44203411E-01
5.03906568E+07	-3.28649326E-01	 7.46204720E-01
5.04028648E+07	-3.23969919E-01	 7.48271406E-01
5.04150728E+07	-3.19270129E-01	 7.50264681E-01
5.04272809E+07	-3.14542653E-01	 7.52221757E-01
5.04394889E+07	-3.09801969E-01	 7.54116811E-01
5.04516969E+07	-3.05083807E-01	 7.56051615E-01
5.04639049E+07	-3.00338116E-01	 7.57938282E-01
5.04761130E+07	-2.95553606E-01	 7.59772773E-01
5.04883210E+07	-2.90798965E-01	 7.61597887E-01
5.05005290E+07	-2.85982478E-01	 7.63381370E-01
5.05127370E+07	-2.81191340E-01	 7.65124308E-01
5.05249451E+07	-2.76397539E-01	 7.66862628E-01
5.05371531E+07	-2.71569564E-01	 7.68572046E-01
5.05493611E+07	-2.66734886E-01	 7.70230346E-01
5.05615691E+07	-2.61888815E-01	 7.71882589E-01
5.05737772E+07	-2.57032828E-01	 7.73458893E-01
5.05859852E+07	-2.52191217E-01	 7.75054164E-01
5.05981932E+07	-2.47304597E-01	 7.76594351E-01
5.06104012E+07	-2.42423109E-01	 7.78112061E-01
5.06226093E+07	-2.37523197E-01	 7.79601577E-01
5.06348173E+07	-2.32623720E-01	 7.81047094E-01
5.06470253E+07	-2.27730438E-01	 7.82476863E-01
5.06592333E+07	-2.22792311E-01	 7.83857673E-01
5.06714414E+07	-2.17872108E-01	 7.85226992E-01
5.06836494E+07	-2.12934121E-01	 7.86567669E-01
5.06958574E+07	-2.07994406E-01	 7.87873302E-01
5.07080654E+07	-2.03041964E-01	 7.89137299E-01
5.07202735E+07	-1.98075446E-01	 7.90369794E-01
5.07324815E+07	-1.93117626E-01	 7.91572252E-01
5.07446895E+07	-1.88132640E-01	 7.92776615E-01
5.07568975E+07	-1.83142051E-01	 7.93897137E-01
5.07691056E+07	-1.78145700E-01	 7.95025113E-01
5.07813136E+07	-1.73138634E-01	 7.96118054E-01
5.07935216E+07	-1.68141456E-01	 7.97176445E-01
5.08057296E+07	-1.63127523E-01	 7.98201870E-01
5.08179377E+07	-1.58110024E-01	 7.99186170E-01
5.08301457E+07	-1.53069657E-01	 8.00167622E-01
5.08423537E+07	-1.48046670E-01	 8.01097425E-01
5.08545617E+07	-1.43018448E-01	 8.01996618E-01
5.08667698E+07	-1.37981361E-01	 8.02872247E-01
5.08789778E+07	-1.32902602E-01	 8.03680830E-01
5.08911858E+07	-1.27861713E-01	 8.04485751E-01
5.09033938E+07	-1.22814283E-01	 8.05277292E-01
5.09156019E+07	-1.17741371E-01	 8.06008943E-01
5.09278099E+07	-1.12671945E-01	 8.06704124E-01
5.09400179E+07	-1.07584920E-01	 8.07381203E-01
5.09522259E+07	-1.02500122E-01	 8.08044808E-01
5.09644340E+07	-9.74126567E-02	 8.08662604E-01
5.09766420E+07	-9.23438354E-02	 8.09243409E-01
5.09888500E+07	-8.72347980E-02	 8.09804724E-01
5.10010580E+07	-8.21451302E-02	 8.10299441E-01
5.10132661E+07	-7.70353319E-02	 8.10803871E-01
5.10254741E+07	-7.19323782E-02	 8.11258179E-01
5.10376821E+07	-6.68311251E-02	 8.11704745E-01
5.10498901E+07	-6.17188006E-02	 8.12063919E-01
5.10620982E+07	-5.66167781E-02	 8.12454983E-01
5.10743062E+07	-5.14829627E-02	 8.12763444E-01
5.10865142E+07	-4.63951759E-02	 8.13088215E-01
5.10987222E+07	-4.12624445E-02	 8.13322000E-01
5.11109303E+07	-3.61422004E-02	 8.13567686E-01
5.11231383E+07	-3.10126239E-02	 8.13762634E-01
5.11353463E+07	-2.58843206E-02	 8.13946779E-01
5.11475543E+07	-2.07577675E-02	 8.14101604E-01
5.11597624E+07	-1.56271716E-02	 8.14170871E-01
5.11719704E+07	-1.05078251E-02	 8.14271351E-01
5.11841784E+07	-5.38257803E-03	 8.14293598E-01
5.11963864E+07	-2.43312789E-04	 8.14310702E-01
5.12085944E+07	 4.88762312E-03	 8.14293290E-01
5.12208025E+07	 1.00135583E-02	 8.14227702E-01
5.12330105E+07	 1.51449016E-02	 8.14157998E-01
5.12452185E+07	 2.02780093E-02	 8.14025734E-01
5.12574265E+07	 2.54081987E-02	 8.13899988E-01
5.12696346E+07	 3.05385359E-02	 8.13694523E-01
5.12818426E+07	 3.56681100E-02	 8.13468444E-01
5.12940506E+07	 4.07924760E-02	 8.13232951E-01
5.13062586E+07	 4.59186371E-02	 8.12934731E-01
5.13184667E+07	 5.10451603E-02	 8.12648864E-01
5.13306747E+07	 5.61801044E-02	 8.12300793E-01
5.13428827E+07	 6.13019198E-02	 8.11938236E-01
5.13550907E+07	 6.64059929E-02	 8.11517950E-01
5.13672988E+07	 7.15153859E-02	 8.11084413E-01
5.13795068E+07	 7.66500157E-02	 8.10613350E-01
5.13917148E+07	 8.17622493E-02	 8.10097625E-01
5.14039228E+07	 8.68547430E-02	 8.09566632E-01
5.14161309E+07	 9.19675583E-02	 8.09009163E-01
5.14283389E+07	 9.70812849E-02	 8.08421210E-01
5.14405469E+07	 1.02177097E-01	 8.07775215E-01
5.14527549E+07	 1.07269049E-01	 8.07104651E-01
5.14649630E+07	 1.12377965E-01	 8.06430193E-01
5.14771710E+07	 1.17476930E-01	 8.05675305E-01
5.14893790E+07	 1.22550712E-01	 8.04919495E-01
5.15015870E+07	 1.27624923E-01	 8.04144717E-01
5.15137951E+07	 1.32697326E-01	 8.03311944E-01
5.15260031E+07	 1.37777550E-01	 8.02459540E-01
5.15382111E+07	 1.42842686E-01	 8.01573601E-01
5.15504191E+07	 1.47900944E-01	 8.00651910E-01
5.15626272E+07	 1.52961812E-01	 7.99708801E-01
5.15748352E+07	 1.58003169E-01	 7.98714549E-01
5.15870432E+07	 1.63065917E-01	 7.97705721E-01
5.15992512E+07	 1.68102380E-01	 7.96658952E-01
5.16114593E+07	 1.73133622E-01	 7.95603576E-01
5.16236673E+07	 1.78152066E-01	 7.94470905E-01
5.16358753E+07	 1.83185149E-01	 7.93336801E-01
5.16480833E+07	 1.88192670E-01	 7.92165956E-01
5.16602914E+07	 1.93197119E-01	 7.90966582E-01
5.16724994E+07	 1.98197536E-01	 7.89726068E-01
5.16847074E+07	 2.03186955E-01	 7.88461954E-01
5.16969154E+07	 2.08171720E-01	 7.87163433E-01
5.17091235E+07	 2.13151422E-01	 7.85837443E-01
5.17213315E+07	 2.18123439E-01	 7.84473929E-01
5.17335395E+07	 2.23090347E-01	 7.83073640E-01
5.17457475E+07	 2.28020177E-01	 7.81646571E-01
5.17579556E+07	 2.32974449E-01	 7.80201818E-01
5.17701636E+07	 2.37906332E-01	 7.78717575E-01
5.17823716E+07	 2.42844879E-01	 7.77189578E-01
5.17945796E+07	 2.47765371E-01	 7.75649811E-01
5.18067877E+07	 2.52672865E-01	 7.74071313E-01
5.18189957E+07	 2.57572711E-01	 7.72463537E-01
5.18312037E+07	 2.62472752E-01	 7.70818525E-01
5.18434117E+07	 2.67357193E-01	 7.69130784E-01
5.18556198E+07	 2.72197566E-01	 7.67440840E-01
5.18678278E+07	 2.77075730E-01	 7.65718087E-01
5.18800358E+07	 2.81917597E-01	 7.63944908E-01
5.18922438E+07	 2.86758572E-01	 7.62149600E-01
5.19044519E+07	 2.91586037E-01	 7.60317343E-01
5.19166599E+07	 2.96392112E-01	 7.58482682E-01
5.19288679E+07	 3.01202326E-01	 7.56575075E-01
5.19410759E+07	 3.06006461E-01	 7.54680798E-01
5.19532840E+07	 3.10789926E-01	 7.52720151E-01
5.19654920E+07	 3.15548815E-01	 7.50727613E-01
5.19777000E+07	 3.20323181E-01	 7.48729173E-01
5.19899080E+07	 3.25082125E-01	 7.46679993E-01
5.20021161E+07	 3.29805444E-01	 7.44602683E-01
5.20143241E+07	 3.34518985E-01	 7.42536307E-01
5.20265321E+07	 3.39228053E-01	 7.40389096E-01
5.20387401E+07	 3.43924513E-01	 7.38225913E-01
5.20509482E+07	 3.48614545E-01	 7.36036564E-01
5.20631562E+07	 3.53272587E-01	 7.33832079E-01
5.20753642E+07	 3.57918590E-01	 7.31585163E-01
5.20875722E+07	 3.62575118E-01	 7.29297155E-01
5.20997803E+07	 3.67198881E-01	 7.26990240E-01
5.21119883E+07	 3.71811573E-01	 7.24660616E-01
5.21241963E+07	 3.76423014E-01	 7.22296644E-01
5.21364043E+07	 3.81006226E-01	 7.19891623E-01
5.21486124E+07	 3.85598121E-01	 7.17474479E-01
5.21608204E+07	 3.90126303E-01	 7.15021188E-01
5.21730284E+07	 3.94692124E-01	 7.12546106E-01
5.21852364E+07	 3.99191596E-01	 7.10028703E-01
5.21974445E+07	 4.03716755E-01	 7.07494286E-01
5.22096525E+07	 4.08198928E-01	 7.04940613E-01
5.22218605E+07	 4.12685402E-01	 7.02332768E-01
5.22340685E+07	 4.17147614E-01	 6.99687465E-01
5.22462766E+07	 4.21594300E-01	 6.97050383E-01
5.22584846E+07	 4.26021424E-01	 6.94375115E-01
5.22706926E+07	 4.30433701E-01	 6.91634703E-01
5.22829006E+07	 4.34828700E-01	 6.88901071E-01
5.22951087E+07	 4.39234720E-01	 6.86158367E-01
5.23073167E+07	 4.43573208E-01	 6.83337347E-01
5.23195247E+07	 4.47930291E-01	 6.80539624E-01
5.23317327E+07	 4.52258294E-01	 6.77670533E-01
5.23439408E+07	 4.56582467E-01	 6.74791945E-01
5.23561488E+07	 4.60862797E-01	 6.71896472E-01
5.23683568E+07	 4.65136928E-01	 6.68965929E-01
5.23805648E+07	 4.69385852E-01	 6.65989924E-01
5.23927728E+07	 4.73639683E-01	 6.63022599E-01
5.24049809E+07	 4.77862782E-01	 6.60006621E-01
5.24171889E+07	 4.82064811E-01	 6.56961823E-01
5.24293969E+07	 4.86257868E-01	 6.53884311E-01
5.24416049E+07	 4.90418171E-01	 6.50773731E-01
5.24538130E+07	 4.94568927E-01	 6.47665258E-01
5.24660210E+07	 4.98704940E-01	 6.44519474E-01
5.24782290E+07	 5.02792295E-01	 6.41330410E-01
5.24904370E+07	 5.06879744E-01	 6.38119448E-01
5.25026451E+07	 5.10951609E-01	 6.34902970E-01
5.25148531E+07	 5.15015367E-01	 6.31647888E-01
5.25270611E+07	 5.19031935E-01	 6.28358532E-01
5.25392691E+07	 5.23041635E-01	 6.25061676E-01
5.25514772E+07	 5.27038034E-01	 6.21732957E-01
5.25636852E+07	 5.31004778E-01	 6.18351772E-01
5.25758932E+07	 5.34947327E-01	 6.14979398E-01
5.25881012E+07	 5.38850655E-01	 6.11567043E-01
5.26003093E+07	 5.42775713E-01	 6.08146549E-01
5.26125173E+07	 5.46641627E-01	 6.04677843E-01
5.26247253E+07	 5.50505830E-01	 6.01202210E-01
5.26369333E+07	 5.54340829E-01	 5.97684705E-01
5.26491414E+07	 5.58162958E-01	 5.94137191E-01
5.26613494E+07	 5.61954049E-01	 5.90582480E-01
5.26735574E+07	 5.65717243E-01	 5.87011258E-01
5.26857654E+07	 5.69484928E-01	 5.83392586E-01
5.26979735E+07	 5.73202563E-01	 5.79749749E-01
5.27101815E+07	 5.76930548E-01	 5.76117702E-01
5.27223895E+07	 5.80610212E-01	 5.72438225E-01
5.27345975E+07	 5.84246915E-01	 5.68728636E-01
5.27468056E+07	 5.87887740E-01	 5.64989287E-01
5.27590136E+07	 5.91496285E-01	 5.61241946E-01
5.27712216E+07	 5.95107306E-01	 5.57458624E-01
5.27834296E+07	 5.98662981E-01	 5.53661963E-01
5.27956377E+07	 6.02198061E-01	 5.49848281E-01
5.28078457E+07	 6.05733586E-01	 5.46004622E-01
5.28200537E+07	 6.09217158E-01	 5.42134095E-01
5.28322617E+07	 6.12704732E-01	 5.38247786E-01
5.28444698E+07	 6.16118617E-01	 5.34334522E-01
5.28566778E+07	 6.19565800E-01	 5.30392496E-01
5.28688858E+07	 6.22947369E-01	 5.26431046E-01
5.28810938E+07	 6.26330944E-01	 5.22466325E-01
5.28933019E+07	 6.29673294E-01	 5.18450425E-01
5.29055099E+07	 6.32995859E-01	 5.14423405E-01
5.29177179E+07	 6.36291346E-01	 5.10394840E-01
5.29299259E+07	 6.39560655E-01	 5.06320977E-01
5.29421340E+07	 6.42826855E-01	 5.02235557E-01
5.29543420E+07	 6.46033039E-01	 4.98127064E-01
5.29665500E+07	 6.49227370E-01	 4.93999297E-01
5.29787580E+07	 6.52381120E-01	 4.89832233E-01
5.29909661E+07	 6.55526816E-01	 4.85675544E-01
5.30031741E+07	 6.58649656E-01	 4.81482406E-01
5.30153821E+07	 6.61727305E-01	 4.77268954E-01
5.30275901E+07	 6.64796093E-01	 4.73034361E-01
5.30397982E+07	 6.67837341E-01	 4.68790196E-01
5.30520062E+07	 6.70828691E-01	 4.64506973E-01
5.30642142E+07	 6.73828067E-01	 4.60213605E-01
5.30764222E+07	 6.76790965E-01	 4.55911424E-01
5.30886303E+07	 6.79697436E-01	 4.51566037E-01
5.31008383E+07	 6.82611322E-01	 4.47226862E-01
5.31130463E+07	 6.85477966E-01	 4.42853990E-01
5.31252543E+07	 6.88329367E-01	 4.38461589E-01
5.31374624E+07	 6.91135450E-01	 4.34058295E-01
5.31496704E+07	 6.93931915E-01	 4.29631165E-01
5.31618784E+07	 6.96682965E-01	 4.25193827E-01
5.31740864E+07	 6.99422710E-01	 4.20720279E-01
5.31862945E+07	 7.02132084E-01	 4.16246105E-01
5.31985025E+07	 7.04811467E-01	 4.11753740E-01
5.32107105E+07	 7.07466769E-01	 4.07234662E-01
5.32229185E+07	 7.10072353E-01	 4.02714133E-01
5.32351266E+07	 7.12660145E-01	 3.98148895E-01
5.32473346E+07	 7.15227864E-01	 3.93578578E-01
5.32595426E+07	 7.17763425E-01	 3.89011199E-01
5.32717506E+07	 7.20279058E-01	 3.84411723E-01
5.32839587E+07	 7.22740149E-01	 3.79768519E-01
5.32961667E+07	 7.25183459E-01	 3.75143644E-01
5.33083747E+07	 7.27601536E-01	 3.70500067E-01
5.33205827E+07	 7.29981737E-01	 3.65828602E-01
5.33327908E+07	 7.32349733E-01	 3.61156211E-01
5.33449988E+07	 7.34678315E-01	 3.56452110E-01
5.33572068E+07	 7.36976093E-01	 3.51742509E-01
5.33694148E+07	 7.39243300E-01	 3.47025668E-01
5.33816229E+07	 7.41484425E-01	 3.42270531E-01
5.33938309E+07	 7.43682866E-01	 3.37513461E-01
5.34060389E+07	 7.45862461E-01	 3.32734204E-01
5.34182469E+07	 7.48005480E-01	 3.27952721E-01
5.34304550E+07	 7.50125020E-01	 3.23155072E-01
5.34426630E+07	 7.52216458E-01	 3.18343435E-01
5.34548710E+07	 7.54260046E-01	 3.13516622E-01
5.34670790E+07	 7.56295052E-01	 3.08663446E-01
5.34792871E+07	 7.58281941E-01	 3.03804178E-01
5.34914951E+07	 7.60249000E-01	 2.98937353E-01
5.35037031E+07	 7.62174886E-01	 2.94052059E-01
5.35159111E+07	 7.64081289E-01	 2.89163716E-01
5.35281192E+07	 7.65949868E-01	 2.84266977E-01
5.35403272E+07	 7.67784540E-01	 2.79338321E-01
5.35525352E+07	 7.69603954E-01	 2.74410155E-01
5.35647432E+07	 7.71356653E-01	 2.69463654E-01
5.35769512E+07	 7.73116112E-01	 2.64500855E-01
5.35891593E+07	 7.74818663E-01	 2.59537757E-01
5.36013673E+07	 7.76506211E-01	 2.54555933E-01
5.36135753E+07	 7.78134669E-01	 2.49556053E-01
5.36257833E+07	 7.79764651E-01	 2.44548939E-01
5.36379914E+07	 7.81352017E-01	 2.39538998E-01
5.36501994E+07	 7.82900390E-01	 2.34517876E-01
5.36624074E+07	 7.84421946E-01	 2.29495296E-01
5.36746154E+07	 7.85915047E-01	 2.24449525E-01
5.36868235E+07	 7.87371956E-01	 2.19380919E-01
5.36990315E+07	 7.88784241E-01	 2.14322016E-01
5.37112395E+07	 7.90185136E-01	 2.09246780E-01
5.37234475E+07	 7.91537698E-01	 2.04165746E-01
5.37356556E+07	 7.92867287E-01	 1.99077581E-01
5.37478636E+07	 7.94146825E-01	 1.93980595E-01
5.37600716E+07	 7.95419644E-01	 1.88867160E-01
5.37722796E+07	 7.96651323E-01	 1.83740945E-01
5.37844877E+07	 7.97837283E-01	 1.78606822E-01
5.37966957E+07	 7.98996855E-01	 1.73476163E-01
5.38089037E+07	 8.00115001E-01	 1.68325447E-01
5.38211117E+07	 8.01219226E-01	 1.63186190E-01
5.38333198E+07	 8.02281042E-01	 1.58027173E-01
5.38455278E+07	 8.03313525E-01	 1.52850727E-01
5.38577358E+07	 8.04308531E-01	 1.47682639E-01
5.38699438E+07	 8.05263980E-01	 1.42505701E-01
5.38821519E+07	 8.06197323E-01	 1.37325389E-01
5.38943599E+07	 8.07080972E-01	 1.32116095E-01
5.39065679E+07	 8.07954483E-01	 1.26916336E-01
5.39187759E+07	 8.08782109E-01	 1.21720292E-01
5.39309840E+07	 8.09567294E-01	 1.16512963E-01
5.39431920E+07	 8.10339112E-01	 1.11299399E-01
5.39554000E+07	 8.11061691E-01	 1.06077459E-01
5.39676080E+07	 8.11768254E-01	 1.00847605E-01
5.39798161E+07	 8.12423473E-01	 9.56083739E-02
5.39920241E+07	 8.13043317E-01	 9.03832911E-02
5.40042321E+07	 8.13649747E-01	 8.51353262E-02
5.40164401E+07	 8.14215596E-01	 7.98899699E-02
5.40286482E+07	 8.14735554E-01	 7.46409909E-02
5.40408562E+07	 8.15220483E-01	 6.93901825E-02
5.40530642E+07	 8.15685615E-01	 6.41323781E-02
5.40652722E+07	 8.16095955E-01	 5.88714881E-02
5.40774803E+07	 8.16499463E-01	 5.36095691E-02
5.40896883E+07	 8.16864480E-01	 4.83461180E-02
5.41018963E+07	 8.17179742E-01	 4.30767614E-02
5.41141043E+07	 8.17470703E-01	 3.77973343E-02
5.41263124E+07	 8.17723850E-01	 3.25227925E-02
5.41385204E+07	 8.17953864E-01	 2.72438703E-02
5.41507284E+07	 8.18132832E-01	 2.19729156E-02
5.41629364E+07	 8.18294010E-01	 1.66895744E-02
5.41751445E+07	 8.18405897E-01	 1.14103266E-02
5.41873525E+07	 8.18494602E-01	 6.12511449E-03
5.41995605E+07	 8.18542659E-01	 8.38806870E-04
5.42117685E+07	 8.18561245E-01	-4.43838067E-03
5.42239766E+07	 8.18535608E-01	-9.72098606E-03
5.42361846E+07	 8.18490467E-01	-1.50116245E-02
5.42483926E+07	 8.18415610E-01	-2.02970549E-02
5.42606006E+07	 8.18278012E-01	-2.55806613E-02
5.42728087E+07	 8.18134334E-01	-3.08630142E-02
5.42850167E+07	 8.17937219E-01	-3.61392359E-02
5.42972247E+07	 8.17693823E-01	-4.14291482E-02
5.43094327E+07	 8.17449697E-01	-4.67085219E-02
5.43216408E+07	 8.17170624E-01	-5.19891009E-02
5.43338488E+07	 8.16837350E-01	-5.72737041E-02
5.43460568E+07	 8.16482802E-01	-6.25456461E-02
5.43582648E+07	 8.16096624E-01	-6.78246899E-02
5.43704729E+07	 8.15660400E-01	-7.30898714E-02
5.43826809E+07	 8.15199521E-01	-7.83641105E-02
5.43948889E+07	 8.14703394E-01	-8.36406008E-02
5.44070969E+07	 8.14178770E-01	-8.88965807E-02
5.44193050E+07	 8.13610897E-01	-9.41597891E-02
5.44315130E+07	 8.13009801E-01	-9.94149320E-02
5.44437210E+07	 8.12380353E-01	-1.04669272E-01
5.44559290E+07	 8.11715262E-01	-1.09928038E-01
5.44681371E+07	 8.11014576E-01	-1.15169478E-01
5.44803451E+07	 8.10273626E-01	-1.20411738E-01
5.44925531E+07	 8.09496293E-01	-1.25652350E-01
5.45047611E+07	 8.08704393E-01	-1.30888918E-01
5.45169692E+07	 8.07862846E-01	-1.36109843E-01
5.45291772E+07	 8.07003616E-01	-1.41342159E-01
5.45413852E+07	 8.06080555E-01	-1.46553286E-01
5.45535932E+07	 8.05145029E-01	-1.51769039E-01
5.45658013E+07	 8.04175457E-01	-1.56975084E-01
5.45780093E+07	 8.03161704E-01	-1.62174385E-01
5.45902173E+07	 8.02129001E-01	-1.67368950E-01
5.46024253E+07	 8.01057916E-01	-1.72554527E-01
5.46146334E+07	 7.99951369E-01	-1.77740333E-01
5.46268414E+07	 7.98798406E-01	-1.82908981E-01
5.46390494E+07	 7.97628295E-01	-1.88087296E-01
5.46512574E+07	 7.96407792E-01	-1.93232474E-01
5.46634655E+07	 7.95182634E-01	-1.98393991E-01
5.46756735E+07	 7.93890712E-01	-2.03517619E-01
5.46878815E+07	 7.92593626E-01	-2.08665240E-01
5.47000895E+07	 7.91249315E-01	-2.13792646E-01
5.47122976E+07	 7.89882087E-01	-2.18908634E-01
5.47245056E+07	 7.88461675E-01	-2.24027437E-01
5.47367136E+07	 7.87027720E-01	-2.29122143E-01
5.47489216E+07	 7.85539201E-01	-2.34220570E-01
5.47611296E+07	 7.84038990E-01	-2.39308582E-01
5.47733377E+07	 7.82492889E-01	-2.44371287E-01
5.47855457E+07	 7.80920495E-01	-2.49431925E-01
5.47977537E+07	 7.79312093E-01	-2.54489163E-01
5.48099617E+07	 7.77674734E-01	-2.59525906E-01
5.48221698E+07	 7.75997640E-01	-2.64561298E-01
5.48343778E+07	 7.74286822E-01	-2.69571815E-01
5.48465858E+07	 7.72546656E-01	-2.74597754E-01
5.48587938E+07	 7.70781053E-01	-2.79594411E-01
5.48710019E+07	 7.68973303E-01	-2.84580737E-01
5.48832099E+07	 7.67135035E-01	-2.89560886E-01
5.48954179E+07	 7.65258754E-01	-2.94531165E-01
5.49076259E+07	 7.63364334E-01	-2.99480857E-01
5.49198340E+07	 7.61427850E-01	-3.04419869E-01
5.49320420E+07	 7.59474652E-01	-3.09343332E-01
5.49442500E+07	 7.57467956E-01	-3.14243031E-01
5.49564580E+07	 7.55427691E-01	-3.19162630E-01
5.49686661E+07	 7.53372898E-01	-3.24050591E-01
5.49808741E+07	 7.51281624E-01	-3.28929430E-01
5.49930821E+07	 7.49145450E-01	-3.33789908E-01
5.50052901E+07	 7.46996322E-01	-3.38635629E-01
5.50174982E+07	 7.44808764E-01	-3.43474868E-01
5.50297062E+07	 7.42592813E-01	-3.48291594E-01
5.50419142E+07	 7.40342032E-01	-3.53096622E-01
5.50541222E+07	 7.38042955E-01	-3.57884633E-01
5.50663303E+07	 7.35741368E-01	-3.62665230E-01
5.50785383E+07	 7.33397888E-01	-3.67425884E-01
5.50907463E+07	 7.31016067E-01	-3.72171130E-01
5.51029543E+07	 7.28551702E-01	-3.76875719E-01
5.51151624E+07	 7.26166415E-01	-3.81621476E-01
5.51273704E+07	 7.23706419E-01	-3.86314623E-01
