! COPPER MOUNTAIN TECHNOLOGIES, PLANAR TR1300/1, 00071119, 20.2.2/1.0
! Date: 7/24/2023 9:21:02 AM
! Data: Format [Calibration Info]
! Freq          	S11: Re/Im F1                  
# HZ S RI R 50
5.00000000E+07	 5.55338497E-01	-5.88335442E-01
5.00122080E+07	 5.51233527E-01	-5.92217175E-01
5.00244160E+07	 5.47113538E-01	-5.96050329E-01
5.00366241E+07	 5.42955011E-01	-5.99862730E-01
5.00488321E+07	 5.38788499E-01	-6.03654521E-01
5.00610401E+07	 5.34595727E-01	-6.07400770E-01
5.00732481E+07	 5.30358177E-01	-6.11104323E-01
5.00854562E+07	 5.26110919E-01	-6.14812853E-01
5.00976642E+07	 5.21840177E-01	-6.18482571E-01
5.01098722E+07	 5.17511327E-01	-6.22097183E-01
5.01220802E+07	 5.13166731E-01	-6.25661163E-01
5.01342883E+07	 5.08838709E-01	-6.29280861E-01
5.01464963E+07	 5.04462689E-01	-6.32809937E-01
5.01587043E+07	 5.00061768E-01	-6.36315668E-01
5.01709123E+07	 4.95615208E-01	-6.39783612E-01
5.01831204E+07	 4.91183950E-01	-6.43234238E-01
5.01953284E+07	 4.86711164E-01	-6.46639071E-01
5.02075364E+07	 4.82162647E-01	-6.49978901E-01
5.02197444E+07	 4.77674158E-01	-6.53363031E-01
5.02319525E+07	 4.73127022E-01	-6.56677170E-01
5.02441605E+07	 4.68546610E-01	-6.59958970E-01
5.02563685E+07	 4.63964952E-01	-6.63205242E-01
5.02685765E+07	 4.59325565E-01	-6.66390125E-01
5.02807846E+07	 4.54703910E-01	-6.69609296E-01
5.02929926E+07	 4.50041384E-01	-6.72755178E-01
5.03052006E+07	 4.45358633E-01	-6.75871549E-01
5.03174086E+07	 4.40649565E-01	-6.78954307E-01
5.03296167E+07	 4.35938081E-01	-6.81992799E-01
5.03418247E+07	 4.31177590E-01	-6.85013668E-01
5.03540327E+07	 4.26415093E-01	-6.88000982E-01
5.03662407E+07	 4.21611547E-01	-6.90937798E-01
5.03784488E+07	 4.16822455E-01	-6.93854081E-01
5.03906568E+07	 4.11974287E-01	-6.96693143E-01
5.04028648E+07	 4.07128093E-01	-6.99572649E-01
5.04150728E+07	 4.02272661E-01	-7.02392039E-01
5.04272809E+07	 3.97381441E-01	-7.05171020E-01
5.04394889E+07	 3.92454674E-01	-7.07858545E-01
5.04516969E+07	 3.87544268E-01	-7.10607697E-01
5.04639049E+07	 3.82598399E-01	-7.13272563E-01
5.04761130E+07	 3.77636230E-01	-7.15912116E-01
5.04883210E+07	 3.72664347E-01	-7.18501949E-01
5.05005290E+07	 3.67661830E-01	-7.21077637E-01
5.05127370E+07	 3.62639148E-01	-7.23586201E-01
5.05249451E+07	 3.57613108E-01	-7.26104703E-01
5.05371531E+07	 3.52556991E-01	-7.28545965E-01
5.05493611E+07	 3.47484647E-01	-7.30971211E-01
5.05615691E+07	 3.42397660E-01	-7.33351337E-01
5.05737772E+07	 3.37303484E-01	-7.35687092E-01
5.05859852E+07	 3.32183460E-01	-7.37999712E-01
5.05981932E+07	 3.27043516E-01	-7.40283848E-01
5.06104012E+07	 3.21904909E-01	-7.42522986E-01
5.06226093E+07	 3.16736038E-01	-7.44728856E-01
5.06348173E+07	 3.11546583E-01	-7.46875483E-01
5.06470253E+07	 3.06362377E-01	-7.49018658E-01
5.06592333E+07	 3.01155837E-01	-7.51100438E-01
5.06714414E+07	 2.95918201E-01	-7.53164910E-01
5.06836494E+07	 2.90688559E-01	-7.55177048E-01
5.06958574E+07	 2.85428363E-01	-7.57158060E-01
5.07080654E+07	 2.80179098E-01	-7.59096920E-01
5.07202735E+07	 2.74896918E-01	-7.60995421E-01
5.07324815E+07	 2.69581455E-01	-7.62856726E-01
5.07446895E+07	 2.64284281E-01	-7.64711667E-01
5.07568975E+07	 2.59000230E-01	-7.66485840E-01
5.07691056E+07	 2.53656742E-01	-7.68250694E-01
5.07813136E+07	 2.48317432E-01	-7.69938956E-01
5.07935216E+07	 2.42951812E-01	-7.71637405E-01
5.08057296E+07	 2.37592783E-01	-7.73275120E-01
5.08179377E+07	 2.32212446E-01	-7.74861315E-01
5.08301457E+07	 2.26834109E-01	-7.76440778E-01
5.08423537E+07	 2.21457421E-01	-7.77961700E-01
5.08545617E+07	 2.16033127E-01	-7.79454586E-01
5.08667698E+07	 2.10610613E-01	-7.80903940E-01
5.08789778E+07	 2.05192226E-01	-7.82299107E-01
5.08911858E+07	 1.99763305E-01	-7.83684846E-01
5.09033938E+07	 1.94317846E-01	-7.85004156E-01
5.09156019E+07	 1.88866809E-01	-7.86312939E-01
5.09278099E+07	 1.83402148E-01	-7.87555308E-01
5.09400179E+07	 1.77925174E-01	-7.88785659E-01
5.09522259E+07	 1.72457005E-01	-7.89963108E-01
5.09644340E+07	 1.66950899E-01	-7.91105664E-01
5.09766420E+07	 1.61470561E-01	-7.92194887E-01
5.09888500E+07	 1.55968419E-01	-7.93266248E-01
5.10010580E+07	 1.50450927E-01	-7.94282028E-01
5.10132661E+07	 1.44941343E-01	-7.95274522E-01
5.10254741E+07	 1.39413749E-01	-7.96221376E-01
5.10376821E+07	 1.33908191E-01	-7.97116076E-01
5.10498901E+07	 1.28363432E-01	-7.97983485E-01
5.10620982E+07	 1.22845756E-01	-7.98813046E-01
5.10743062E+07	 1.17306539E-01	-7.99589298E-01
5.10865142E+07	 1.11739473E-01	-8.00343817E-01
5.10987222E+07	 1.06205846E-01	-8.01041959E-01
5.11109303E+07	 1.00640599E-01	-8.01704205E-01
5.11231383E+07	 9.50778196E-02	-8.02345380E-01
5.11353463E+07	 8.95125460E-02	-8.02928377E-01
5.11475543E+07	 8.39309028E-02	-8.03496994E-01
5.11597624E+07	 7.83756435E-02	-8.04001802E-01
5.11719704E+07	 7.28021961E-02	-8.04476692E-01
5.11841784E+07	 6.72260311E-02	-8.04914738E-01
5.11963864E+07	 6.16381184E-02	-8.05295877E-01
5.12085944E+07	 5.60574328E-02	-8.05666437E-01
5.12208025E+07	 5.04868163E-02	-8.05986203E-01
5.12330105E+07	 4.48875955E-02	-8.06255083E-01
5.12452185E+07	 3.93051555E-02	-8.06480734E-01
5.12574265E+07	 3.37166986E-02	-8.06688812E-01
5.12696346E+07	 2.81429375E-02	-8.06837001E-01
5.12818426E+07	 2.25390241E-02	-8.06948207E-01
5.12940506E+07	 1.69490592E-02	-8.07044591E-01
5.13062586E+07	 1.13696118E-02	-8.07060684E-01
5.13184667E+07	 5.77092283E-03	-8.07064905E-01
5.13306747E+07	 1.79821605E-04	-8.07031366E-01
5.13428827E+07	-5.41056495E-03	-8.06951360E-01
5.13550907E+07	-1.09895160E-02	-8.06832823E-01
5.13672988E+07	-1.65704441E-02	-8.06672840E-01
5.13795068E+07	-2.21710874E-02	-8.06472701E-01
5.13917148E+07	-2.77497904E-02	-8.06231486E-01
5.14039228E+07	-3.33142683E-02	-8.05954345E-01
5.14161309E+07	-3.89014978E-02	-8.05639800E-01
5.14283389E+07	-4.44743573E-02	-8.05302750E-01
5.14405469E+07	-5.00325432E-02	-8.04886579E-01
5.14527549E+07	-5.56116168E-02	-8.04466504E-01
5.14649630E+07	-6.11869973E-02	-8.03989739E-01
5.14771710E+07	-6.67437453E-02	-8.03458516E-01
5.14893790E+07	-7.22998400E-02	-8.02908867E-01
5.15015870E+07	-7.78449169E-02	-8.02351620E-01
5.15137951E+07	-8.33879981E-02	-8.01694931E-01
5.15260031E+07	-8.89370780E-02	-8.01040815E-01
5.15382111E+07	-9.44689173E-02	-8.00324298E-01
5.15504191E+07	-1.00005680E-01	-7.99574185E-01
5.15626272E+07	-1.05524385E-01	-7.98784046E-01
5.15748352E+07	-1.11046678E-01	-7.97973946E-01
5.15870432E+07	-1.16554513E-01	-7.97108016E-01
5.15992512E+07	-1.22071320E-01	-7.96191222E-01
5.16114593E+07	-1.27563505E-01	-7.95272674E-01
5.16236673E+07	-1.33056836E-01	-7.94282361E-01
5.16358753E+07	-1.38545917E-01	-7.93271105E-01
5.16480833E+07	-1.44007961E-01	-7.92214207E-01
5.16602914E+07	-1.49495576E-01	-7.91117144E-01
5.16724994E+07	-1.54954940E-01	-7.89971906E-01
5.16847074E+07	-1.60398369E-01	-7.88813290E-01
5.16969154E+07	-1.65849874E-01	-7.87584369E-01
5.17091235E+07	-1.71274284E-01	-7.86336320E-01
5.17213315E+07	-1.76711108E-01	-7.85054011E-01
5.17335395E+07	-1.82121028E-01	-7.83731300E-01
5.17457475E+07	-1.87512296E-01	-7.82359161E-01
5.17579556E+07	-1.92906093E-01	-7.80966964E-01
5.17701636E+07	-1.98307682E-01	-7.79526264E-01
5.17823716E+07	-2.03682290E-01	-7.78056320E-01
5.17945796E+07	-2.09035552E-01	-7.76540275E-01
5.18067877E+07	-2.14400934E-01	-7.74975183E-01
5.18189957E+07	-2.19737747E-01	-7.73399206E-01
5.18312037E+07	-2.25065090E-01	-7.71763295E-01
5.18434117E+07	-2.30382930E-01	-7.70089882E-01
5.18556198E+07	-2.35690098E-01	-7.68390986E-01
5.18678278E+07	-2.40982681E-01	-7.66656433E-01
5.18800358E+07	-2.46258264E-01	-7.64895148E-01
5.18922438E+07	-2.51535136E-01	-7.63075642E-01
5.19044519E+07	-2.56799567E-01	-7.61223516E-01
5.19166599E+07	-2.62014370E-01	-7.59346093E-01
5.19288679E+07	-2.67248174E-01	-7.57413914E-01
5.19410759E+07	-2.72449327E-01	-7.55464429E-01
5.19532840E+07	-2.77652279E-01	-7.53450624E-01
5.19654920E+07	-2.82838726E-01	-7.51415007E-01
5.19777000E+07	-2.88028579E-01	-7.49351047E-01
5.19899080E+07	-2.93167688E-01	-7.47233893E-01
5.20021161E+07	-2.98296883E-01	-7.45102875E-01
5.20143241E+07	-3.03442219E-01	-7.42924984E-01
5.20265321E+07	-3.08532704E-01	-7.40705779E-01
5.20387401E+07	-3.13629484E-01	-7.38456511E-01
5.20509482E+07	-3.18699044E-01	-7.36170093E-01
5.20631562E+07	-3.23759430E-01	-7.33837982E-01
5.20753642E+07	-3.28782531E-01	-7.31479201E-01
5.20875722E+07	-3.33832988E-01	-7.29098426E-01
5.20997803E+07	-3.38829413E-01	-7.26661350E-01
5.21119883E+07	-3.43821386E-01	-7.24206605E-01
5.21241963E+07	-3.48786336E-01	-7.21722870E-01
5.21364043E+07	-3.53744908E-01	-7.19174327E-01
5.21486124E+07	-3.58687041E-01	-7.16611432E-01
5.21608204E+07	-3.63593881E-01	-7.14004202E-01
5.21730284E+07	-3.68498215E-01	-7.11380211E-01
5.21852364E+07	-3.73369317E-01	-7.08697593E-01
5.21974445E+07	-3.78232781E-01	-7.06009351E-01
5.22096525E+07	-3.83070364E-01	-7.03265444E-01
5.22218605E+07	-3.87888212E-01	-7.00484634E-01
5.22340685E+07	-3.92688151E-01	-6.97679159E-01
5.22462766E+07	-3.97486935E-01	-6.94845747E-01
5.22584846E+07	-4.02232037E-01	-6.91974902E-01
5.22706926E+07	-4.06971422E-01	-6.89065023E-01
5.22829006E+07	-4.11688260E-01	-6.86119777E-01
5.22951087E+07	-4.16382914E-01	-6.83158762E-01
5.23073167E+07	-4.21072027E-01	-6.80129323E-01
5.23195247E+07	-4.25713501E-01	-6.77117734E-01
5.23317327E+07	-4.30336313E-01	-6.74035021E-01
5.23439408E+07	-4.34958662E-01	-6.70935167E-01
5.23561488E+07	-4.39531326E-01	-6.67802359E-01
5.23683568E+07	-4.44109624E-01	-6.64650341E-01
5.23805648E+07	-4.48647973E-01	-6.61431395E-01
5.23927728E+07	-4.53186071E-01	-6.58218754E-01
5.24049809E+07	-4.57670907E-01	-6.54956430E-01
5.24171889E+07	-4.62156617E-01	-6.51650975E-01
5.24293969E+07	-4.66597988E-01	-6.48332938E-01
5.24416049E+07	-4.71026010E-01	-6.44968896E-01
5.24538130E+07	-4.75431563E-01	-6.41586820E-01
5.24660210E+07	-4.79812393E-01	-6.38180197E-01
5.24782290E+07	-4.84154831E-01	-6.34724151E-01
5.24904370E+07	-4.88496521E-01	-6.31247501E-01
5.25026451E+07	-4.92787434E-01	-6.27754690E-01
5.25148531E+07	-4.97073378E-01	-6.24208569E-01
5.25270611E+07	-5.01333652E-01	-6.20643385E-01
5.25392691E+07	-5.05559544E-01	-6.17051541E-01
5.25514772E+07	-5.09758387E-01	-6.13415692E-01
5.25636852E+07	-5.13939432E-01	-6.09751423E-01
5.25758932E+07	-5.18091954E-01	-6.06082163E-01
5.25881012E+07	-5.22194049E-01	-6.02349523E-01
5.26003093E+07	-5.26308541E-01	-5.98632894E-01
5.26125173E+07	-5.30389367E-01	-5.94862233E-01
5.26247253E+07	-5.34420882E-01	-5.91064081E-01
5.26369333E+07	-5.38450736E-01	-5.87225059E-01
5.26491414E+07	-5.42437339E-01	-5.83393440E-01
5.26613494E+07	-5.46386344E-01	-5.79491135E-01
5.26735574E+07	-5.50324236E-01	-5.75579035E-01
5.26857654E+07	-5.54234052E-01	-5.71634527E-01
5.26979735E+07	-5.58116410E-01	-5.67695246E-01
5.27101815E+07	-5.61983867E-01	-5.63690201E-01
5.27223895E+07	-5.65803302E-01	-5.59683516E-01
5.27345975E+07	-5.69565288E-01	-5.55628550E-01
5.27468056E+07	-5.73339085E-01	-5.51564462E-01
5.27590136E+07	-5.77079255E-01	-5.47464935E-01
5.27712216E+07	-5.80792274E-01	-5.43326184E-01
5.27834296E+07	-5.84479259E-01	-5.39192777E-01
5.27956377E+07	-5.88114710E-01	-5.35015627E-01
5.28078457E+07	-5.91740506E-01	-5.30820799E-01
5.28200537E+07	-5.95331649E-01	-5.26587654E-01
5.28322617E+07	-5.98896628E-01	-5.22348290E-01
5.28444698E+07	-6.02412452E-01	-5.18061358E-01
5.28566778E+07	-6.05925082E-01	-5.13781199E-01
5.28688858E+07	-6.09379244E-01	-5.09453792E-01
5.28810938E+07	-6.12832706E-01	-5.05105742E-01
5.28933019E+07	-6.16244395E-01	-5.00734657E-01
5.29055099E+07	-6.19604551E-01	-4.96335037E-01
5.29177179E+07	-6.22953488E-01	-4.91914526E-01
5.29299259E+07	-6.26264628E-01	-4.87475447E-01
5.29421340E+07	-6.29545912E-01	-4.83016241E-01
5.29543420E+07	-6.32787639E-01	-4.78526628E-01
5.29665500E+07	-6.36021779E-01	-4.74029449E-01
5.29787580E+07	-6.39197707E-01	-4.69489239E-01
5.29909661E+07	-6.42351759E-01	-4.64934371E-01
5.30031741E+07	-6.45471497E-01	-4.60369928E-01
5.30153821E+07	-6.48567084E-01	-4.55770752E-01
5.30275901E+07	-6.51629877E-01	-4.51150712E-01
5.30397982E+07	-6.54647637E-01	-4.46521979E-01
5.30520062E+07	-6.57644716E-01	-4.41862921E-01
5.30642142E+07	-6.60596888E-01	-4.37183364E-01
5.30764222E+07	-6.63525428E-01	-4.32480929E-01
5.30886303E+07	-6.66424937E-01	-4.27758301E-01
5.31008383E+07	-6.69294408E-01	-4.23039802E-01
5.31130463E+07	-6.72113030E-01	-4.18261621E-01
5.31252543E+07	-6.74906917E-01	-4.13491559E-01
5.31374624E+07	-6.77675118E-01	-4.08683978E-01
5.31496704E+07	-6.80392610E-01	-4.03865538E-01
5.31618784E+07	-6.83090961E-01	-3.99026224E-01
5.31740864E+07	-6.85735441E-01	-3.94178971E-01
5.31862945E+07	-6.88351674E-01	-3.89306378E-01
5.31985025E+07	-6.90944834E-01	-3.84410008E-01
5.32107105E+07	-6.93502857E-01	-3.79508924E-01
5.32229185E+07	-6.96030967E-01	-3.74578751E-01
5.32351266E+07	-6.98500368E-01	-3.69633529E-01
5.32473346E+07	-7.00963106E-01	-3.64671641E-01
5.32595426E+07	-7.03370983E-01	-3.59688352E-01
5.32717506E+07	-7.05755269E-01	-3.54706119E-01
5.32839587E+07	-7.08094208E-01	-3.49676649E-01
5.32961667E+07	-7.10392324E-01	-3.44656050E-01
5.33083747E+07	-7.12685956E-01	-3.39622191E-01
5.33205827E+07	-7.14911212E-01	-3.34563285E-01
5.33327908E+07	-7.17118986E-01	-3.29497545E-01
5.33449988E+07	-7.19301821E-01	-3.24397212E-01
5.33572068E+07	-7.21419240E-01	-3.19299319E-01
5.33694148E+07	-7.23510968E-01	-3.14177749E-01
5.33816229E+07	-7.25566536E-01	-3.09044283E-01
5.33938309E+07	-7.27596287E-01	-3.03902135E-01
5.34060389E+07	-7.29574221E-01	-2.98731835E-01
5.34182469E+07	-7.31528004E-01	-2.93562818E-01
5.34304550E+07	-7.33439699E-01	-2.88378209E-01
5.34426630E+07	-7.35317709E-01	-2.83176013E-01
5.34548710E+07	-7.37158310E-01	-2.77980558E-01
5.34670790E+07	-7.38961095E-01	-2.72723937E-01
5.34792871E+07	-7.40733056E-01	-2.67507488E-01
5.34914951E+07	-7.42476114E-01	-2.62255384E-01
5.35037031E+07	-7.44138364E-01	-2.56983093E-01
5.35159111E+07	-7.45813876E-01	-2.51713122E-01
5.35281192E+07	-7.47423850E-01	-2.46439459E-01
5.35403272E+07	-7.49009665E-01	-2.41122546E-01
5.35525352E+07	-7.50563266E-01	-2.35826869E-01
5.35647432E+07	-7.52046847E-01	-2.30504945E-01
5.35769512E+07	-7.53534794E-01	-2.25187634E-01
5.35891593E+07	-7.54959973E-01	-2.19840532E-01
5.36013673E+07	-7.56366146E-01	-2.14481982E-01
5.36135753E+07	-7.57701121E-01	-2.09125840E-01
5.36257833E+07	-7.59026446E-01	-2.03759424E-01
5.36379914E+07	-7.60322475E-01	-1.98378064E-01
5.36501994E+07	-7.61563689E-01	-1.93013959E-01
5.36624074E+07	-7.62765444E-01	-1.87623769E-01
5.36746154E+07	-7.63936585E-01	-1.82223907E-01
5.36868235E+07	-7.65070578E-01	-1.76792612E-01
5.36990315E+07	-7.66157860E-01	-1.71405458E-01
5.37112395E+07	-7.67221993E-01	-1.65968584E-01
5.37234475E+07	-7.68241994E-01	-1.60538133E-01
5.37356556E+07	-7.69203435E-01	-1.55109897E-01
5.37478636E+07	-7.70133966E-01	-1.49658062E-01
5.37600716E+07	-7.71054389E-01	-1.44209834E-01
5.37722796E+07	-7.71923239E-01	-1.38748394E-01
5.37844877E+07	-7.72738507E-01	-1.33285517E-01
5.37966957E+07	-7.73514357E-01	-1.27826785E-01
5.38089037E+07	-7.74268890E-01	-1.22350708E-01
5.38211117E+07	-7.74975142E-01	-1.16864754E-01
5.38333198E+07	-7.75642282E-01	-1.11384861E-01
5.38455278E+07	-7.76277130E-01	-1.05903819E-01
5.38577358E+07	-7.76869616E-01	-1.00412858E-01
5.38699438E+07	-7.77422664E-01	-9.49141981E-02
5.38821519E+07	-7.77948137E-01	-8.94270231E-02
5.38943599E+07	-7.78408783E-01	-8.39130660E-02
5.39065679E+07	-7.78868495E-01	-7.84173478E-02
5.39187759E+07	-7.79269269E-01	-7.29026330E-02
5.39309840E+07	-7.79620263E-01	-6.73997773E-02
5.39431920E+07	-7.79947638E-01	-6.18787396E-02
5.39554000E+07	-7.80232163E-01	-5.63401209E-02
5.39676080E+07	-7.80475644E-01	-5.08461245E-02
5.39798161E+07	-7.80686688E-01	-4.53534608E-02
5.39920241E+07	-7.80838848E-01	-3.98124964E-02
5.40042321E+07	-7.80982192E-01	-3.42880348E-02
5.40164401E+07	-7.81076203E-01	-2.87712700E-02
5.40286482E+07	-7.81109025E-01	-2.32520766E-02
5.40408562E+07	-7.81127997E-01	-1.77270115E-02
5.40530642E+07	-7.81101927E-01	-1.22180267E-02
5.40652722E+07	-7.81039942E-01	-6.69653705E-03
5.40774803E+07	-7.80939006E-01	-1.16437805E-03
5.40896883E+07	-7.80796518E-01	 4.34833696E-03
5.41018963E+07	-7.80610199E-01	 9.86252733E-03
5.41141043E+07	-7.80389449E-01	 1.53779019E-02
5.41263124E+07	-7.80126277E-01	 2.08872515E-02
5.41385204E+07	-7.79843559E-01	 2.64072321E-02
5.41507284E+07	-7.79498037E-01	 3.19187771E-02
5.41629364E+07	-7.79126166E-01	 3.74193373E-02
5.41751445E+07	-7.78715707E-01	 4.29283209E-02
5.41873525E+07	-7.78257894E-01	 4.84277761E-02
5.41995605E+07	-7.77757681E-01	 5.39286051E-02
5.42117685E+07	-7.77222380E-01	 5.94145616E-02
5.42239766E+07	-7.76667341E-01	 6.49087129E-02
5.42361846E+07	-7.76062939E-01	 7.03975557E-02
5.42483926E+07	-7.75417314E-01	 7.58808956E-02
5.42606006E+07	-7.74725767E-01	 8.13478851E-02
5.42728087E+07	-7.74002937E-01	 8.68209057E-02
5.42850167E+07	-7.73256305E-01	 9.22977199E-02
5.42972247E+07	-7.72438366E-01	 9.77521332E-02
5.43094327E+07	-7.71601624E-01	 1.03209919E-01
5.43216408E+07	-7.70739484E-01	 1.08650667E-01
5.43338488E+07	-7.69816692E-01	 1.14091041E-01
5.43460568E+07	-7.68867056E-01	 1.19530581E-01
5.43582648E+07	-7.67883302E-01	 1.24961001E-01
5.43704729E+07	-7.66854219E-01	 1.30382820E-01
5.43826809E+07	-7.65788259E-01	 1.35790567E-01
5.43948889E+07	-7.64673758E-01	 1.41195353E-01
5.44070969E+07	-7.63535009E-01	 1.46592573E-01
5.44193050E+07	-7.62366016E-01	 1.51983021E-01
5.44315130E+07	-7.61139342E-01	 1.57372328E-01
5.44437210E+07	-7.59882035E-01	 1.62735742E-01
5.44559290E+07	-7.58592134E-01	 1.68109103E-01
5.44681371E+07	-7.57276127E-01	 1.73457882E-01
5.44803451E+07	-7.55889906E-01	 1.78804717E-01
5.44925531E+07	-7.54489044E-01	 1.84129821E-01
5.45047611E+07	-7.53047134E-01	 1.89460721E-01
5.45169692E+07	-7.51575529E-01	 1.94786413E-01
5.45291772E+07	-7.50049782E-01	 2.00074484E-01
5.45413852E+07	-7.48499892E-01	 2.05369686E-01
5.45535932E+07	-7.46899586E-01	 2.10646491E-01
5.45658013E+07	-7.45282684E-01	 2.15920740E-01
5.45780093E+07	-7.43609905E-01	 2.21176976E-01
5.45902173E+07	-7.41896342E-01	 2.26422210E-01
5.46024253E+07	-7.40164597E-01	 2.31673200E-01
5.46146334E+07	-7.38389153E-01	 2.36886776E-01
5.46268414E+07	-7.36574818E-01	 2.42098123E-01
5.46390494E+07	-7.34727631E-01	 2.47289514E-01
5.46512574E+07	-7.32833047E-01	 2.52476334E-01
5.46634655E+07	-7.30914235E-01	 2.57640678E-01
5.46756735E+07	-7.28952130E-01	 2.62793384E-01
5.46878815E+07	-7.26976311E-01	 2.67935446E-01
5.47000895E+07	-7.24948224E-01	 2.73077429E-01
5.47122976E+07	-7.22873843E-01	 2.78189078E-01
5.47245056E+07	-7.20759133E-01	 2.83282648E-01
5.47367136E+07	-7.18638484E-01	 2.88377285E-01
5.47489216E+07	-7.16461804E-01	 2.93440769E-01
5.47611296E+07	-7.14252525E-01	 2.98503793E-01
5.47733377E+07	-7.12002544E-01	 3.03529244E-01
5.47855457E+07	-7.09722651E-01	 3.08553076E-01
5.47977537E+07	-7.07401962E-01	 3.13560589E-01
5.48099617E+07	-7.05043436E-01	 3.18547926E-01
5.48221698E+07	-7.02659883E-01	 3.23518017E-01
5.48343778E+07	-7.00240315E-01	 3.28478290E-01
5.48465858E+07	-6.97807906E-01	 3.33413489E-01
5.48587938E+07	-6.95306445E-01	 3.38345755E-01
5.48710019E+07	-6.92790193E-01	 3.43247990E-01
5.48832099E+07	-6.90232402E-01	 3.48118980E-01
5.48954179E+07	-6.87630026E-01	 3.52984195E-01
5.49076259E+07	-6.85002367E-01	 3.57842760E-01
5.49198340E+07	-6.82333972E-01	 3.62670140E-01
5.49320420E+07	-6.79645793E-01	 3.67492980E-01
5.49442500E+07	-6.76909999E-01	 3.72260325E-01
5.49564580E+07	-6.74159762E-01	 3.77054199E-01
5.49686661E+07	-6.71367081E-01	 3.81801514E-01
5.49808741E+07	-6.68530003E-01	 3.86531543E-01
5.49930821E+07	-6.65662144E-01	 3.91249226E-01
5.50052901E+07	-6.62772718E-01	 3.95937528E-01
5.50174982E+07	-6.59852510E-01	 4.00621515E-01
5.50297062E+07	-6.56885513E-01	 4.05284199E-01
5.50419142E+07	-6.53903620E-01	 4.09918250E-01
5.50541222E+07	-6.50857540E-01	 4.14509915E-01
5.50663303E+07	-6.47807797E-01	 4.19101470E-01
5.50785383E+07	-6.44722863E-01	 4.23681203E-01
5.50907463E+07	-6.41583483E-01	 4.28231178E-01
5.51029543E+07	-6.38404294E-01	 4.32717018E-01
5.51151624E+07	-6.35250954E-01	 4.37254265E-01
5.51273704E+07	-6.32038076E-01	 4.41734170E-01
