! COPPER MOUNTAIN TECHNOLOGIES, PLANAR TR1300/1, 00071119, 20.2.2/1.0
! Date: 7/24/2023 9:25:37 AM
! Data: Format [Calibration Info]
! Freq          	S11: Re/Im F1                  
# HZ S RI R 50
5.00000000E+07	-1.71302755E-01	 2.73983115E-01
5.00122080E+07	-1.71226693E-01	 2.74025352E-01
5.00244160E+07	-1.71160054E-01	 2.74065111E-01
5.00366241E+07	-1.71097397E-01	 2.74106426E-01
5.00488321E+07	-1.71027763E-01	 2.74141936E-01
5.00610401E+07	-1.70965737E-01	 2.74186000E-01
5.00732481E+07	-1.70893660E-01	 2.74227696E-01
5.00854562E+07	-1.70824876E-01	 2.74272575E-01
5.00976642E+07	-1.70761628E-01	 2.74310588E-01
5.01098722E+07	-1.70687834E-01	 2.74357014E-01
5.01220802E+07	-1.70621389E-01	 2.74389721E-01
5.01342883E+07	-1.70562043E-01	 2.74429415E-01
5.01464963E+07	-1.70490974E-01	 2.74473852E-01
5.01587043E+07	-1.70422484E-01	 2.74514111E-01
5.01709123E+07	-1.70346062E-01	 2.74548268E-01
5.01831204E+07	-1.70292056E-01	 2.74590735E-01
5.01953284E+07	-1.70210029E-01	 2.74626152E-01
5.02075364E+07	-1.70148220E-01	 2.74673342E-01
5.02197444E+07	-1.70088054E-01	 2.74713667E-01
5.02319525E+07	-1.70014170E-01	 2.74748241E-01
5.02441605E+07	-1.69948698E-01	 2.74797936E-01
5.02563685E+07	-1.69879819E-01	 2.74834778E-01
5.02685765E+07	-1.69814674E-01	 2.74874061E-01
5.02807846E+07	-1.69744734E-01	 2.74916191E-01
5.02929926E+07	-1.69674279E-01	 2.74954601E-01
5.03052006E+07	-1.69612847E-01	 2.74993220E-01
5.03174086E+07	-1.69542465E-01	 2.75032799E-01
5.03296167E+07	-1.69475347E-01	 2.75074111E-01
5.03418247E+07	-1.69405459E-01	 2.75117027E-01
5.03540327E+07	-1.69337566E-01	 2.75159127E-01
5.03662407E+07	-1.69263214E-01	 2.75196484E-01
5.03784488E+07	-1.69203546E-01	 2.75238318E-01
5.03906568E+07	-1.69131080E-01	 2.75274643E-01
5.04028648E+07	-1.69066852E-01	 2.75313987E-01
5.04150728E+07	-1.68998519E-01	 2.75357471E-01
5.04272809E+07	-1.68933226E-01	 2.75396002E-01
5.04394889E+07	-1.68856864E-01	 2.75431494E-01
5.04516969E+07	-1.68798211E-01	 2.75476769E-01
5.04639049E+07	-1.68726717E-01	 2.75517950E-01
5.04761130E+07	-1.68655504E-01	 2.75554791E-01
5.04883210E+07	-1.68592332E-01	 2.75600699E-01
5.05005290E+07	-1.68521513E-01	 2.75634267E-01
5.05127370E+07	-1.68448464E-01	 2.75666363E-01
5.05249451E+07	-1.68388691E-01	 2.75719115E-01
5.05371531E+07	-1.68313635E-01	 2.75760372E-01
5.05493611E+07	-1.68248497E-01	 2.75792104E-01
5.05615691E+07	-1.68175479E-01	 2.75836270E-01
5.05737772E+07	-1.68109826E-01	 2.75874694E-01
5.05859852E+07	-1.68041906E-01	 2.75906642E-01
5.05981932E+07	-1.67978483E-01	 2.75957525E-01
5.06104012E+07	-1.67911941E-01	 2.75995532E-01
5.06226093E+07	-1.67835354E-01	 2.76031951E-01
5.06348173E+07	-1.67777792E-01	 2.76075548E-01
5.06470253E+07	-1.67702471E-01	 2.76115715E-01
5.06592333E+07	-1.67641811E-01	 2.76151044E-01
5.06714414E+07	-1.67568934E-01	 2.76195960E-01
5.06836494E+07	-1.67497949E-01	 2.76233302E-01
5.06958574E+07	-1.67432837E-01	 2.76272672E-01
5.07080654E+07	-1.67366939E-01	 2.76314277E-01
5.07202735E+07	-1.67296079E-01	 2.76353024E-01
5.07324815E+07	-1.67222119E-01	 2.76393890E-01
5.07446895E+07	-1.67155203E-01	 2.76434708E-01
5.07568975E+07	-1.67091743E-01	 2.76474099E-01
5.07691056E+07	-1.67028133E-01	 2.76509886E-01
5.07813136E+07	-1.66955474E-01	 2.76550044E-01
5.07935216E+07	-1.66885497E-01	 2.76590253E-01
5.08057296E+07	-1.66823617E-01	 2.76632521E-01
5.08179377E+07	-1.66753686E-01	 2.76668022E-01
5.08301457E+07	-1.66677423E-01	 2.76707022E-01
5.08423537E+07	-1.66616237E-01	 2.76751012E-01
5.08545617E+07	-1.66543795E-01	 2.76787438E-01
5.08667698E+07	-1.66480219E-01	 2.76826433E-01
5.08789778E+07	-1.66413639E-01	 2.76863179E-01
5.08911858E+07	-1.66344294E-01	 2.76909062E-01
5.09033938E+07	-1.66270167E-01	 2.76946095E-01
5.09156019E+07	-1.66199968E-01	 2.76986089E-01
5.09278099E+07	-1.66135035E-01	 2.77028829E-01
5.09400179E+07	-1.66064870E-01	 2.77066947E-01
5.09522259E+07	-1.65992211E-01	 2.77105138E-01
5.09644340E+07	-1.65928553E-01	 2.77147965E-01
5.09766420E+07	-1.65856206E-01	 2.77180769E-01
5.09888500E+07	-1.65794680E-01	 2.77219703E-01
5.10010580E+07	-1.65719985E-01	 2.77259314E-01
5.10132661E+07	-1.65660115E-01	 2.77304187E-01
5.10254741E+07	-1.65587249E-01	 2.77340745E-01
5.10376821E+07	-1.65520990E-01	 2.77377241E-01
5.10498901E+07	-1.65446651E-01	 2.77416587E-01
5.10620982E+07	-1.65381485E-01	 2.77449092E-01
5.10743062E+07	-1.65317217E-01	 2.77494220E-01
5.10865142E+07	-1.65240993E-01	 2.77539940E-01
5.10987222E+07	-1.65172135E-01	 2.77577431E-01
5.11109303E+07	-1.65105062E-01	 2.77612194E-01
5.11231383E+07	-1.65034946E-01	 2.77649934E-01
5.11353463E+07	-1.64970717E-01	 2.77688572E-01
5.11475543E+07	-1.64894013E-01	 2.77731039E-01
5.11597624E+07	-1.64825496E-01	 2.77763091E-01
5.11719704E+07	-1.64763582E-01	 2.77806673E-01
5.11841784E+07	-1.64695598E-01	 2.77845471E-01
5.11963864E+07	-1.64617333E-01	 2.77881835E-01
5.12085944E+07	-1.64552080E-01	 2.77928051E-01
5.12208025E+07	-1.64486786E-01	 2.77963760E-01
5.12330105E+07	-1.64420140E-01	 2.78003593E-01
5.12452185E+07	-1.64344949E-01	 2.78037278E-01
5.12574265E+07	-1.64274586E-01	 2.78078077E-01
5.12696346E+07	-1.64209564E-01	 2.78117267E-01
5.12818426E+07	-1.64141999E-01	 2.78155820E-01
5.12940506E+07	-1.64070679E-01	 2.78194577E-01
5.13062586E+07	-1.64001986E-01	 2.78230166E-01
5.13184667E+07	-1.63935450E-01	 2.78275389E-01
5.13306747E+07	-1.63868626E-01	 2.78310539E-01
5.13428827E+07	-1.63794302E-01	 2.78347205E-01
5.13550907E+07	-1.63724289E-01	 2.78391847E-01
5.13672988E+07	-1.63653506E-01	 2.78427911E-01
5.13795068E+07	-1.63586785E-01	 2.78462093E-01
5.13917148E+07	-1.63522219E-01	 2.78511361E-01
5.14039228E+07	-1.63441536E-01	 2.78543866E-01
5.14161309E+07	-1.63383115E-01	 2.78580133E-01
5.14283389E+07	-1.63310438E-01	 2.78615767E-01
5.14405469E+07	-1.63240609E-01	 2.78658755E-01
5.14527549E+07	-1.63176452E-01	 2.78690915E-01
5.14649630E+07	-1.63101757E-01	 2.78739157E-01
5.14771710E+07	-1.63041331E-01	 2.78772284E-01
5.14893790E+07	-1.62966324E-01	 2.78811689E-01
5.15015870E+07	-1.62895385E-01	 2.78844242E-01
5.15137951E+07	-1.62828215E-01	 2.78889908E-01
5.15260031E+07	-1.62756607E-01	 2.78928405E-01
5.15382111E+07	-1.62685081E-01	 2.78963762E-01
5.15504191E+07	-1.62622476E-01	 2.79006966E-01
5.15626272E+07	-1.62551323E-01	 2.79040637E-01
5.15748352E+07	-1.62477722E-01	 2.79085231E-01
5.15870432E+07	-1.62409658E-01	 2.79120030E-01
5.15992512E+07	-1.62343766E-01	 2.79156232E-01
5.16114593E+07	-1.62272454E-01	 2.79191183E-01
5.16236673E+07	-1.62202773E-01	 2.79233041E-01
5.16358753E+07	-1.62137615E-01	 2.79276603E-01
5.16480833E+07	-1.62064168E-01	 2.79309998E-01
5.16602914E+07	-1.61993712E-01	 2.79346671E-01
5.16724994E+07	-1.61928298E-01	 2.79386537E-01
5.16847074E+07	-1.61856169E-01	 2.79428163E-01
5.16969154E+07	-1.61785345E-01	 2.79467882E-01
5.17091235E+07	-1.61717094E-01	 2.79502023E-01
5.17213315E+07	-1.61654436E-01	 2.79547611E-01
5.17335395E+07	-1.61574359E-01	 2.79577592E-01
5.17457475E+07	-1.61516629E-01	 2.79619616E-01
5.17579556E+07	-1.61447193E-01	 2.79652763E-01
5.17701636E+07	-1.61374541E-01	 2.79694457E-01
5.17823716E+07	-1.61304118E-01	 2.79730448E-01
5.17945796E+07	-1.61234430E-01	 2.79770833E-01
5.18067877E+07	-1.61162994E-01	 2.79807225E-01
5.18189957E+07	-1.61092553E-01	 2.79845942E-01
5.18312037E+07	-1.61028157E-01	 2.79878386E-01
5.18434117E+07	-1.60947296E-01	 2.79919023E-01
5.18556198E+07	-1.60882254E-01	 2.79969670E-01
5.18678278E+07	-1.60811482E-01	 2.79995435E-01
5.18800358E+07	-1.60748570E-01	 2.80034760E-01
5.18922438E+07	-1.60678507E-01	 2.80071282E-01
5.19044519E+07	-1.60609443E-01	 2.80109652E-01
5.19166599E+07	-1.60535176E-01	 2.80145269E-01
5.19288679E+07	-1.60466805E-01	 2.80183232E-01
5.19410759E+07	-1.60400661E-01	 2.80222914E-01
5.19532840E+07	-1.60336151E-01	 2.80262110E-01
5.19654920E+07	-1.60261288E-01	 2.80294294E-01
5.19777000E+07	-1.60189709E-01	 2.80325199E-01
5.19899080E+07	-1.60124488E-01	 2.80375177E-01
5.20021161E+07	-1.60052490E-01	 2.80402317E-01
5.20143241E+07	-1.59978598E-01	 2.80447388E-01
5.20265321E+07	-1.59914260E-01	 2.80487488E-01
5.20387401E+07	-1.59843917E-01	 2.80529857E-01
5.20509482E+07	-1.59775662E-01	 2.80561949E-01
5.20631562E+07	-1.59704451E-01	 2.80605598E-01
5.20753642E+07	-1.59641539E-01	 2.80632292E-01
5.20875722E+07	-1.59571188E-01	 2.80679292E-01
5.20997803E+07	-1.59499623E-01	 2.80707944E-01
5.21119883E+07	-1.59431953E-01	 2.80751184E-01
5.21241963E+07	-1.59370686E-01	 2.80788698E-01
5.21364043E+07	-1.59297207E-01	 2.80825979E-01
5.21486124E+07	-1.59227314E-01	 2.80865891E-01
5.21608204E+07	-1.59154183E-01	 2.80896833E-01
5.21730284E+07	-1.59081194E-01	 2.80934595E-01
5.21852364E+07	-1.59010840E-01	 2.80976579E-01
5.21974445E+07	-1.58947863E-01	 2.81009873E-01
5.22096525E+07	-1.58878260E-01	 2.81046815E-01
5.22218605E+07	-1.58807974E-01	 2.81084459E-01
5.22340685E+07	-1.58743571E-01	 2.81126717E-01
5.22462766E+07	-1.58668200E-01	 2.81156639E-01
5.22584846E+07	-1.58597739E-01	 2.81200947E-01
5.22706926E+07	-1.58529623E-01	 2.81236696E-01
5.22829006E+07	-1.58463367E-01	 2.81277171E-01
5.22951087E+07	-1.58393912E-01	 2.81307729E-01
5.23073167E+07	-1.58322478E-01	 2.81347912E-01
5.23195247E+07	-1.58254602E-01	 2.81386109E-01
5.23317327E+07	-1.58180580E-01	 2.81425375E-01
5.23439408E+07	-1.58117304E-01	 2.81457622E-01
5.23561488E+07	-1.58039482E-01	 2.81497276E-01
5.23683568E+07	-1.57976083E-01	 2.81533883E-01
5.23805648E+07	-1.57911033E-01	 2.81571134E-01
5.23927728E+07	-1.57831922E-01	 2.81610856E-01
5.24049809E+07	-1.57767278E-01	 2.81646425E-01
5.24171889E+07	-1.57693083E-01	 2.81687239E-01
5.24293969E+07	-1.57631576E-01	 2.81723344E-01
5.24416049E+07	-1.57557688E-01	 2.81756038E-01
5.24538130E+07	-1.57487475E-01	 2.81799767E-01
5.24660210E+07	-1.57416599E-01	 2.81833147E-01
5.24782290E+07	-1.57355265E-01	 2.81872632E-01
5.24904370E+07	-1.57279099E-01	 2.81901478E-01
5.25026451E+07	-1.57205820E-01	 2.81939764E-01
5.25148531E+07	-1.57145560E-01	 2.81978873E-01
5.25270611E+07	-1.57074211E-01	 2.82018406E-01
5.25392691E+07	-1.57003920E-01	 2.82053085E-01
5.25514772E+07	-1.56935944E-01	 2.82091947E-01
5.25636852E+07	-1.56861894E-01	 2.82127866E-01
5.25758932E+07	-1.56789991E-01	 2.82164257E-01
5.25881012E+07	-1.56728326E-01	 2.82207306E-01
5.26003093E+07	-1.56655127E-01	 2.82236341E-01
5.26125173E+07	-1.56589192E-01	 2.82277483E-01
5.26247253E+07	-1.56514364E-01	 2.82317810E-01
5.26369333E+07	-1.56447582E-01	 2.82355027E-01
5.26491414E+07	-1.56376120E-01	 2.82386562E-01
5.26613494E+07	-1.56305651E-01	 2.82421890E-01
5.26735574E+07	-1.56228162E-01	 2.82469984E-01
5.26857654E+07	-1.56162774E-01	 2.82496514E-01
5.26979735E+07	-1.56100023E-01	 2.82535861E-01
5.27101815E+07	-1.56023139E-01	 2.82571657E-01
5.27223895E+07	-1.55957128E-01	 2.82610411E-01
5.27345975E+07	-1.55895782E-01	 2.82644776E-01
5.27468056E+07	-1.55824784E-01	 2.82675116E-01
5.27590136E+07	-1.55751832E-01	 2.82722647E-01
5.27712216E+07	-1.55682326E-01	 2.82752115E-01
5.27834296E+07	-1.55614832E-01	 2.82784426E-01
5.27956377E+07	-1.55544568E-01	 2.82831974E-01
5.28078457E+07	-1.55465498E-01	 2.82864799E-01
5.28200537E+07	-1.55400255E-01	 2.82904772E-01
5.28322617E+07	-1.55330335E-01	 2.82937914E-01
5.28444698E+07	-1.55261895E-01	 2.82970721E-01
5.28566778E+07	-1.55189623E-01	 2.83014181E-01
5.28688858E+07	-1.55115774E-01	 2.83038876E-01
5.28810938E+07	-1.55051303E-01	 2.83084436E-01
5.28933019E+07	-1.54985129E-01	 2.83123394E-01
5.29055099E+07	-1.54911886E-01	 2.83155278E-01
5.29177179E+07	-1.54835533E-01	 2.83186496E-01
5.29299259E+07	-1.54771040E-01	 2.83229237E-01
5.29421340E+07	-1.54701096E-01	 2.83263945E-01
5.29543420E+07	-1.54636244E-01	 2.83300874E-01
5.29665500E+07	-1.54561956E-01	 2.83343075E-01
5.29787580E+07	-1.54503336E-01	 2.83372683E-01
5.29909661E+07	-1.54421682E-01	 2.83406944E-01
5.30031741E+07	-1.54349886E-01	 2.83448978E-01
5.30153821E+07	-1.54286175E-01	 2.83481328E-01
5.30275901E+07	-1.54216026E-01	 2.83516091E-01
5.30397982E+07	-1.54139137E-01	 2.83552991E-01
5.30520062E+07	-1.54072854E-01	 2.83589099E-01
5.30642142E+07	-1.54005253E-01	 2.83627090E-01
5.30764222E+07	-1.53932630E-01	 2.83663424E-01
5.30886303E+07	-1.53864352E-01	 2.83701867E-01
5.31008383E+07	-1.53803924E-01	 2.83739123E-01
5.31130463E+07	-1.53724872E-01	 2.83774464E-01
5.31252543E+07	-1.53657845E-01	 2.83812625E-01
5.31374624E+07	-1.53584523E-01	 2.83847425E-01
5.31496704E+07	-1.53507782E-01	 2.83881880E-01
5.31618784E+07	-1.53445740E-01	 2.83922746E-01
5.31740864E+07	-1.53379374E-01	 2.83953140E-01
5.31862945E+07	-1.53302106E-01	 2.83991321E-01
5.31985025E+07	-1.53233350E-01	 2.84026008E-01
5.32107105E+07	-1.53162140E-01	 2.84060915E-01
5.32229185E+07	-1.53097147E-01	 2.84101348E-01
5.32351266E+07	-1.53021120E-01	 2.84133689E-01
5.32473346E+07	-1.52956104E-01	 2.84175938E-01
5.32595426E+07	-1.52883006E-01	 2.84210050E-01
5.32717506E+07	-1.52808835E-01	 2.84243589E-01
5.32839587E+07	-1.52740290E-01	 2.84280597E-01
5.32961667E+07	-1.52674384E-01	 2.84319959E-01
5.33083747E+07	-1.52605102E-01	 2.84354218E-01
5.33205827E+07	-1.52534352E-01	 2.84392703E-01
5.33327908E+07	-1.52460738E-01	 2.84425032E-01
5.33449988E+07	-1.52394958E-01	 2.84462772E-01
5.33572068E+07	-1.52320815E-01	 2.84498943E-01
5.33694148E+07	-1.52248453E-01	 2.84534534E-01
5.33816229E+07	-1.52184672E-01	 2.84572292E-01
5.33938309E+07	-1.52114252E-01	 2.84610624E-01
5.34060389E+07	-1.52034625E-01	 2.84641210E-01
5.34182469E+07	-1.51966170E-01	 2.84675989E-01
5.34304550E+07	-1.51899509E-01	 2.84715899E-01
5.34426630E+07	-1.51830640E-01	 2.84745856E-01
5.34548710E+07	-1.51759467E-01	 2.84786170E-01
5.34670790E+07	-1.51692392E-01	 2.84822210E-01
5.34792871E+07	-1.51623914E-01	 2.84858070E-01
5.34914951E+07	-1.51555592E-01	 2.84893852E-01
5.35037031E+07	-1.51480136E-01	 2.84928347E-01
5.35159111E+07	-1.51406782E-01	 2.84967851E-01
5.35281192E+07	-1.51340661E-01	 2.85006645E-01
5.35403272E+07	-1.51267018E-01	 2.85037567E-01
5.35525352E+07	-1.51196087E-01	 2.85073386E-01
5.35647432E+07	-1.51129023E-01	 2.85105415E-01
5.35769512E+07	-1.51058764E-01	 2.85141483E-01
5.35891593E+07	-1.50989164E-01	 2.85176480E-01
5.36013673E+07	-1.50911785E-01	 2.85209566E-01
5.36135753E+07	-1.50844951E-01	 2.85249577E-01
5.36257833E+07	-1.50773345E-01	 2.85284314E-01
5.36379914E+07	-1.50698969E-01	 2.85319800E-01
5.36501994E+07	-1.50635659E-01	 2.85357758E-01
5.36624074E+07	-1.50564577E-01	 2.85393933E-01
5.36746154E+07	-1.50490038E-01	 2.85429209E-01
5.36868235E+07	-1.50421086E-01	 2.85465010E-01
5.36990315E+07	-1.50357232E-01	 2.85496232E-01
5.37112395E+07	-1.50278060E-01	 2.85528405E-01
5.37234475E+07	-1.50210145E-01	 2.85567218E-01
5.37356556E+07	-1.50141166E-01	 2.85599655E-01
5.37478636E+07	-1.50071778E-01	 2.85633533E-01
5.37600716E+07	-1.50001900E-01	 2.85672530E-01
5.37722796E+07	-1.49934986E-01	 2.85708251E-01
5.37844877E+07	-1.49861652E-01	 2.85745711E-01
5.37966957E+07	-1.49787367E-01	 2.85777968E-01
5.38089037E+07	-1.49722505E-01	 2.85819290E-01
5.38211117E+07	-1.49645445E-01	 2.85854450E-01
5.38333198E+07	-1.49578323E-01	 2.85887691E-01
5.38455278E+07	-1.49506341E-01	 2.85929075E-01
5.38577358E+07	-1.49437945E-01	 2.85960908E-01
5.38699438E+07	-1.49366272E-01	 2.85993771E-01
5.38821519E+07	-1.49303301E-01	 2.86028079E-01
5.38943599E+07	-1.49226182E-01	 2.86063564E-01
5.39065679E+07	-1.49156759E-01	 2.86096584E-01
5.39187759E+07	-1.49084548E-01	 2.86134497E-01
5.39309840E+07	-1.49016381E-01	 2.86169043E-01
5.39431920E+07	-1.48941990E-01	 2.86201537E-01
5.39554000E+07	-1.48872426E-01	 2.86241053E-01
5.39676080E+07	-1.48799900E-01	 2.86279726E-01
5.39798161E+07	-1.48732795E-01	 2.86302978E-01
5.39920241E+07	-1.48653736E-01	 2.86346653E-01
5.40042321E+07	-1.48583544E-01	 2.86377226E-01
5.40164401E+07	-1.48519674E-01	 2.86409867E-01
5.40286482E+07	-1.48449131E-01	 2.86450655E-01
5.40408562E+07	-1.48379220E-01	 2.86480633E-01
5.40530642E+07	-1.48312820E-01	 2.86512617E-01
5.40652722E+07	-1.48236448E-01	 2.86549557E-01
5.40774803E+07	-1.48163362E-01	 2.86586863E-01
5.40896883E+07	-1.48092127E-01	 2.86621472E-01
5.41018963E+07	-1.48030055E-01	 2.86659813E-01
5.41141043E+07	-1.47955047E-01	 2.86693644E-01
5.41263124E+07	-1.47882511E-01	 2.86726136E-01
5.41385204E+07	-1.47808372E-01	 2.86760504E-01
5.41507284E+07	-1.47744661E-01	 2.86795641E-01
5.41629364E+07	-1.47670375E-01	 2.86830386E-01
5.41751445E+07	-1.47601151E-01	 2.86862677E-01
5.41873525E+07	-1.47527920E-01	 2.86897111E-01
5.41995605E+07	-1.47459257E-01	 2.86938089E-01
5.42117685E+07	-1.47389282E-01	 2.86967105E-01
5.42239766E+07	-1.47316349E-01	 2.87005263E-01
5.42361846E+07	-1.47252596E-01	 2.87044251E-01
5.42483926E+07	-1.47176155E-01	 2.87073205E-01
5.42606006E+07	-1.47105630E-01	 2.87107312E-01
5.42728087E+07	-1.47035445E-01	 2.87146616E-01
5.42850167E+07	-1.46963621E-01	 2.87179938E-01
5.42972247E+07	-1.46894146E-01	 2.87213212E-01
5.43094327E+07	-1.46823377E-01	 2.87247754E-01
5.43216408E+07	-1.46747536E-01	 2.87277812E-01
5.43338488E+07	-1.46684022E-01	 2.87310151E-01
5.43460568E+07	-1.46606687E-01	 2.87349378E-01
5.43582648E+07	-1.46541344E-01	 2.87381498E-01
5.43704729E+07	-1.46464994E-01	 2.87411943E-01
5.43826809E+07	-1.46398729E-01	 2.87446318E-01
5.43948889E+07	-1.46328647E-01	 2.87479554E-01
5.44070969E+07	-1.46259538E-01	 2.87519763E-01
5.44193050E+07	-1.46194302E-01	 2.87554602E-01
5.44315130E+07	-1.46115815E-01	 2.87585314E-01
5.44437210E+07	-1.46046009E-01	 2.87621824E-01
5.44559290E+07	-1.45971728E-01	 2.87654192E-01
5.44681371E+07	-1.45904751E-01	 2.87689001E-01
5.44803451E+07	-1.45830663E-01	 2.87724891E-01
5.44925531E+07	-1.45765225E-01	 2.87756186E-01
5.45047611E+07	-1.45690159E-01	 2.87795521E-01
5.45169692E+07	-1.45618528E-01	 2.87834173E-01
5.45291772E+07	-1.45548939E-01	 2.87855705E-01
5.45413852E+07	-1.45478398E-01	 2.87896629E-01
5.45535932E+07	-1.45411230E-01	 2.87930612E-01
5.45658013E+07	-1.45338037E-01	 2.87966744E-01
5.45780093E+07	-1.45268907E-01	 2.88001121E-01
5.45902173E+07	-1.45194633E-01	 2.88032242E-01
5.46024253E+07	-1.45120906E-01	 2.88070379E-01
5.46146334E+07	-1.45052161E-01	 2.88102941E-01
5.46268414E+07	-1.44978824E-01	 2.88132541E-01
5.46390494E+07	-1.44911610E-01	 2.88163140E-01
5.46512574E+07	-1.44838484E-01	 2.88197163E-01
5.46634655E+07	-1.44771266E-01	 2.88234627E-01
5.46756735E+07	-1.44697647E-01	 2.88272254E-01
5.46878815E+07	-1.44620797E-01	 2.88303200E-01
5.47000895E+07	-1.44557953E-01	 2.88339982E-01
5.47122976E+07	-1.44479575E-01	 2.88371604E-01
5.47245056E+07	-1.44407599E-01	 2.88403357E-01
5.47367136E+07	-1.44338693E-01	 2.88438364E-01
5.47489216E+07	-1.44269566E-01	 2.88476138E-01
5.47611296E+07	-1.44198469E-01	 2.88509556E-01
5.47733377E+07	-1.44130300E-01	 2.88535901E-01
5.47855457E+07	-1.44059074E-01	 2.88576006E-01
5.47977537E+07	-1.43986762E-01	 2.88606752E-01
5.48099617E+07	-1.43912898E-01	 2.88645010E-01
5.48221698E+07	-1.43846967E-01	 2.88670956E-01
5.48343778E+07	-1.43768143E-01	 2.88704712E-01
5.48465858E+07	-1.43709343E-01	 2.88741403E-01
5.48587938E+07	-1.43622756E-01	 2.88773037E-01
5.48710019E+07	-1.43555492E-01	 2.88814654E-01
5.48832099E+07	-1.43489939E-01	 2.88849105E-01
5.48954179E+07	-1.43412057E-01	 2.88879584E-01
5.49076259E+07	-1.43344269E-01	 2.88913622E-01
5.49198340E+07	-1.43274625E-01	 2.88947519E-01
5.49320420E+07	-1.43204273E-01	 2.88980602E-01
5.49442500E+07	-1.43117475E-01	 2.89001807E-01
5.49564580E+07	-1.43062005E-01	 2.89044646E-01
5.49686661E+07	-1.42995732E-01	 2.89077319E-01
5.49808741E+07	-1.42916314E-01	 2.89108737E-01
5.49930821E+07	-1.42844579E-01	 2.89147614E-01
5.50052901E+07	-1.42771251E-01	 2.89176538E-01
5.50174982E+07	-1.42701095E-01	 2.89211303E-01
5.50297062E+07	-1.42632698E-01	 2.89251257E-01
5.50419142E+07	-1.42563182E-01	 2.89279876E-01
5.50541222E+07	-1.42484502E-01	 2.89308610E-01
5.50663303E+07	-1.42416581E-01	 2.89342938E-01
5.50785383E+07	-1.42342239E-01	 2.89382149E-01
5.50907463E+07	-1.42273106E-01	 2.89408881E-01
5.51029543E+07	-1.42201068E-01	 2.89442656E-01
5.51151624E+07	-1.42127837E-01	 2.89483624E-01
5.51273704E+07	-1.42055782E-01	 2.89520260E-01
