! COPPER MOUNTAIN TECHNOLOGIES, PLANAR TR1300/1, 00071119, 20.2.2/1.0
! Date: 11/21/2023 7:07:18 PM
! Data: Format [Calibration Info]
! Freq          	S11: Re/Im F1                  
# HZ S RI R 50
5.00000000E+07	-1.71393363E-01	 2.73991728E-01
5.00122080E+07	-1.71334130E-01	 2.74038438E-01
5.00244160E+07	-1.71257881E-01	 2.74082868E-01
5.00366241E+07	-1.71200654E-01	 2.74119913E-01
5.00488321E+07	-1.71130608E-01	 2.74157740E-01
5.00610401E+07	-1.71066442E-01	 2.74193605E-01
5.00732481E+07	-1.70995344E-01	 2.74232247E-01
5.00854562E+07	-1.70931501E-01	 2.74277551E-01
5.00976642E+07	-1.70856743E-01	 2.74318117E-01
5.01098722E+07	-1.70798253E-01	 2.74362481E-01
5.01220802E+07	-1.70725931E-01	 2.74404128E-01
5.01342883E+07	-1.70653057E-01	 2.74442004E-01
5.01464963E+07	-1.70584919E-01	 2.74476152E-01
5.01587043E+07	-1.70526905E-01	 2.74523106E-01
5.01709123E+07	-1.70451133E-01	 2.74562319E-01
5.01831204E+07	-1.70387120E-01	 2.74605106E-01
5.01953284E+07	-1.70318542E-01	 2.74648250E-01
5.02075364E+07	-1.70250752E-01	 2.74683721E-01
5.02197444E+07	-1.70186430E-01	 2.74725440E-01
5.02319525E+07	-1.70117271E-01	 2.74762570E-01
5.02441605E+07	-1.70051946E-01	 2.74806401E-01
5.02563685E+07	-1.69977946E-01	 2.74844856E-01
5.02685765E+07	-1.69916383E-01	 2.74884779E-01
5.02807846E+07	-1.69848582E-01	 2.74927009E-01
5.02929926E+07	-1.69775281E-01	 2.74963526E-01
5.03052006E+07	-1.69707853E-01	 2.75002497E-01
5.03174086E+07	-1.69637849E-01	 2.75043291E-01
5.03296167E+07	-1.69572447E-01	 2.75084466E-01
5.03418247E+07	-1.69506025E-01	 2.75121897E-01
5.03540327E+07	-1.69435291E-01	 2.75163979E-01
5.03662407E+07	-1.69370613E-01	 2.75205496E-01
5.03784488E+07	-1.69303480E-01	 2.75246251E-01
5.03906568E+07	-1.69238700E-01	 2.75284247E-01
5.04028648E+07	-1.69169043E-01	 2.75325412E-01
5.04150728E+07	-1.69100543E-01	 2.75365364E-01
5.04272809E+07	-1.69029973E-01	 2.75400815E-01
5.04394889E+07	-1.68966688E-01	 2.75445749E-01
5.04516969E+07	-1.68894212E-01	 2.75482466E-01
5.04639049E+07	-1.68834159E-01	 2.75524673E-01
5.04761130E+07	-1.68754102E-01	 2.75568561E-01
5.04883210E+07	-1.68696452E-01	 2.75607033E-01
5.05005290E+07	-1.68618250E-01	 2.75647903E-01
5.05127370E+07	-1.68548317E-01	 2.75681586E-01
5.05249451E+07	-1.68494406E-01	 2.75723022E-01
5.05371531E+07	-1.68419048E-01	 2.75767780E-01
5.05493611E+07	-1.68353631E-01	 2.75805916E-01
5.05615691E+07	-1.68285529E-01	 2.75849188E-01
5.05737772E+07	-1.68212367E-01	 2.75884469E-01
5.05859852E+07	-1.68154720E-01	 2.75930184E-01
5.05981932E+07	-1.68079730E-01	 2.75965230E-01
5.06104012E+07	-1.68010766E-01	 2.76004565E-01
5.06226093E+07	-1.67937597E-01	 2.76046417E-01
5.06348173E+07	-1.67873627E-01	 2.76086754E-01
5.06470253E+07	-1.67809876E-01	 2.76126950E-01
5.06592333E+07	-1.67736262E-01	 2.76161557E-01
5.06714414E+07	-1.67671511E-01	 2.76202563E-01
5.06836494E+07	-1.67602446E-01	 2.76244187E-01
5.06958574E+07	-1.67535748E-01	 2.76285637E-01
5.07080654E+07	-1.67468429E-01	 2.76322136E-01
5.07202735E+07	-1.67400840E-01	 2.76359363E-01
5.07324815E+07	-1.67332682E-01	 2.76397948E-01
5.07446895E+07	-1.67264451E-01	 2.76445013E-01
5.07568975E+07	-1.67195670E-01	 2.76472331E-01
5.07691056E+07	-1.67121704E-01	 2.76515993E-01
5.07813136E+07	-1.67053787E-01	 2.76564484E-01
5.07935216E+07	-1.66987478E-01	 2.76604481E-01
5.08057296E+07	-1.66926026E-01	 2.76641219E-01
5.08179377E+07	-1.66853236E-01	 2.76679850E-01
5.08301457E+07	-1.66781792E-01	 2.76725771E-01
5.08423537E+07	-1.66713755E-01	 2.76767464E-01
5.08545617E+07	-1.66650193E-01	 2.76803473E-01
5.08667698E+07	-1.66585510E-01	 2.76841518E-01
5.08789778E+07	-1.66506063E-01	 2.76882088E-01
5.08911858E+07	-1.66448479E-01	 2.76910815E-01
5.09033938E+07	-1.66381676E-01	 2.76960191E-01
5.09156019E+07	-1.66305255E-01	 2.76996236E-01
5.09278099E+07	-1.66241307E-01	 2.77029897E-01
5.09400179E+07	-1.66168876E-01	 2.77070462E-01
5.09522259E+07	-1.66098982E-01	 2.77116576E-01
5.09644340E+07	-1.66030617E-01	 2.77155037E-01
5.09766420E+07	-1.65964832E-01	 2.77192034E-01
5.09888500E+07	-1.65893969E-01	 2.77233970E-01
5.10010580E+07	-1.65823925E-01	 2.77265603E-01
5.10132661E+07	-1.65757079E-01	 2.77310003E-01
5.10254741E+07	-1.65688397E-01	 2.77345082E-01
5.10376821E+07	-1.65624382E-01	 2.77391208E-01
5.10498901E+07	-1.65551986E-01	 2.77417676E-01
5.10620982E+07	-1.65485740E-01	 2.77472042E-01
5.10743062E+07	-1.65410267E-01	 2.77504687E-01
5.10865142E+07	-1.65349630E-01	 2.77549868E-01
5.10987222E+07	-1.65281037E-01	 2.77581254E-01
5.11109303E+07	-1.65213081E-01	 2.77624126E-01
5.11231383E+07	-1.65139491E-01	 2.77659727E-01
5.11353463E+07	-1.65068916E-01	 2.77705504E-01
5.11475543E+07	-1.64999375E-01	 2.77746038E-01
5.11597624E+07	-1.64927427E-01	 2.77773656E-01
5.11719704E+07	-1.64865052E-01	 2.77818874E-01
5.11841784E+07	-1.64793803E-01	 2.77847523E-01
5.11963864E+07	-1.64731013E-01	 2.77896213E-01
5.12085944E+07	-1.64655121E-01	 2.77935014E-01
5.12208025E+07	-1.64588100E-01	 2.77972963E-01
5.12330105E+07	-1.64518320E-01	 2.78015128E-01
5.12452185E+07	-1.64450659E-01	 2.78051707E-01
5.12574265E+07	-1.64381402E-01	 2.78091986E-01
5.12696346E+07	-1.64312186E-01	 2.78124868E-01
5.12818426E+07	-1.64244931E-01	 2.78161505E-01
5.12940506E+07	-1.64172680E-01	 2.78208167E-01
5.13062586E+07	-1.64105097E-01	 2.78239988E-01
5.13184667E+07	-1.64032562E-01	 2.78284394E-01
5.13306747E+07	-1.63963725E-01	 2.78318744E-01
5.13428827E+07	-1.63896585E-01	 2.78360494E-01
5.13550907E+07	-1.63831170E-01	 2.78399194E-01
5.13672988E+07	-1.63763161E-01	 2.78434854E-01
5.13795068E+07	-1.63689719E-01	 2.78472935E-01
5.13917148E+07	-1.63620033E-01	 2.78519650E-01
5.14039228E+07	-1.63556775E-01	 2.78549001E-01
5.14161309E+07	-1.63485896E-01	 2.78591370E-01
5.14283389E+07	-1.63414679E-01	 2.78631691E-01
5.14405469E+07	-1.63346363E-01	 2.78664409E-01
5.14527549E+07	-1.63279390E-01	 2.78702168E-01
5.14649630E+07	-1.63206272E-01	 2.78744451E-01
5.14771710E+07	-1.63131450E-01	 2.78777510E-01
5.14893790E+07	-1.63069988E-01	 2.78815989E-01
5.15015870E+07	-1.63007062E-01	 2.78865222E-01
5.15137951E+07	-1.62933664E-01	 2.78898133E-01
5.15260031E+07	-1.62861866E-01	 2.78931270E-01
5.15382111E+07	-1.62791241E-01	 2.78973730E-01
5.15504191E+07	-1.62722131E-01	 2.79015511E-01
5.15626272E+07	-1.62655986E-01	 2.79053177E-01
5.15748352E+07	-1.62584432E-01	 2.79088287E-01
5.15870432E+07	-1.62515310E-01	 2.79124311E-01
5.15992512E+07	-1.62446652E-01	 2.79167226E-01
5.16114593E+07	-1.62380386E-01	 2.79203585E-01
5.16236673E+07	-1.62310750E-01	 2.79240620E-01
5.16358753E+07	-1.62238504E-01	 2.79280960E-01
5.16480833E+07	-1.62168542E-01	 2.79314341E-01
5.16602914E+07	-1.62099206E-01	 2.79357992E-01
5.16724994E+07	-1.62031940E-01	 2.79399946E-01
5.16847074E+07	-1.61963961E-01	 2.79437264E-01
5.16969154E+07	-1.61897155E-01	 2.79477438E-01
5.17091235E+07	-1.61825327E-01	 2.79510043E-01
5.17213315E+07	-1.61756843E-01	 2.79554271E-01
5.17335395E+07	-1.61680967E-01	 2.79590304E-01
5.17457475E+07	-1.61621801E-01	 2.79620898E-01
5.17579556E+07	-1.61547639E-01	 2.79663698E-01
5.17701636E+07	-1.61480771E-01	 2.79700238E-01
5.17823716E+07	-1.61409206E-01	 2.79738234E-01
5.17945796E+07	-1.61339792E-01	 2.79775636E-01
5.18067877E+07	-1.61267147E-01	 2.79815874E-01
5.18189957E+07	-1.61200555E-01	 2.79856522E-01
5.18312037E+07	-1.61128913E-01	 2.79895264E-01
5.18434117E+07	-1.61058594E-01	 2.79928560E-01
5.18556198E+07	-1.60995048E-01	 2.79972345E-01
5.18678278E+07	-1.60927609E-01	 2.80007043E-01
5.18800358E+07	-1.60855920E-01	 2.80039733E-01
5.18922438E+07	-1.60782982E-01	 2.80080960E-01
5.19044519E+07	-1.60713323E-01	 2.80117151E-01
5.19166599E+07	-1.60648042E-01	 2.80157758E-01
5.19288679E+07	-1.60580575E-01	 2.80196878E-01
5.19410759E+07	-1.60509865E-01	 2.80236681E-01
5.19532840E+07	-1.60435361E-01	 2.80270900E-01
5.19654920E+07	-1.60371979E-01	 2.80307051E-01
5.19777000E+07	-1.60298803E-01	 2.80346428E-01
5.19899080E+07	-1.60222049E-01	 2.80387175E-01
5.20021161E+07	-1.60153912E-01	 2.80415694E-01
5.20143241E+07	-1.60088955E-01	 2.80463877E-01
5.20265321E+07	-1.60023502E-01	 2.80501040E-01
5.20387401E+07	-1.59947773E-01	 2.80533725E-01
5.20509482E+07	-1.59882089E-01	 2.80566858E-01
5.20631562E+07	-1.59812397E-01	 2.80613425E-01
5.20753642E+07	-1.59747853E-01	 2.80647590E-01
5.20875722E+07	-1.59677021E-01	 2.80679134E-01
5.20997803E+07	-1.59602410E-01	 2.80723539E-01
5.21119883E+07	-1.59535336E-01	 2.80763319E-01
5.21241963E+07	-1.59465701E-01	 2.80795741E-01
5.21364043E+07	-1.59395981E-01	 2.80832156E-01
5.21486124E+07	-1.59320019E-01	 2.80871851E-01
5.21608204E+07	-1.59256268E-01	 2.80907171E-01
5.21730284E+07	-1.59185239E-01	 2.80951935E-01
5.21852364E+07	-1.59125113E-01	 2.80982597E-01
5.21974445E+07	-1.59048702E-01	 2.81018673E-01
5.22096525E+07	-1.58981633E-01	 2.81062292E-01
5.22218605E+07	-1.58911800E-01	 2.81099032E-01
5.22340685E+07	-1.58840424E-01	 2.81134169E-01
5.22462766E+07	-1.58771214E-01	 2.81170723E-01
5.22584846E+07	-1.58708320E-01	 2.81213817E-01
5.22706926E+07	-1.58631798E-01	 2.81241609E-01
5.22829006E+07	-1.58568598E-01	 2.81283611E-01
5.22951087E+07	-1.58496424E-01	 2.81323828E-01
5.23073167E+07	-1.58423885E-01	 2.81355251E-01
5.23195247E+07	-1.58356009E-01	 2.81400234E-01
5.23317327E+07	-1.58289388E-01	 2.81435041E-01
5.23439408E+07	-1.58217820E-01	 2.81465444E-01
5.23561488E+07	-1.58150312E-01	 2.81512363E-01
5.23683568E+07	-1.58083115E-01	 2.81552941E-01
5.23805648E+07	-1.58012948E-01	 2.81580445E-01
5.23927728E+07	-1.57942596E-01	 2.81626893E-01
5.24049809E+07	-1.57868104E-01	 2.81660314E-01
5.24171889E+07	-1.57807040E-01	 2.81696852E-01
5.24293969E+07	-1.57728436E-01	 2.81730166E-01
5.24416049E+07	-1.57661174E-01	 2.81767186E-01
5.24538130E+07	-1.57595879E-01	 2.81803607E-01
5.24660210E+07	-1.57519427E-01	 2.81848668E-01
5.24782290E+07	-1.57460721E-01	 2.81876473E-01
5.24904370E+07	-1.57380042E-01	 2.81905247E-01
5.25026451E+07	-1.57318151E-01	 2.81951268E-01
5.25148531E+07	-1.57245995E-01	 2.81988136E-01
5.25270611E+07	-1.57175377E-01	 2.82032017E-01
5.25392691E+07	-1.57103741E-01	 2.82062795E-01
5.25514772E+07	-1.57038003E-01	 2.82105210E-01
5.25636852E+07	-1.56961645E-01	 2.82136346E-01
5.25758932E+07	-1.56895307E-01	 2.82169231E-01
5.25881012E+07	-1.56830912E-01	 2.82210507E-01
5.26003093E+07	-1.56755640E-01	 2.82251277E-01
5.26125173E+07	-1.56692118E-01	 2.82278701E-01
5.26247253E+07	-1.56622073E-01	 2.82324414E-01
5.26369333E+07	-1.56554729E-01	 2.82357568E-01
5.26491414E+07	-1.56479659E-01	 2.82393607E-01
5.26613494E+07	-1.56414710E-01	 2.82430837E-01
5.26735574E+07	-1.56345551E-01	 2.82473042E-01
5.26857654E+07	-1.56267338E-01	 2.82503927E-01
5.26979735E+07	-1.56204781E-01	 2.82540575E-01
5.27101815E+07	-1.56132525E-01	 2.82584443E-01
5.27223895E+07	-1.56066343E-01	 2.82623289E-01
5.27345975E+07	-1.55995174E-01	 2.82657663E-01
5.27468056E+07	-1.55930751E-01	 2.82687699E-01
5.27590136E+07	-1.55862030E-01	 2.82727629E-01
5.27712216E+07	-1.55785860E-01	 2.82763651E-01
5.27834296E+07	-1.55714378E-01	 2.82798182E-01
5.27956377E+07	-1.55646878E-01	 2.82834511E-01
5.28078457E+07	-1.55573194E-01	 2.82881108E-01
5.28200537E+07	-1.55507255E-01	 2.82909620E-01
5.28322617E+07	-1.55431958E-01	 2.82945430E-01
5.28444698E+07	-1.55367687E-01	 2.82982942E-01
5.28566778E+07	-1.55293133E-01	 2.83024727E-01
5.28688858E+07	-1.55225576E-01	 2.83054057E-01
5.28810938E+07	-1.55158039E-01	 2.83097258E-01
5.28933019E+07	-1.55086288E-01	 2.83127268E-01
5.29055099E+07	-1.55014549E-01	 2.83162735E-01
5.29177179E+07	-1.54949131E-01	 2.83203882E-01
5.29299259E+07	-1.54872942E-01	 2.83238308E-01
5.29421340E+07	-1.54808895E-01	 2.83270935E-01
5.29543420E+07	-1.54739097E-01	 2.83310405E-01
5.29665500E+07	-1.54666205E-01	 2.83349450E-01
5.29787580E+07	-1.54601795E-01	 2.83381134E-01
5.29909661E+07	-1.54528167E-01	 2.83421522E-01
5.30031741E+07	-1.54466841E-01	 2.83460809E-01
5.30153821E+07	-1.54396890E-01	 2.83495623E-01
5.30275901E+07	-1.54320679E-01	 2.83532678E-01
5.30397982E+07	-1.54249615E-01	 2.83568359E-01
5.30520062E+07	-1.54183727E-01	 2.83599796E-01
5.30642142E+07	-1.54110635E-01	 2.83641463E-01
5.30764222E+07	-1.54035314E-01	 2.83674715E-01
5.30886303E+07	-1.53969683E-01	 2.83711496E-01
5.31008383E+07	-1.53899069E-01	 2.83744903E-01
5.31130463E+07	-1.53828808E-01	 2.83786623E-01
5.31252543E+07	-1.53758883E-01	 2.83821545E-01
5.31374624E+07	-1.53698930E-01	 2.83858693E-01
5.31496704E+07	-1.53621623E-01	 2.83890807E-01
5.31618784E+07	-1.53551693E-01	 2.83931970E-01
5.31740864E+07	-1.53479179E-01	 2.83967981E-01
5.31862945E+07	-1.53411844E-01	 2.84003683E-01
5.31985025E+07	-1.53344033E-01	 2.84038842E-01
5.32107105E+07	-1.53266028E-01	 2.84072275E-01
5.32229185E+07	-1.53201292E-01	 2.84114542E-01
5.32351266E+07	-1.53136098E-01	 2.84145857E-01
5.32473346E+07	-1.53060095E-01	 2.84180566E-01
5.32595426E+07	-1.52990232E-01	 2.84218921E-01
5.32717506E+07	-1.52921697E-01	 2.84253869E-01
5.32839587E+07	-1.52849194E-01	 2.84285875E-01
5.32961667E+07	-1.52779184E-01	 2.84321974E-01
5.33083747E+07	-1.52710609E-01	 2.84362954E-01
5.33205827E+07	-1.52641091E-01	 2.84397728E-01
5.33327908E+07	-1.52571559E-01	 2.84433886E-01
5.33449988E+07	-1.52501453E-01	 2.84469210E-01
5.33572068E+07	-1.52434295E-01	 2.84507908E-01
5.33694148E+07	-1.52360311E-01	 2.84544929E-01
5.33816229E+07	-1.52286123E-01	 2.84574633E-01
5.33938309E+07	-1.52221787E-01	 2.84612651E-01
5.34060389E+07	-1.52146548E-01	 2.84650517E-01
5.34182469E+07	-1.52077720E-01	 2.84689534E-01
5.34304550E+07	-1.52003510E-01	 2.84719699E-01
5.34426630E+07	-1.51933308E-01	 2.84759372E-01
5.34548710E+07	-1.51872723E-01	 2.84793959E-01
5.34670790E+07	-1.51797353E-01	 2.84830994E-01
5.34792871E+07	-1.51726977E-01	 2.84854967E-01
5.34914951E+07	-1.51656405E-01	 2.84899096E-01
5.35037031E+07	-1.51584490E-01	 2.84936907E-01
5.35159111E+07	-1.51513502E-01	 2.84979552E-01
5.35281192E+07	-1.51451629E-01	 2.85017303E-01
5.35403272E+07	-1.51370979E-01	 2.85045924E-01
5.35525352E+07	-1.51299978E-01	 2.85084479E-01
5.35647432E+07	-1.51233265E-01	 2.85117721E-01
5.35769512E+07	-1.51165955E-01	 2.85150301E-01
5.35891593E+07	-1.51097589E-01	 2.85192424E-01
5.36013673E+07	-1.51024583E-01	 2.85220903E-01
5.36135753E+07	-1.50959506E-01	 2.85249807E-01
5.36257833E+07	-1.50885700E-01	 2.85290096E-01
5.36379914E+07	-1.50809533E-01	 2.85326735E-01
5.36501994E+07	-1.50742783E-01	 2.85368937E-01
5.36624074E+07	-1.50668819E-01	 2.85400226E-01
5.36746154E+07	-1.50600517E-01	 2.85436750E-01
5.36868235E+07	-1.50529427E-01	 2.85474480E-01
5.36990315E+07	-1.50458533E-01	 2.85511603E-01
5.37112395E+07	-1.50390485E-01	 2.85543209E-01
5.37234475E+07	-1.50316186E-01	 2.85578200E-01
5.37356556E+07	-1.50252028E-01	 2.85611819E-01
5.37478636E+07	-1.50178646E-01	 2.85652585E-01
5.37600716E+07	-1.50108885E-01	 2.85683182E-01
5.37722796E+07	-1.50037097E-01	 2.85719484E-01
5.37844877E+07	-1.49968562E-01	 2.85757624E-01
5.37966957E+07	-1.49900055E-01	 2.85796364E-01
5.38089037E+07	-1.49821211E-01	 2.85829586E-01
5.38211117E+07	-1.49753277E-01	 2.85857279E-01
5.38333198E+07	-1.49683945E-01	 2.85891403E-01
5.38455278E+07	-1.49611374E-01	 2.85934322E-01
5.38577358E+07	-1.49546278E-01	 2.85967036E-01
5.38699438E+07	-1.49479390E-01	 2.86002136E-01
5.38821519E+07	-1.49401981E-01	 2.86037302E-01
5.38943599E+07	-1.49336914E-01	 2.86062783E-01
5.39065679E+07	-1.49263104E-01	 2.86109247E-01
5.39187759E+07	-1.49187160E-01	 2.86142761E-01
5.39309840E+07	-1.49126184E-01	 2.86181939E-01
5.39431920E+07	-1.49043964E-01	 2.86211746E-01
5.39554000E+07	-1.48982260E-01	 2.86255470E-01
5.39676080E+07	-1.48908972E-01	 2.86282290E-01
5.39798161E+07	-1.48839397E-01	 2.86313037E-01
5.39920241E+07	-1.48767694E-01	 2.86354518E-01
5.40042321E+07	-1.48699628E-01	 2.86390390E-01
5.40164401E+07	-1.48622236E-01	 2.86427175E-01
5.40286482E+07	-1.48558074E-01	 2.86453750E-01
5.40408562E+07	-1.48491011E-01	 2.86488629E-01
5.40530642E+07	-1.48417922E-01	 2.86519636E-01
5.40652722E+07	-1.48347710E-01	 2.86564070E-01
5.40774803E+07	-1.48271064E-01	 2.86598551E-01
5.40896883E+07	-1.48200974E-01	 2.86639847E-01
5.41018963E+07	-1.48137838E-01	 2.86663851E-01
5.41141043E+07	-1.48061731E-01	 2.86700886E-01
5.41263124E+07	-1.47997721E-01	 2.86743451E-01
5.41385204E+07	-1.47926845E-01	 2.86773846E-01
5.41507284E+07	-1.47850966E-01	 2.86810242E-01
5.41629364E+07	-1.47783395E-01	 2.86847526E-01
5.41751445E+07	-1.47710818E-01	 2.86873490E-01
5.41873525E+07	-1.47633835E-01	 2.86908846E-01
5.41995605E+07	-1.47564833E-01	 2.86941754E-01
5.42117685E+07	-1.47496916E-01	 2.86976619E-01
5.42239766E+07	-1.47426785E-01	 2.87008711E-01
5.42361846E+07	-1.47359352E-01	 2.87041424E-01
5.42483926E+07	-1.47284149E-01	 2.87082816E-01
5.42606006E+07	-1.47217972E-01	 2.87123913E-01
5.42728087E+07	-1.47145540E-01	 2.87151853E-01
5.42850167E+07	-1.47078136E-01	 2.87185536E-01
5.42972247E+07	-1.46996997E-01	 2.87222190E-01
5.43094327E+07	-1.46931486E-01	 2.87252962E-01
5.43216408E+07	-1.46859098E-01	 2.87288056E-01
5.43338488E+07	-1.46789917E-01	 2.87328574E-01
5.43460568E+07	-1.46722457E-01	 2.87363540E-01
5.43582648E+07	-1.46653441E-01	 2.87388664E-01
5.43704729E+07	-1.46581669E-01	 2.87424723E-01
5.43826809E+07	-1.46503939E-01	 2.87458013E-01
5.43948889E+07	-1.46436154E-01	 2.87489598E-01
5.44070969E+07	-1.46367844E-01	 2.87524372E-01
5.44193050E+07	-1.46294397E-01	 2.87555005E-01
5.44315130E+07	-1.46228062E-01	 2.87599794E-01
5.44437210E+07	-1.46145876E-01	 2.87630952E-01
5.44559290E+07	-1.46080745E-01	 2.87666285E-01
5.44681371E+07	-1.46010661E-01	 2.87702070E-01
5.44803451E+07	-1.45946770E-01	 2.87732126E-01
5.44925531E+07	-1.45869228E-01	 2.87769537E-01
5.45047611E+07	-1.45798876E-01	 2.87802136E-01
5.45169692E+07	-1.45720893E-01	 2.87831804E-01
5.45291772E+07	-1.45660676E-01	 2.87873940E-01
5.45413852E+07	-1.45590603E-01	 2.87901259E-01
5.45535932E+07	-1.45511086E-01	 2.87942206E-01
5.45658013E+07	-1.45444119E-01	 2.87973292E-01
5.45780093E+07	-1.45373390E-01	 2.88007865E-01
5.45902173E+07	-1.45301619E-01	 2.88043095E-01
5.46024253E+07	-1.45237534E-01	 2.88076563E-01
5.46146334E+07	-1.45166864E-01	 2.88110482E-01
5.46268414E+07	-1.45087415E-01	 2.88147431E-01
5.46390494E+07	-1.45013998E-01	 2.88177348E-01
5.46512574E+07	-1.44943080E-01	 2.88205913E-01
5.46634655E+07	-1.44871895E-01	 2.88240763E-01
5.46756735E+07	-1.44804229E-01	 2.88281690E-01
5.46878815E+07	-1.44727677E-01	 2.88312590E-01
5.47000895E+07	-1.44669355E-01	 2.88340134E-01
5.47122976E+07	-1.44589531E-01	 2.88385930E-01
5.47245056E+07	-1.44521664E-01	 2.88414272E-01
5.47367136E+07	-1.44450154E-01	 2.88445083E-01
5.47489216E+07	-1.44378227E-01	 2.88485175E-01
5.47611296E+07	-1.44318021E-01	 2.88514260E-01
5.47733377E+07	-1.44233502E-01	 2.88549787E-01
5.47855457E+07	-1.44168484E-01	 2.88584053E-01
5.47977537E+07	-1.44094057E-01	 2.88615870E-01
5.48099617E+07	-1.44032697E-01	 2.88649152E-01
5.48221698E+07	-1.43957322E-01	 2.88678741E-01
5.48343778E+07	-1.43884079E-01	 2.88711239E-01
5.48465858E+07	-1.43811613E-01	 2.88749753E-01
5.48587938E+07	-1.43739738E-01	 2.88784132E-01
5.48710019E+07	-1.43673372E-01	 2.88821068E-01
5.48832099E+07	-1.43598211E-01	 2.88851925E-01
5.48954179E+07	-1.43524382E-01	 2.88890219E-01
5.49076259E+07	-1.43456330E-01	 2.88919008E-01
5.49198340E+07	-1.43388403E-01	 2.88960480E-01
5.49320420E+07	-1.43310728E-01	 2.88988614E-01
5.49442500E+07	-1.43241771E-01	 2.89007219E-01
5.49564580E+07	-1.43166009E-01	 2.89048330E-01
5.49686661E+07	-1.43101927E-01	 2.89089697E-01
5.49808741E+07	-1.43022318E-01	 2.89124628E-01
5.49930821E+07	-1.42956218E-01	 2.89154180E-01
5.50052901E+07	-1.42884621E-01	 2.89185155E-01
5.50174982E+07	-1.42813957E-01	 2.89224580E-01
5.50297062E+07	-1.42740797E-01	 2.89256537E-01
5.50419142E+07	-1.42669056E-01	 2.89290716E-01
5.50541222E+07	-1.42594948E-01	 2.89323620E-01
5.50663303E+07	-1.42531168E-01	 2.89354768E-01
5.50785383E+07	-1.42459649E-01	 2.89390028E-01
5.50907463E+07	-1.42383966E-01	 2.89419171E-01
5.51029543E+07	-1.42308583E-01	 2.89451813E-01
5.51151624E+07	-1.42237412E-01	 2.89496416E-01
5.51273704E+07	-1.42174904E-01	 2.89522216E-01
