! COPPER MOUNTAIN TECHNOLOGIES, PLANAR TR1300/1, 00071119, 20.2.2/1.0
! Date: 11/21/2023 6:50:51 PM
! Data: Format [Calibration Info]
! Freq          	S11: Re/Im F1                  
# HZ S RI R 50
5.00000000E+07	-1.44499146E-01	-3.00553624E-03
5.00122080E+07	-1.44504473E-01	-2.79858775E-03
5.00244160E+07	-1.44500793E-01	-2.58877290E-03
5.00366241E+07	-1.44515483E-01	-2.37470456E-03
5.00488321E+07	-1.44518024E-01	-2.17172321E-03
5.00610401E+07	-1.44523574E-01	-1.95472597E-03
5.00732481E+07	-1.44523152E-01	-1.74857022E-03
5.00854562E+07	-1.44520970E-01	-1.53800702E-03
5.00976642E+07	-1.44526945E-01	-1.32926747E-03
5.01098722E+07	-1.44529008E-01	-1.12248288E-03
5.01220802E+07	-1.44529947E-01	-9.07191713E-04
5.01342883E+07	-1.44528671E-01	-7.03712357E-04
5.01464963E+07	-1.44531932E-01	-4.90705761E-04
5.01587043E+07	-1.44531449E-01	-2.81287941E-04
5.01709123E+07	-1.44535943E-01	-7.22246747E-05
5.01831204E+07	-1.44532736E-01	 1.43217544E-04
5.01953284E+07	-1.44533601E-01	 3.53497607E-04
5.02075364E+07	-1.44525888E-01	 5.59125435E-04
5.02197444E+07	-1.44532773E-01	 7.67251401E-04
5.02319525E+07	-1.44531171E-01	 9.77331945E-04
5.02441605E+07	-1.44528764E-01	 1.18771225E-03
5.02563685E+07	-1.44525872E-01	 1.39658702E-03
5.02685765E+07	-1.44524390E-01	 1.60822475E-03
5.02807846E+07	-1.44520291E-01	 1.81835162E-03
5.02929926E+07	-1.44516921E-01	 2.02793145E-03
5.03052006E+07	-1.44511311E-01	 2.24025590E-03
5.03174086E+07	-1.44511158E-01	 2.45048888E-03
5.03296167E+07	-1.44508344E-01	 2.66043878E-03
5.03418247E+07	-1.44504510E-01	 2.86732444E-03
5.03540327E+07	-1.44497513E-01	 3.07613984E-03
5.03662407E+07	-1.44500940E-01	 3.28460937E-03
5.03784488E+07	-1.44491102E-01	 3.49864384E-03
5.03906568E+07	-1.44483678E-01	 3.70607248E-03
5.04028648E+07	-1.44481104E-01	 3.91552310E-03
5.04150728E+07	-1.44473106E-01	 4.12860094E-03
5.04272809E+07	-1.44466468E-01	 4.33790332E-03
5.04394889E+07	-1.44459219E-01	 4.54681725E-03
5.04516969E+07	-1.44451918E-01	 4.75642914E-03
5.04639049E+07	-1.44441917E-01	 4.96505145E-03
5.04761130E+07	-1.44440441E-01	 5.17705958E-03
5.04883210E+07	-1.44428958E-01	 5.38838635E-03
5.05005290E+07	-1.44420279E-01	 5.59533683E-03
5.05127370E+07	-1.44412519E-01	 5.80763836E-03
5.05249451E+07	-1.44400033E-01	 6.01484654E-03
5.05371531E+07	-1.44390305E-01	 6.22656707E-03
5.05493611E+07	-1.44381960E-01	 6.43122277E-03
5.05615691E+07	-1.44374941E-01	 6.64150505E-03
5.05737772E+07	-1.44366588E-01	 6.84785934E-03
5.05859852E+07	-1.44358085E-01	 7.06481982E-03
5.05981932E+07	-1.44348180E-01	 7.26940142E-03
5.06104012E+07	-1.44332131E-01	 7.48075042E-03
5.06226093E+07	-1.44318166E-01	 7.69408903E-03
5.06348173E+07	-1.44310836E-01	 7.90591169E-03
5.06470253E+07	-1.44297926E-01	 8.11488720E-03
5.06592333E+07	-1.44283836E-01	 8.31740666E-03
5.06714414E+07	-1.44274825E-01	 8.52812011E-03
5.06836494E+07	-1.44259548E-01	 8.74192310E-03
5.06958574E+07	-1.44247770E-01	 8.95187186E-03
5.07080654E+07	-1.44232832E-01	 9.15601667E-03
5.07202735E+07	-1.44219952E-01	 9.36841965E-03
5.07324815E+07	-1.44203267E-01	 9.57541153E-03
5.07446895E+07	-1.44186930E-01	 9.78416256E-03
5.07568975E+07	-1.44174410E-01	 9.98986728E-03
5.07691056E+07	-1.44158751E-01	 1.02038176E-02
5.07813136E+07	-1.44144997E-01	 1.04144871E-02
5.07935216E+07	-1.44130296E-01	 1.06216251E-02
5.08057296E+07	-1.44114744E-01	 1.08330253E-02
5.08179377E+07	-1.44091777E-01	 1.10401413E-02
5.08301457E+07	-1.44080826E-01	 1.12500760E-02
5.08423537E+07	-1.44066639E-01	 1.14614382E-02
5.08545617E+07	-1.44042510E-01	 1.16694461E-02
5.08667698E+07	-1.44028660E-01	 1.18809610E-02
5.08789778E+07	-1.44009202E-01	 1.20845025E-02
5.08911858E+07	-1.43992140E-01	 1.22925152E-02
5.09033938E+07	-1.43977200E-01	 1.25032105E-02
5.09156019E+07	-1.43954232E-01	 1.27120228E-02
5.09278099E+07	-1.43941706E-01	 1.29168669E-02
5.09400179E+07	-1.43915736E-01	 1.31338429E-02
5.09522259E+07	-1.43895101E-01	 1.33408494E-02
5.09644340E+07	-1.43869744E-01	 1.35484390E-02
5.09766420E+07	-1.43851925E-01	 1.37586133E-02
5.09888500E+07	-1.43832248E-01	 1.39663056E-02
5.10010580E+07	-1.43809843E-01	 1.41727199E-02
5.10132661E+07	-1.43786376E-01	 1.43833656E-02
5.10254741E+07	-1.43772267E-01	 1.45884341E-02
5.10376821E+07	-1.43745636E-01	 1.47996024E-02
5.10498901E+07	-1.43722648E-01	 1.50033445E-02
5.10620982E+07	-1.43699699E-01	 1.52171545E-02
5.10743062E+07	-1.43676311E-01	 1.54213777E-02
5.10865142E+07	-1.43654940E-01	 1.56384499E-02
5.10987222E+07	-1.43627477E-01	 1.58439528E-02
5.11109303E+07	-1.43605014E-01	 1.60493520E-02
5.11231383E+07	-1.43578975E-01	 1.62622907E-02
5.11353463E+07	-1.43550312E-01	 1.64663519E-02
5.11475543E+07	-1.43526182E-01	 1.66730895E-02
5.11597624E+07	-1.43500248E-01	 1.68847806E-02
5.11719704E+07	-1.43475710E-01	 1.70916192E-02
5.11841784E+07	-1.43449919E-01	 1.72951754E-02
5.11963864E+07	-1.43423553E-01	 1.75034282E-02
5.12085944E+07	-1.43396034E-01	 1.77112916E-02
5.12208025E+07	-1.43366985E-01	 1.79219402E-02
5.12330105E+07	-1.43343036E-01	 1.81268610E-02
5.12452185E+07	-1.43318196E-01	 1.83357859E-02
5.12574265E+07	-1.43287327E-01	 1.85431766E-02
5.12696346E+07	-1.43259475E-01	 1.87518778E-02
5.12818426E+07	-1.43227437E-01	 1.89571714E-02
5.12940506E+07	-1.43201255E-01	 1.91654830E-02
5.13062586E+07	-1.43169642E-01	 1.93733120E-02
5.13184667E+07	-1.43143476E-01	 1.95817740E-02
5.13306747E+07	-1.43109135E-01	 1.97926188E-02
5.13428827E+07	-1.43086699E-01	 2.00011516E-02
5.13550907E+07	-1.43047911E-01	 2.02067621E-02
5.13672988E+07	-1.43018797E-01	 2.04087401E-02
5.13795068E+07	-1.42986950E-01	 2.06187133E-02
5.13917148E+07	-1.42956792E-01	 2.08291951E-02
5.14039228E+07	-1.42920917E-01	 2.10356649E-02
5.14161309E+07	-1.42892220E-01	 2.12412485E-02
5.14283389E+07	-1.42862262E-01	 2.14480562E-02
5.14405469E+07	-1.42828270E-01	 2.16603175E-02
5.14527549E+07	-1.42795039E-01	 2.18617125E-02
5.14649630E+07	-1.42759737E-01	 2.20667553E-02
5.14771710E+07	-1.42730045E-01	 2.22748486E-02
5.14893790E+07	-1.42692461E-01	 2.24782043E-02
5.15015870E+07	-1.42663681E-01	 2.26909067E-02
5.15137951E+07	-1.42622452E-01	 2.28958598E-02
5.15260031E+07	-1.42591056E-01	 2.30996970E-02
5.15382111E+07	-1.42549850E-01	 2.33069584E-02
5.15504191E+07	-1.42518532E-01	 2.35121458E-02
5.15626272E+07	-1.42481193E-01	 2.37218712E-02
5.15748352E+07	-1.42444952E-01	 2.39247077E-02
5.15870432E+07	-1.42404300E-01	 2.41334491E-02
5.15992512E+07	-1.42374756E-01	 2.43411739E-02
5.16114593E+07	-1.42337305E-01	 2.45417735E-02
5.16236673E+07	-1.42296611E-01	 2.47542444E-02
5.16358753E+07	-1.42261353E-01	 2.49603318E-02
5.16480833E+07	-1.42223281E-01	 2.51641779E-02
5.16602914E+07	-1.42179092E-01	 2.53662447E-02
5.16724994E+07	-1.42146045E-01	 2.55752552E-02
5.16847074E+07	-1.42105166E-01	 2.57815721E-02
5.16969154E+07	-1.42068876E-01	 2.59880527E-02
5.17091235E+07	-1.42024708E-01	 2.61924785E-02
5.17213315E+07	-1.41983091E-01	 2.63999535E-02
5.17335395E+07	-1.41946590E-01	 2.66062878E-02
5.17457475E+07	-1.41907211E-01	 2.68101641E-02
5.17579556E+07	-1.41862919E-01	 2.70189022E-02
5.17701636E+07	-1.41822910E-01	 2.72200046E-02
5.17823716E+07	-1.41782238E-01	 2.74250246E-02
5.17945796E+07	-1.41739237E-01	 2.76303256E-02
5.18067877E+07	-1.41698353E-01	 2.78343651E-02
5.18189957E+07	-1.41656735E-01	 2.80440689E-02
5.18312037E+07	-1.41616225E-01	 2.82491326E-02
5.18434117E+07	-1.41569196E-01	 2.84500480E-02
5.18556198E+07	-1.41526999E-01	 2.86596359E-02
5.18678278E+07	-1.41487690E-01	 2.88640213E-02
5.18800358E+07	-1.41439727E-01	 2.90690691E-02
5.18922438E+07	-1.41397598E-01	 2.92717893E-02
5.19044519E+07	-1.41346178E-01	 2.94764397E-02
5.19166599E+07	-1.41305248E-01	 2.96774562E-02
5.19288679E+07	-1.41265535E-01	 2.98912818E-02
5.19410759E+07	-1.41216716E-01	 3.00904289E-02
5.19532840E+07	-1.41169882E-01	 3.02942448E-02
5.19654920E+07	-1.41124958E-01	 3.04992049E-02
5.19777000E+07	-1.41076213E-01	 3.07043032E-02
5.19899080E+07	-1.41026403E-01	 3.09051587E-02
5.20021161E+07	-1.40986108E-01	 3.11074111E-02
5.20143241E+07	-1.40938307E-01	 3.13134193E-02
5.20265321E+07	-1.40887863E-01	 3.15228302E-02
5.20387401E+07	-1.40837879E-01	 3.17208817E-02
5.20509482E+07	-1.40794077E-01	 3.19249809E-02
5.20631562E+07	-1.40748375E-01	 3.21319287E-02
5.20753642E+07	-1.40699047E-01	 3.23351213E-02
5.20875722E+07	-1.40650962E-01	 3.25366298E-02
5.20997803E+07	-1.40599414E-01	 3.27426106E-02
5.21119883E+07	-1.40548680E-01	 3.29493331E-02
5.21241963E+07	-1.40500085E-01	 3.31465285E-02
5.21364043E+07	-1.40447966E-01	 3.33577052E-02
5.21486124E+07	-1.40400134E-01	 3.35589648E-02
5.21608204E+07	-1.40349792E-01	 3.37582530E-02
5.21730284E+07	-1.40294841E-01	 3.39661535E-02
5.21852364E+07	-1.40243649E-01	 3.41661979E-02
5.21974445E+07	-1.40193351E-01	 3.43681838E-02
5.22096525E+07	-1.40139400E-01	 3.45708552E-02
5.22218605E+07	-1.40088668E-01	 3.47750242E-02
5.22340685E+07	-1.40034978E-01	 3.49822530E-02
5.22462766E+07	-1.39984230E-01	 3.51797168E-02
5.22584846E+07	-1.39937354E-01	 3.53812404E-02
5.22706926E+07	-1.39882864E-01	 3.55843170E-02
5.22829006E+07	-1.39823883E-01	 3.57897382E-02
5.22951087E+07	-1.39770722E-01	 3.59878157E-02
5.23073167E+07	-1.39717457E-01	 3.61893606E-02
5.23195247E+07	-1.39663307E-01	 3.64008456E-02
5.23317327E+07	-1.39600289E-01	 3.65996342E-02
5.23439408E+07	-1.39549682E-01	 3.67934048E-02
5.23561488E+07	-1.39500271E-01	 3.70065591E-02
5.23683568E+07	-1.39444214E-01	 3.72084806E-02
5.23805648E+07	-1.39386713E-01	 3.74026582E-02
5.23927728E+07	-1.39327826E-01	 3.76065043E-02
5.24049809E+07	-1.39267778E-01	 3.78099554E-02
5.24171889E+07	-1.39218557E-01	 3.80090244E-02
5.24293969E+07	-1.39153661E-01	 3.82111167E-02
5.24416049E+07	-1.39096617E-01	 3.84119412E-02
5.24538130E+07	-1.39037956E-01	 3.86106839E-02
5.24660210E+07	-1.38980081E-01	 3.88156365E-02
5.24782290E+07	-1.38922769E-01	 3.90157482E-02
5.24904370E+07	-1.38861850E-01	 3.92186360E-02
5.25026451E+07	-1.38809819E-01	 3.94160683E-02
5.25148531E+07	-1.38750031E-01	 3.96172180E-02
5.25270611E+07	-1.38684306E-01	 3.98203081E-02
5.25392691E+07	-1.38626372E-01	 4.00197948E-02
5.25514772E+07	-1.38564916E-01	 4.02174803E-02
5.25636852E+07	-1.38501910E-01	 4.04193343E-02
5.25758932E+07	-1.38448191E-01	 4.06174756E-02
5.25881012E+07	-1.38385896E-01	 4.08184425E-02
5.26003093E+07	-1.38320795E-01	 4.10221805E-02
5.26125173E+07	-1.38258419E-01	 4.12158772E-02
5.26247253E+07	-1.38198055E-01	 4.14177715E-02
5.26369333E+07	-1.38141379E-01	 4.16200910E-02
5.26491414E+07	-1.38072881E-01	 4.18159511E-02
5.26613494E+07	-1.38009199E-01	 4.20178753E-02
5.26735574E+07	-1.37947359E-01	 4.22148570E-02
5.26857654E+07	-1.37885313E-01	 4.24152153E-02
5.26979735E+07	-1.37820190E-01	 4.26145380E-02
5.27101815E+07	-1.37755000E-01	 4.28156487E-02
5.27223895E+07	-1.37692860E-01	 4.30162103E-02
5.27345975E+07	-1.37626964E-01	 4.32151248E-02
5.27468056E+07	-1.37565206E-01	 4.34150504E-02
5.27590136E+07	-1.37498089E-01	 4.36130022E-02
5.27712216E+07	-1.37428807E-01	 4.38093349E-02
5.27834296E+07	-1.37362412E-01	 4.40056316E-02
5.27956377E+07	-1.37297793E-01	 4.42080676E-02
5.28078457E+07	-1.37230135E-01	 4.44073159E-02
5.28200537E+07	-1.37162485E-01	 4.46018866E-02
5.28322617E+07	-1.37091573E-01	 4.48028534E-02
5.28444698E+07	-1.37025902E-01	 4.49992629E-02
5.28566778E+07	-1.36960060E-01	 4.51968766E-02
5.28688858E+07	-1.36892916E-01	 4.53952421E-02
5.28810938E+07	-1.36823985E-01	 4.55963085E-02
5.28933019E+07	-1.36751632E-01	 4.57860288E-02
5.29055099E+07	-1.36684762E-01	 4.59877041E-02
5.29177179E+07	-1.36618156E-01	 4.61884539E-02
5.29299259E+07	-1.36544130E-01	 4.63828398E-02
5.29421340E+07	-1.36478791E-01	 4.65784612E-02
5.29543420E+07	-1.36405931E-01	 4.67805742E-02
5.29665500E+07	-1.36332439E-01	 4.69759749E-02
5.29787580E+07	-1.36266831E-01	 4.71695255E-02
5.29909661E+07	-1.36195902E-01	 4.73697121E-02
5.30031741E+07	-1.36125720E-01	 4.75688123E-02
5.30153821E+07	-1.36055029E-01	 4.77594120E-02
5.30275901E+07	-1.35982928E-01	 4.79613117E-02
5.30397982E+07	-1.35907289E-01	 4.81532207E-02
5.30520062E+07	-1.35837184E-01	 4.83465180E-02
5.30642142E+07	-1.35761736E-01	 4.85504698E-02
5.30764222E+07	-1.35687556E-01	 4.87431392E-02
5.30886303E+07	-1.35614549E-01	 4.89365549E-02
5.31008383E+07	-1.35544719E-01	 4.91346638E-02
5.31130463E+07	-1.35467247E-01	 4.93395439E-02
5.31252543E+07	-1.35392589E-01	 4.95242646E-02
5.31374624E+07	-1.35318165E-01	 4.97180647E-02
5.31496704E+07	-1.35248086E-01	 4.99158212E-02
5.31618784E+07	-1.35170804E-01	 5.01145042E-02
5.31740864E+07	-1.35093071E-01	 5.03079242E-02
5.31862945E+07	-1.35015936E-01	 5.04979100E-02
5.31985025E+07	-1.34945502E-01	 5.06964243E-02
5.32107105E+07	-1.34863296E-01	 5.08915959E-02
5.32229185E+07	-1.34786710E-01	 5.10880286E-02
5.32351266E+07	-1.34712091E-01	 5.12789454E-02
5.32473346E+07	-1.34635579E-01	 5.14746891E-02
5.32595426E+07	-1.34557965E-01	 5.16667642E-02
5.32717506E+07	-1.34480119E-01	 5.18634340E-02
5.32839587E+07	-1.34400135E-01	 5.20567259E-02
5.32961667E+07	-1.34324114E-01	 5.22494063E-02
5.33083747E+07	-1.34238113E-01	 5.24460843E-02
5.33205827E+07	-1.34168066E-01	 5.26413590E-02
5.33327908E+07	-1.34085456E-01	 5.28364453E-02
5.33449988E+07	-1.34004522E-01	 5.30232546E-02
5.33572068E+07	-1.33929333E-01	 5.32210278E-02
5.33694148E+07	-1.33846097E-01	 5.34135976E-02
5.33816229E+07	-1.33766028E-01	 5.36088668E-02
5.33938309E+07	-1.33683364E-01	 5.37941725E-02
5.34060389E+07	-1.33601326E-01	 5.39896927E-02
5.34182469E+07	-1.33522862E-01	 5.41842086E-02
5.34304550E+07	-1.33437289E-01	 5.43789523E-02
5.34426630E+07	-1.33353850E-01	 5.45694739E-02
5.34548710E+07	-1.33280719E-01	 5.47665270E-02
5.34670790E+07	-1.33194594E-01	 5.49550821E-02
5.34792871E+07	-1.33111091E-01	 5.51441033E-02
5.34914951E+07	-1.33029909E-01	 5.53383049E-02
5.35037031E+07	-1.32939602E-01	 5.55305353E-02
5.35159111E+07	-1.32858544E-01	 5.57203624E-02
5.35281192E+07	-1.32777680E-01	 5.59168106E-02
5.35403272E+07	-1.32691353E-01	 5.61066333E-02
5.35525352E+07	-1.32609275E-01	 5.63024227E-02
5.35647432E+07	-1.32525430E-01	 5.64875355E-02
5.35769512E+07	-1.32443241E-01	 5.66787279E-02
5.35891593E+07	-1.32357786E-01	 5.68716227E-02
5.36013673E+07	-1.32265256E-01	 5.70654725E-02
5.36135753E+07	-1.32187477E-01	 5.72472328E-02
5.36257833E+07	-1.32097169E-01	 5.74429931E-02
5.36379914E+07	-1.32008824E-01	 5.76291421E-02
5.36501994E+07	-1.31921852E-01	 5.78215222E-02
5.36624074E+07	-1.31833215E-01	 5.80105545E-02
5.36746154E+07	-1.31749665E-01	 5.82012930E-02
5.36868235E+07	-1.31661570E-01	 5.83927547E-02
5.36990315E+07	-1.31570722E-01	 5.85821693E-02
5.37112395E+07	-1.31481748E-01	 5.87704508E-02
5.37234475E+07	-1.31393876E-01	 5.89576969E-02
5.37356556E+07	-1.31308019E-01	 5.91543093E-02
5.37478636E+07	-1.31220379E-01	 5.93379173E-02
5.37600716E+07	-1.31131517E-01	 5.95294127E-02
5.37722796E+07	-1.31039824E-01	 5.97221020E-02
5.37844877E+07	-1.30952900E-01	 5.99065458E-02
5.37966957E+07	-1.30863524E-01	 6.01000446E-02
5.38089037E+07	-1.30768482E-01	 6.02852360E-02
5.38211117E+07	-1.30678960E-01	 6.04692535E-02
5.38333198E+07	-1.30586180E-01	 6.06573861E-02
5.38455278E+07	-1.30496670E-01	 6.08476713E-02
5.38577358E+07	-1.30405450E-01	 6.10393800E-02
5.38699438E+07	-1.30314945E-01	 6.12241719E-02
5.38821519E+07	-1.30218334E-01	 6.14126730E-02
5.38943599E+07	-1.30131358E-01	 6.15969759E-02
5.39065679E+07	-1.30032858E-01	 6.17929352E-02
5.39187759E+07	-1.29940161E-01	 6.19724746E-02
5.39309840E+07	-1.29854731E-01	 6.21621021E-02
5.39431920E+07	-1.29756142E-01	 6.23454568E-02
5.39554000E+07	-1.29664188E-01	 6.25355591E-02
5.39676080E+07	-1.29563617E-01	 6.27209526E-02
5.39798161E+07	-1.29471614E-01	 6.29083133E-02
5.39920241E+07	-1.29380027E-01	 6.30921512E-02
5.40042321E+07	-1.29283381E-01	 6.32787518E-02
5.40164401E+07	-1.29190425E-01	 6.34659382E-02
5.40286482E+07	-1.29093835E-01	 6.36485145E-02
5.40408562E+07	-1.29003365E-01	 6.38332543E-02
5.40530642E+07	-1.28904456E-01	 6.40214779E-02
5.40652722E+07	-1.28803114E-01	 6.42060761E-02
5.40774803E+07	-1.28708974E-01	 6.43961936E-02
5.40896883E+07	-1.28609592E-01	 6.45846732E-02
5.41018963E+07	-1.28515819E-01	 6.47656157E-02
5.41141043E+07	-1.28423633E-01	 6.49534341E-02
5.41263124E+07	-1.28327400E-01	 6.51377007E-02
5.41385204E+07	-1.28228122E-01	 6.53183934E-02
5.41507284E+07	-1.28123250E-01	 6.55024644E-02
5.41629364E+07	-1.28024811E-01	 6.56919174E-02
5.41751445E+07	-1.27928722E-01	 6.58732432E-02
5.41873525E+07	-1.27823923E-01	 6.60566552E-02
5.41995605E+07	-1.27727224E-01	 6.62429504E-02
5.42117685E+07	-1.27629329E-01	 6.64245404E-02
5.42239766E+07	-1.27526683E-01	 6.66054459E-02
5.42361846E+07	-1.27431123E-01	 6.67870107E-02
5.42483926E+07	-1.27330735E-01	 6.69722768E-02
5.42606006E+07	-1.27231880E-01	 6.71612611E-02
5.42728087E+07	-1.27128407E-01	 6.73401419E-02
5.42850167E+07	-1.27033443E-01	 6.75249627E-02
5.42972247E+07	-1.26923505E-01	 6.77075605E-02
5.43094327E+07	-1.26828423E-01	 6.78888272E-02
5.43216408E+07	-1.26722248E-01	 6.80724377E-02
5.43338488E+07	-1.26619175E-01	 6.82567608E-02
5.43460568E+07	-1.26517955E-01	 6.84387333E-02
5.43582648E+07	-1.26417469E-01	 6.86150329E-02
5.43704729E+07	-1.26310611E-01	 6.87962032E-02
5.43826809E+07	-1.26206589E-01	 6.89795096E-02
5.43948889E+07	-1.26104326E-01	 6.91567154E-02
5.44070969E+07	-1.26005015E-01	 6.93421850E-02
5.44193050E+07	-1.25898602E-01	 6.95224425E-02
5.44315130E+07	-1.25796394E-01	 6.97071222E-02
5.44437210E+07	-1.25682892E-01	 6.98840498E-02
5.44559290E+07	-1.25579958E-01	 7.00623509E-02
5.44681371E+07	-1.25477945E-01	 7.02504899E-02
5.44803451E+07	-1.25368481E-01	 7.04263180E-02
5.44925531E+07	-1.25263081E-01	 7.06094313E-02
5.45047611E+07	-1.25156377E-01	 7.07846050E-02
5.45169692E+07	-1.25053941E-01	 7.09658544E-02
5.45291772E+07	-1.24945475E-01	 7.11406227E-02
5.45413852E+07	-1.24839858E-01	 7.13264717E-02
5.45535932E+07	-1.24731524E-01	 7.15057831E-02
5.45658013E+07	-1.24626590E-01	 7.16820145E-02
5.45780093E+07	-1.24515523E-01	 7.18657169E-02
5.45902173E+07	-1.24407384E-01	 7.20389593E-02
5.46024253E+07	-1.24307855E-01	 7.22205983E-02
5.46146334E+07	-1.24193718E-01	 7.24003695E-02
5.46268414E+07	-1.24084030E-01	 7.25843331E-02
5.46390494E+07	-1.23975572E-01	 7.27543463E-02
5.46512574E+07	-1.23864338E-01	 7.29359299E-02
5.46634655E+07	-1.23752554E-01	 7.31121757E-02
5.46756735E+07	-1.23648332E-01	 7.32896773E-02
5.46878815E+07	-1.23533230E-01	 7.34673289E-02
5.47000895E+07	-1.23427539E-01	 7.36411046E-02
5.47122976E+07	-1.23315368E-01	 7.38205230E-02
5.47245056E+07	-1.23205167E-01	 7.39944194E-02
5.47367136E+07	-1.23093423E-01	 7.41748368E-02
5.47489216E+07	-1.22984451E-01	 7.43486298E-02
5.47611296E+07	-1.22876969E-01	 7.45286887E-02
5.47733377E+07	-1.22758365E-01	 7.47051949E-02
5.47855457E+07	-1.22646282E-01	 7.48782324E-02
5.47977537E+07	-1.22531266E-01	 7.50539954E-02
5.48099617E+07	-1.22426122E-01	 7.52291560E-02
5.48221698E+07	-1.22311659E-01	 7.54075301E-02
5.48343778E+07	-1.22193852E-01	 7.55783056E-02
5.48465858E+07	-1.22082262E-01	 7.57582836E-02
5.48587938E+07	-1.21971386E-01	 7.59303001E-02
5.48710019E+07	-1.21855932E-01	 7.61072940E-02
5.48832099E+07	-1.21737496E-01	 7.62828743E-02
5.48954179E+07	-1.21623713E-01	 7.64624544E-02
5.49076259E+07	-1.21509548E-01	 7.66322358E-02
5.49198340E+07	-1.21395218E-01	 7.68119001E-02
5.49320420E+07	-1.21280148E-01	 7.69796015E-02
5.49442500E+07	-1.21168201E-01	 7.71466159E-02
5.49564580E+07	-1.21045703E-01	 7.73251637E-02
5.49686661E+07	-1.20936674E-01	 7.75050057E-02
5.49808741E+07	-1.20814311E-01	 7.76755334E-02
5.49930821E+07	-1.20701252E-01	 7.78463125E-02
5.50052901E+07	-1.20583536E-01	 7.80224910E-02
5.50174982E+07	-1.20467407E-01	 7.81947566E-02
5.50297062E+07	-1.20348876E-01	 7.83683988E-02
5.50419142E+07	-1.20231123E-01	 7.85389580E-02
5.50541222E+07	-1.20113091E-01	 7.87147266E-02
5.50663303E+07	-1.19996563E-01	 7.88816765E-02
5.50785383E+07	-1.19875808E-01	 7.90561259E-02
5.50907463E+07	-1.19753839E-01	 7.92263264E-02
5.51029543E+07	-1.19633458E-01	 7.93931921E-02
5.51151624E+07	-1.19517531E-01	 7.95738188E-02
5.51273704E+07	-1.19400598E-01	 7.97356228E-02
