! COPPER MOUNTAIN TECHNOLOGIES, PLANAR TR1300/1, 00071119, 20.2.2/1.0
! Date: 7/24/2023 9:09:36 AM
! Data: Format [Calibration Info]
! Freq          	S11: Re/Im F1                  
# HZ S RI R 50
5.00000000E+07	-8.81482550E-02	 1.02833398E-01
5.00122080E+07	-8.79801152E-02	 1.02971054E-01
5.00244160E+07	-8.78163266E-02	 1.03106340E-01
5.00366241E+07	-8.76525694E-02	 1.03248830E-01
5.00488321E+07	-8.74854991E-02	 1.03383242E-01
5.00610401E+07	-8.73228869E-02	 1.03521107E-01
5.00732481E+07	-8.71540926E-02	 1.03659274E-01
5.00854562E+07	-8.69873099E-02	 1.03797632E-01
5.00976642E+07	-8.68232608E-02	 1.03929922E-01
5.01098722E+07	-8.66498919E-02	 1.04068377E-01
5.01220802E+07	-8.64831707E-02	 1.04203509E-01
5.01342883E+07	-8.63249453E-02	 1.04337884E-01
5.01464963E+07	-8.61545030E-02	 1.04477284E-01
5.01587043E+07	-8.59868217E-02	 1.04610549E-01
5.01709123E+07	-8.58113781E-02	 1.04741462E-01
5.01831204E+07	-8.56467292E-02	 1.04879372E-01
5.01953284E+07	-8.54722073E-02	 1.05013163E-01
5.02075364E+07	-8.53084511E-02	 1.05142909E-01
5.02197444E+07	-8.51453234E-02	 1.05280009E-01
5.02319525E+07	-8.49763175E-02	 1.05411428E-01
5.02441605E+07	-8.48090634E-02	 1.05549065E-01
5.02563685E+07	-8.46333011E-02	 1.05674597E-01
5.02685765E+07	-8.44618400E-02	 1.05807573E-01
5.02807846E+07	-8.42950320E-02	 1.05942419E-01
5.02929926E+07	-8.41189844E-02	 1.06077029E-01
5.03052006E+07	-8.39556942E-02	 1.06206267E-01
5.03174086E+07	-8.37881817E-02	 1.06337583E-01
5.03296167E+07	-8.36137479E-02	 1.06470744E-01
5.03418247E+07	-8.34450776E-02	 1.06600802E-01
5.03540327E+07	-8.32710299E-02	 1.06733218E-01
5.03662407E+07	-8.30975722E-02	 1.06859141E-01
5.03784488E+07	-8.29284629E-02	 1.06989543E-01
5.03906568E+07	-8.27538547E-02	 1.07117716E-01
5.04028648E+07	-8.25831119E-02	 1.07248574E-01
5.04150728E+07	-8.24125904E-02	 1.07385035E-01
5.04272809E+07	-8.22383420E-02	 1.07505247E-01
5.04394889E+07	-8.20642887E-02	 1.07633073E-01
5.04516969E+07	-8.18957852E-02	 1.07766939E-01
5.04639049E+07	-8.17222206E-02	 1.07894995E-01
5.04761130E+07	-8.15467558E-02	 1.08017360E-01
5.04883210E+07	-8.13697614E-02	 1.08147236E-01
5.05005290E+07	-8.11960659E-02	 1.08272035E-01
5.05127370E+07	-8.10197027E-02	 1.08399003E-01
5.05249451E+07	-8.08526267E-02	 1.08529955E-01
5.05371531E+07	-8.06709595E-02	 1.08656225E-01
5.05493611E+07	-8.05014040E-02	 1.08780375E-01
5.05615691E+07	-8.03221684E-02	 1.08905507E-01
5.05737772E+07	-8.01465367E-02	 1.09032565E-01
5.05859852E+07	-7.99746508E-02	 1.09151514E-01
5.05981932E+07	-7.97995170E-02	 1.09281761E-01
5.06104012E+07	-7.96261408E-02	 1.09405561E-01
5.06226093E+07	-7.94434635E-02	 1.09527511E-01
5.06348173E+07	-7.92725261E-02	 1.09651190E-01
5.06470253E+07	-7.90918068E-02	 1.09776078E-01
5.06592333E+07	-7.89202719E-02	 1.09901878E-01
5.06714414E+07	-7.87436032E-02	 1.10017749E-01
5.06836494E+07	-7.85667555E-02	 1.10142539E-01
5.06958574E+07	-7.83901200E-02	 1.10264409E-01
5.07080654E+07	-7.82090344E-02	 1.10387505E-01
5.07202735E+07	-7.80329416E-02	 1.10506892E-01
5.07324815E+07	-7.78543146E-02	 1.10631858E-01
5.07446895E+07	-7.76764012E-02	 1.10749092E-01
5.07568975E+07	-7.74963020E-02	 1.10870778E-01
5.07691056E+07	-7.73230973E-02	 1.10991021E-01
5.07813136E+07	-7.71418537E-02	 1.11113230E-01
5.07935216E+07	-7.69634867E-02	 1.11231812E-01
5.08057296E+07	-7.67846795E-02	 1.11352421E-01
5.08179377E+07	-7.66059843E-02	 1.11471613E-01
5.08301457E+07	-7.64280586E-02	 1.11586558E-01
5.08423537E+07	-7.62472194E-02	 1.11711745E-01
5.08545617E+07	-7.60664430E-02	 1.11825574E-01
5.08667698E+07	-7.58915895E-02	 1.11946467E-01
5.08789778E+07	-7.57073296E-02	 1.12066693E-01
5.08911858E+07	-7.55308439E-02	 1.12183163E-01
5.09033938E+07	-7.53461660E-02	 1.12296396E-01
5.09156019E+07	-7.51643601E-02	 1.12413034E-01
5.09278099E+07	-7.49854890E-02	 1.12531240E-01
5.09400179E+07	-7.48046109E-02	 1.12650785E-01
5.09522259E+07	-7.46200162E-02	 1.12767651E-01
5.09644340E+07	-7.44412802E-02	 1.12886509E-01
5.09766420E+07	-7.42600008E-02	 1.12990378E-01
5.09888500E+07	-7.40739155E-02	 1.13110037E-01
5.10010580E+07	-7.38961542E-02	 1.13222169E-01
5.10132661E+07	-7.37159354E-02	 1.13336488E-01
5.10254741E+07	-7.35341905E-02	 1.13455758E-01
5.10376821E+07	-7.33476227E-02	 1.13571021E-01
5.10498901E+07	-7.31635718E-02	 1.13678595E-01
5.10620982E+07	-7.29777574E-02	 1.13791793E-01
5.10743062E+07	-7.27971758E-02	 1.13908130E-01
5.10865142E+07	-7.26149461E-02	 1.14026347E-01
5.10987222E+07	-7.24274869E-02	 1.14131282E-01
5.11109303E+07	-7.22452728E-02	 1.14241393E-01
5.11231383E+07	-7.20578542E-02	 1.14356094E-01
5.11353463E+07	-7.18785261E-02	 1.14467807E-01
5.11475543E+07	-7.16875057E-02	 1.14581729E-01
5.11597624E+07	-7.15049175E-02	 1.14683163E-01
5.11719704E+07	-7.13239956E-02	 1.14797841E-01
5.11841784E+07	-7.11355036E-02	 1.14905914E-01
5.11963864E+07	-7.09478725E-02	 1.15013654E-01
5.12085944E+07	-7.07657920E-02	 1.15128237E-01
5.12208025E+07	-7.05797352E-02	 1.15232844E-01
5.12330105E+07	-7.03938684E-02	 1.15349746E-01
5.12452185E+07	-7.02068580E-02	 1.15456496E-01
5.12574265E+07	-7.00231567E-02	 1.15559959E-01
5.12696346E+07	-6.98338981E-02	 1.15670205E-01
5.12818426E+07	-6.96522409E-02	 1.15776000E-01
5.12940506E+07	-6.94579133E-02	 1.15881008E-01
5.13062586E+07	-6.92758093E-02	 1.15987660E-01
5.13184667E+07	-6.90880493E-02	 1.16103318E-01
5.13306747E+07	-6.89053956E-02	 1.16202193E-01
5.13428827E+07	-6.87126306E-02	 1.16308222E-01
5.13550907E+07	-6.85228002E-02	 1.16415724E-01
5.13672988E+07	-6.83357046E-02	 1.16524211E-01
5.13795068E+07	-6.81518682E-02	 1.16622051E-01
5.13917148E+07	-6.79659422E-02	 1.16737611E-01
5.14039228E+07	-6.77699074E-02	 1.16835423E-01
5.14161309E+07	-6.75844155E-02	 1.16938882E-01
5.14283389E+07	-6.73958620E-02	 1.17040622E-01
5.14405469E+07	-6.72079909E-02	 1.17148491E-01
5.14527549E+07	-6.70204497E-02	 1.17247016E-01
5.14649630E+07	-6.68297781E-02	 1.17348245E-01
5.14771710E+07	-6.66396357E-02	 1.17457001E-01
5.14893790E+07	-6.64535342E-02	 1.17558447E-01
5.15015870E+07	-6.62621661E-02	 1.17649301E-01
5.15137951E+07	-6.60676397E-02	 1.17760729E-01
5.15260031E+07	-6.58769057E-02	 1.17857667E-01
5.15382111E+07	-6.56890261E-02	 1.17959654E-01
5.15504191E+07	-6.55016187E-02	 1.18065493E-01
5.15626272E+07	-6.53088823E-02	 1.18161124E-01
5.15748352E+07	-6.51186418E-02	 1.18268351E-01
5.15870432E+07	-6.49262507E-02	 1.18365377E-01
5.15992512E+07	-6.47402689E-02	 1.18462224E-01
5.16114593E+07	-6.45439359E-02	 1.18557299E-01
5.16236673E+07	-6.43542455E-02	 1.18657971E-01
5.16358753E+07	-6.41635658E-02	 1.18759366E-01
5.16480833E+07	-6.39704141E-02	 1.18851886E-01
5.16602914E+07	-6.37783147E-02	 1.18954461E-01
5.16724994E+07	-6.35891368E-02	 1.19053597E-01
5.16847074E+07	-6.33924263E-02	 1.19149567E-01
5.16969154E+07	-6.32006583E-02	 1.19246197E-01
5.17091235E+07	-6.30133672E-02	 1.19343339E-01
5.17213315E+07	-6.28195113E-02	 1.19441555E-01
5.17335395E+07	-6.26180361E-02	 1.19532806E-01
5.17457475E+07	-6.24309273E-02	 1.19632726E-01
5.17579556E+07	-6.22372099E-02	 1.19729114E-01
5.17701636E+07	-6.20426976E-02	 1.19821813E-01
5.17823716E+07	-6.18543535E-02	 1.19913149E-01
5.17945796E+07	-6.16583814E-02	 1.20006949E-01
5.18067877E+07	-6.14651701E-02	 1.20103294E-01
5.18189957E+07	-6.12666686E-02	 1.20196175E-01
5.18312037E+07	-6.10766473E-02	 1.20294337E-01
5.18434117E+07	-6.08753801E-02	 1.20382886E-01
5.18556198E+07	-6.06862672E-02	 1.20478758E-01
5.18678278E+07	-6.04867873E-02	 1.20565812E-01
5.18800358E+07	-6.03003409E-02	 1.20657899E-01
5.18922438E+07	-6.01055546E-02	 1.20754110E-01
5.19044519E+07	-5.99114654E-02	 1.20844196E-01
5.19166599E+07	-5.97132195E-02	 1.20931501E-01
5.19288679E+07	-5.95175257E-02	 1.21022666E-01
5.19410759E+07	-5.93224470E-02	 1.21112750E-01
5.19532840E+07	-5.91335481E-02	 1.21206390E-01
5.19654920E+07	-5.89289890E-02	 1.21294289E-01
5.19777000E+07	-5.87376597E-02	 1.21383504E-01
5.19899080E+07	-5.85375754E-02	 1.21474262E-01
5.20021161E+07	-5.83412200E-02	 1.21556444E-01
5.20143241E+07	-5.81426475E-02	 1.21645599E-01
5.20265321E+07	-5.79538310E-02	 1.21739313E-01
5.20387401E+07	-5.77524609E-02	 1.21827915E-01
5.20509482E+07	-5.75581242E-02	 1.21910646E-01
5.20631562E+07	-5.73643426E-02	 1.22004395E-01
5.20753642E+07	-5.71659438E-02	 1.22083633E-01
5.20875722E+07	-5.69670850E-02	 1.22179502E-01
5.20997803E+07	-5.67714385E-02	 1.22258304E-01
5.21119883E+07	-5.65795153E-02	 1.22347066E-01
5.21241963E+07	-5.63785552E-02	 1.22432586E-01
5.21364043E+07	-5.61820265E-02	 1.22517151E-01
5.21486124E+07	-5.59847951E-02	 1.22605431E-01
5.21608204E+07	-5.57854586E-02	 1.22681914E-01
5.21730284E+07	-5.55877327E-02	 1.22769080E-01
5.21852364E+07	-5.53869841E-02	 1.22855101E-01
5.21974445E+07	-5.51903864E-02	 1.22936717E-01
5.22096525E+07	-5.49918376E-02	 1.23016543E-01
5.22218605E+07	-5.47939567E-02	 1.23100942E-01
5.22340685E+07	-5.45996915E-02	 1.23184245E-01
5.22462766E+07	-5.43949187E-02	 1.23263928E-01
5.22584846E+07	-5.41989305E-02	 1.23354504E-01
5.22706926E+07	-5.39999016E-02	 1.23430608E-01
5.22829006E+07	-5.38020251E-02	 1.23512260E-01
5.22951087E+07	-5.36048857E-02	 1.23593947E-01
5.23073167E+07	-5.34041090E-02	 1.23671124E-01
5.23195247E+07	-5.32009437E-02	 1.23756573E-01
5.23317327E+07	-5.30012926E-02	 1.23832480E-01
5.23439408E+07	-5.28053807E-02	 1.23917180E-01
5.23561488E+07	-5.26029288E-02	 1.23991544E-01
5.23683568E+07	-5.24041276E-02	 1.24070951E-01
5.23805648E+07	-5.22100308E-02	 1.24153616E-01
5.23927728E+07	-5.20035596E-02	 1.24230755E-01
5.24049809E+07	-5.18006091E-02	 1.24307926E-01
5.24171889E+07	-5.16014947E-02	 1.24386143E-01
5.24293969E+07	-5.14024347E-02	 1.24462801E-01
5.24416049E+07	-5.12030733E-02	 1.24539596E-01
5.24538130E+07	-5.10032114E-02	 1.24620322E-01
5.24660210E+07	-5.07965579E-02	 1.24690779E-01
5.24782290E+07	-5.06049751E-02	 1.24770914E-01
5.24904370E+07	-5.03912544E-02	 1.24844076E-01
5.25026451E+07	-5.01948658E-02	 1.24915219E-01
5.25148531E+07	-5.00011030E-02	 1.24991759E-01
5.25270611E+07	-4.97953920E-02	 1.25066560E-01
5.25392691E+07	-4.95908614E-02	 1.25139071E-01
5.25514772E+07	-4.93893334E-02	 1.25216700E-01
5.25636852E+07	-4.91885027E-02	 1.25288095E-01
5.25758932E+07	-4.89841649E-02	 1.25361345E-01
5.25881012E+07	-4.87877374E-02	 1.25435587E-01
5.26003093E+07	-4.85852250E-02	 1.25509354E-01
5.26125173E+07	-4.83800505E-02	 1.25580710E-01
5.26247253E+07	-4.81800771E-02	 1.25648419E-01
5.26369333E+07	-4.79751165E-02	 1.25724772E-01
5.26491414E+07	-4.77668015E-02	 1.25792314E-01
5.26613494E+07	-4.75681036E-02	 1.25869721E-01
5.26735574E+07	-4.73628132E-02	 1.25939190E-01
5.26857654E+07	-4.71587644E-02	 1.26007163E-01
5.26979735E+07	-4.69613752E-02	 1.26077177E-01
5.27101815E+07	-4.67562664E-02	 1.26142290E-01
5.27223895E+07	-4.65543315E-02	 1.26218494E-01
5.27345975E+07	-4.63536739E-02	 1.26285337E-01
5.27468056E+07	-4.61463974E-02	 1.26353152E-01
5.27590136E+07	-4.59390037E-02	 1.26424166E-01
5.27712216E+07	-4.57376394E-02	 1.26493975E-01
5.27834296E+07	-4.55336368E-02	 1.26554862E-01
5.27956377E+07	-4.53273274E-02	 1.26625973E-01
5.28078457E+07	-4.51204088E-02	 1.26690228E-01
5.28200537E+07	-4.49216438E-02	 1.26760471E-01
5.28322617E+07	-4.47178996E-02	 1.26823423E-01
5.28444698E+07	-4.45125274E-02	 1.26885173E-01
5.28566778E+07	-4.43074419E-02	 1.26954932E-01
5.28688858E+07	-4.40967685E-02	 1.27015416E-01
5.28810938E+07	-4.38971397E-02	 1.27081780E-01
5.28933019E+07	-4.36955387E-02	 1.27148995E-01
5.29055099E+07	-4.34832787E-02	 1.27213147E-01
5.29177179E+07	-4.32802874E-02	 1.27269484E-01
5.29299259E+07	-4.30745766E-02	 1.27343236E-01
5.29421340E+07	-4.28680029E-02	 1.27401907E-01
5.29543420E+07	-4.26674702E-02	 1.27466991E-01
5.29665500E+07	-4.24613463E-02	 1.27529106E-01
5.29787580E+07	-4.22586494E-02	 1.27591418E-01
5.29909661E+07	-4.20431402E-02	 1.27652545E-01
5.30031741E+07	-4.18415848E-02	 1.27716659E-01
5.30153821E+07	-4.16379063E-02	 1.27771813E-01
5.30275901E+07	-4.14314780E-02	 1.27835723E-01
5.30397982E+07	-4.12237856E-02	 1.27892177E-01
5.30520062E+07	-4.10188860E-02	 1.27953820E-01
5.30642142E+07	-4.08114063E-02	 1.28012810E-01
5.30764222E+07	-4.06025528E-02	 1.28074158E-01
5.30886303E+07	-4.03928444E-02	 1.28131269E-01
5.31008383E+07	-4.01927813E-02	 1.28192528E-01
5.31130463E+07	-3.99842409E-02	 1.28253160E-01
5.31252543E+07	-3.97758694E-02	 1.28306482E-01
5.31374624E+07	-3.95760250E-02	 1.28366943E-01
5.31496704E+07	-3.93694037E-02	 1.28420887E-01
5.31618784E+07	-3.91547628E-02	 1.28478420E-01
5.31740864E+07	-3.89532815E-02	 1.28536114E-01
5.31862945E+07	-3.87425413E-02	 1.28595141E-01
5.31985025E+07	-3.85362224E-02	 1.28647899E-01
5.32107105E+07	-3.83223864E-02	 1.28702619E-01
5.32229185E+07	-3.81186352E-02	 1.28755628E-01
5.32351266E+07	-3.79066895E-02	 1.28815948E-01
5.32473346E+07	-3.77041538E-02	 1.28869840E-01
5.32595426E+07	-3.74950395E-02	 1.28922083E-01
5.32717506E+07	-3.72830472E-02	 1.28977960E-01
5.32839587E+07	-3.70756470E-02	 1.29034227E-01
5.32961667E+07	-3.68717180E-02	 1.29086691E-01
5.33083747E+07	-3.66606913E-02	 1.29135553E-01
5.33205827E+07	-3.64527973E-02	 1.29188375E-01
5.33327908E+07	-3.62499961E-02	 1.29238855E-01
5.33449988E+07	-3.60376159E-02	 1.29296356E-01
5.33572068E+07	-3.58297370E-02	 1.29342713E-01
5.33694148E+07	-3.56190543E-02	 1.29397461E-01
5.33816229E+07	-3.54089856E-02	 1.29445113E-01
5.33938309E+07	-3.52010937E-02	 1.29500578E-01
5.34060389E+07	-3.49918180E-02	 1.29546229E-01
5.34182469E+07	-3.47818182E-02	 1.29598557E-01
5.34304550E+07	-3.45785125E-02	 1.29644497E-01
5.34426630E+07	-3.43663615E-02	 1.29687887E-01
5.34548710E+07	-3.41550107E-02	 1.29739782E-01
5.34670790E+07	-3.39438754E-02	 1.29790303E-01
5.34792871E+07	-3.37419936E-02	 1.29838895E-01
5.34914951E+07	-3.35290720E-02	 1.29885833E-01
5.35037031E+07	-3.33186760E-02	 1.29935843E-01
5.35159111E+07	-3.31084228E-02	 1.29981933E-01
5.35281192E+07	-3.29016570E-02	 1.30033883E-01
5.35403272E+07	-3.26890217E-02	 1.30076322E-01
5.35525352E+07	-3.24770340E-02	 1.30123114E-01
5.35647432E+07	-3.22715514E-02	 1.30165918E-01
5.35769512E+07	-3.20584609E-02	 1.30208498E-01
5.35891593E+07	-3.18498695E-02	 1.30255951E-01
5.36013673E+07	-3.16365829E-02	 1.30294568E-01
5.36135753E+07	-3.14271319E-02	 1.30341090E-01
5.36257833E+07	-3.12166822E-02	 1.30383201E-01
5.36379914E+07	-3.10058849E-02	 1.30430467E-01
5.36501994E+07	-3.07958808E-02	 1.30475687E-01
5.36624074E+07	-3.05865385E-02	 1.30515249E-01
5.36746154E+07	-3.03745396E-02	 1.30562247E-01
5.36868235E+07	-3.01618780E-02	 1.30597754E-01
5.36990315E+07	-2.99529315E-02	 1.30645582E-01
5.37112395E+07	-2.97397832E-02	 1.30681408E-01
5.37234475E+07	-2.95341803E-02	 1.30723714E-01
5.37356556E+07	-2.93216706E-02	 1.30761664E-01
5.37478636E+07	-2.91143702E-02	 1.30804754E-01
5.37600716E+07	-2.89004452E-02	 1.30844622E-01
5.37722796E+07	-2.86904557E-02	 1.30881349E-01
5.37844877E+07	-2.84774448E-02	 1.30925135E-01
5.37966957E+07	-2.82638939E-02	 1.30961765E-01
5.38089037E+07	-2.80570950E-02	 1.31003353E-01
5.38211117E+07	-2.78402229E-02	 1.31041023E-01
5.38333198E+07	-2.76343208E-02	 1.31071817E-01
5.38455278E+07	-2.74200665E-02	 1.31118580E-01
5.38577358E+07	-2.72065082E-02	 1.31154860E-01
5.38699438E+07	-2.69960967E-02	 1.31189618E-01
5.38821519E+07	-2.67906967E-02	 1.31224030E-01
5.38943599E+07	-2.65752029E-02	 1.31266227E-01
5.39065679E+07	-2.63632814E-02	 1.31296801E-01
5.39187759E+07	-2.61503107E-02	 1.31328839E-01
5.39309840E+07	-2.59419732E-02	 1.31369757E-01
5.39431920E+07	-2.57268292E-02	 1.31400489E-01
5.39554000E+07	-2.55088291E-02	 1.31437674E-01
5.39676080E+07	-2.53013994E-02	 1.31472385E-01
5.39798161E+07	-2.50890019E-02	 1.31502219E-01
5.39920241E+07	-2.48729976E-02	 1.31535206E-01
5.40042321E+07	-2.46607651E-02	 1.31569561E-01
5.40164401E+07	-2.44570238E-02	 1.31602502E-01
5.40286482E+07	-2.42396488E-02	 1.31633143E-01
5.40408562E+07	-2.40283144E-02	 1.31670622E-01
5.40530642E+07	-2.38199453E-02	 1.31697373E-01
5.40652722E+07	-2.36013787E-02	 1.31725009E-01
5.40774803E+07	-2.33853836E-02	 1.31759495E-01
5.40896883E+07	-2.31765712E-02	 1.31788562E-01
5.41018963E+07	-2.29641164E-02	 1.31816515E-01
5.41141043E+07	-2.27498553E-02	 1.31847774E-01
5.41263124E+07	-2.25381952E-02	 1.31873544E-01
5.41385204E+07	-2.23243020E-02	 1.31905103E-01
5.41507284E+07	-2.21160796E-02	 1.31934760E-01
5.41629364E+07	-2.19079457E-02	 1.31964150E-01
5.41751445E+07	-2.16924842E-02	 1.31988027E-01
5.41873525E+07	-2.14770871E-02	 1.32019019E-01
5.41995605E+07	-2.12624266E-02	 1.32048239E-01
5.42117685E+07	-2.10487514E-02	 1.32071646E-01
5.42239766E+07	-2.08353473E-02	 1.32103331E-01
5.42361846E+07	-2.06291412E-02	 1.32127096E-01
5.42483926E+07	-2.04103046E-02	 1.32150303E-01
5.42606006E+07	-2.01981850E-02	 1.32178106E-01
5.42728087E+07	-1.99856121E-02	 1.32204852E-01
5.42850167E+07	-1.97765783E-02	 1.32227875E-01
5.42972247E+07	-1.95610788E-02	 1.32250652E-01
5.43094327E+07	-1.93452962E-02	 1.32273540E-01
5.43216408E+07	-1.91289129E-02	 1.32302391E-01
5.43338488E+07	-1.89195189E-02	 1.32317649E-01
5.43460568E+07	-1.87022477E-02	 1.32346197E-01
5.43582648E+07	-1.84948228E-02	 1.32369901E-01
5.43704729E+07	-1.82791136E-02	 1.32386922E-01
5.43826809E+07	-1.80615262E-02	 1.32409777E-01
5.43948889E+07	-1.78482368E-02	 1.32429627E-01
5.44070969E+07	-1.76391282E-02	 1.32454762E-01
5.44193050E+07	-1.74250974E-02	 1.32476500E-01
5.44315130E+07	-1.72100974E-02	 1.32497476E-01
5.44437210E+07	-1.69959230E-02	 1.32517553E-01
5.44559290E+07	-1.67817189E-02	 1.32536372E-01
5.44681371E+07	-1.65679301E-02	 1.32552788E-01
5.44803451E+07	-1.63583317E-02	 1.32578466E-01
5.44925531E+07	-1.61462309E-02	 1.32589123E-01
5.45047611E+07	-1.59300494E-02	 1.32610597E-01
5.45169692E+07	-1.57126747E-02	 1.32629623E-01
5.45291772E+07	-1.54978070E-02	 1.32645666E-01
5.45413852E+07	-1.52867391E-02	 1.32661813E-01
5.45535932E+07	-1.50775915E-02	 1.32678501E-01
5.45658013E+07	-1.48599654E-02	 1.32701760E-01
5.45780093E+07	-1.46475468E-02	 1.32712156E-01
5.45902173E+07	-1.44239977E-02	 1.32727507E-01
5.46024253E+07	-1.42175832E-02	 1.32747304E-01
5.46146334E+07	-1.40009347E-02	 1.32762174E-01
5.46268414E+07	-1.37841907E-02	 1.32773542E-01
5.46390494E+07	-1.35733455E-02	 1.32785948E-01
5.46512574E+07	-1.33582847E-02	 1.32800658E-01
5.46634655E+07	-1.31416074E-02	 1.32812431E-01
5.46756735E+07	-1.29285019E-02	 1.32830017E-01
5.46878815E+07	-1.27151761E-02	 1.32839647E-01
5.47000895E+07	-1.25020446E-02	 1.32859058E-01
5.47122976E+07	-1.22863442E-02	 1.32867039E-01
5.47245056E+07	-1.20673223E-02	 1.32877316E-01
5.47367136E+07	-1.18615135E-02	 1.32890115E-01
5.47489216E+07	-1.16404679E-02	 1.32905239E-01
5.47611296E+07	-1.14328760E-02	 1.32914500E-01
5.47733377E+07	-1.12136714E-02	 1.32924197E-01
5.47855457E+07	-1.10006014E-02	 1.32936247E-01
5.47977537E+07	-1.07846902E-02	 1.32939938E-01
5.48099617E+07	-1.05712903E-02	 1.32951888E-01
5.48221698E+07	-1.03597991E-02	 1.32961187E-01
5.48343778E+07	-1.01429345E-02	 1.32967580E-01
5.48465858E+07	-9.92765827E-03	 1.32976886E-01
5.48587938E+07	-9.71087232E-03	 1.32983909E-01
5.48710019E+07	-9.49881733E-03	 1.32995614E-01
5.48832099E+07	-9.28682077E-03	 1.33002250E-01
5.48954179E+07	-9.07250503E-03	 1.33010665E-01
5.49076259E+07	-8.85341759E-03	 1.33018050E-01
5.49198340E+07	-8.64331478E-03	 1.33021951E-01
5.49320420E+07	-8.42622203E-03	 1.33029697E-01
5.49442500E+07	-8.21009529E-03	 1.33024302E-01
5.49564580E+07	-7.99927536E-03	 1.33038146E-01
5.49686661E+07	-7.78620687E-03	 1.33046542E-01
5.49808741E+07	-7.56669617E-03	 1.33048368E-01
5.49930821E+07	-7.35362224E-03	 1.33049594E-01
5.50052901E+07	-7.14004476E-03	 1.33055099E-01
5.50174982E+07	-6.92370882E-03	 1.33055376E-01
5.50297062E+07	-6.70726052E-03	 1.33058988E-01
5.50419142E+07	-6.49524167E-03	 1.33062500E-01
5.50541222E+07	-6.27922219E-03	 1.33058862E-01
5.50663303E+07	-6.06433213E-03	 1.33069296E-01
5.50785383E+07	-5.85065322E-03	 1.33068567E-01
5.50907463E+07	-5.63767027E-03	 1.33069113E-01
5.51029543E+07	-5.42066996E-03	 1.33068199E-01
5.51151624E+07	-5.20324287E-03	 1.33069657E-01
5.51273704E+07	-4.98706647E-03	 1.33071483E-01
