! COPPER MOUNTAIN TECHNOLOGIES, PLANAR TR1300/1, 00071119, 20.2.2/1.0
! Date: 7/24/2023 9:23:19 AM
! Data: Format [Calibration Info]
! Freq          	S11: Re/Im F1                  
# HZ S RI R 50
5.00000000E+07	 2.19590899E-01	-1.78520533E-01
5.00122080E+07	 2.19273549E-01	-1.78914583E-01
5.00244160E+07	 2.18956248E-01	-1.79296256E-01
5.00366241E+07	 2.18628670E-01	-1.79670417E-01
5.00488321E+07	 2.18308513E-01	-1.80064630E-01
5.00610401E+07	 2.17995344E-01	-1.80444415E-01
5.00732481E+07	 2.17667220E-01	-1.80819867E-01
5.00854562E+07	 2.17349345E-01	-1.81207783E-01
5.00976642E+07	 2.17021518E-01	-1.81590113E-01
5.01098722E+07	 2.16694756E-01	-1.81969861E-01
5.01220802E+07	 2.16367880E-01	-1.82343830E-01
5.01342883E+07	 2.16044904E-01	-1.82728530E-01
5.01464963E+07	 2.15718091E-01	-1.83103232E-01
5.01587043E+07	 2.15391122E-01	-1.83483709E-01
5.01709123E+07	 2.15068648E-01	-1.83860577E-01
5.01831204E+07	 2.14743020E-01	-1.84235161E-01
5.01953284E+07	 2.14419711E-01	-1.84612854E-01
5.02075364E+07	 2.14077105E-01	-1.84990316E-01
5.02197444E+07	 2.13751284E-01	-1.85366826E-01
5.02319525E+07	 2.13418892E-01	-1.85740891E-01
5.02441605E+07	 2.13088224E-01	-1.86114975E-01
5.02563685E+07	 2.12761712E-01	-1.86487391E-01
5.02685765E+07	 2.12423547E-01	-1.86857243E-01
5.02807846E+07	 2.12090273E-01	-1.87231917E-01
5.02929926E+07	 2.11764705E-01	-1.87606012E-01
5.03052006E+07	 2.11425508E-01	-1.87976449E-01
5.03174086E+07	 2.11089945E-01	-1.88343986E-01
5.03296167E+07	 2.10753840E-01	-1.88713020E-01
5.03418247E+07	 2.10419135E-01	-1.89077488E-01
5.03540327E+07	 2.10085480E-01	-1.89454080E-01
5.03662407E+07	 2.09739410E-01	-1.89820868E-01
5.03784488E+07	 2.09404744E-01	-1.90187255E-01
5.03906568E+07	 2.09061751E-01	-1.90554191E-01
5.04028648E+07	 2.08729218E-01	-1.90921114E-01
5.04150728E+07	 2.08389384E-01	-1.91284358E-01
5.04272809E+07	 2.08049237E-01	-1.91652248E-01
5.04394889E+07	 2.07702470E-01	-1.92015899E-01
5.04516969E+07	 2.07362705E-01	-1.92379918E-01
5.04639049E+07	 2.07019386E-01	-1.92741164E-01
5.04761130E+07	 2.06681374E-01	-1.93110365E-01
5.04883210E+07	 2.06334974E-01	-1.93471495E-01
5.05005290E+07	 2.05988939E-01	-1.93835079E-01
5.05127370E+07	 2.05649199E-01	-1.94190888E-01
5.05249451E+07	 2.05302658E-01	-1.94557170E-01
5.05371531E+07	 2.04951518E-01	-1.94907689E-01
5.05493611E+07	 2.04604915E-01	-1.95272090E-01
5.05615691E+07	 2.04260874E-01	-1.95631908E-01
5.05737772E+07	 2.03911413E-01	-1.95986436E-01
5.05859852E+07	 2.03561308E-01	-1.96346770E-01
5.05981932E+07	 2.03210748E-01	-1.96702113E-01
5.06104012E+07	 2.02859566E-01	-1.97055544E-01
5.06226093E+07	 2.02513130E-01	-1.97414327E-01
5.06348173E+07	 2.02159151E-01	-1.97763788E-01
5.06470253E+07	 2.01816916E-01	-1.98121582E-01
5.06592333E+07	 2.01458852E-01	-1.98474125E-01
5.06714414E+07	 2.01102204E-01	-1.98838152E-01
5.06836494E+07	 2.00753883E-01	-1.99180350E-01
5.06958574E+07	 2.00392899E-01	-1.99538256E-01
5.07080654E+07	 2.00044922E-01	-1.99887827E-01
5.07202735E+07	 1.99684565E-01	-2.00236211E-01
5.07324815E+07	 1.99318608E-01	-2.00587502E-01
5.07446895E+07	 1.98974478E-01	-2.00944393E-01
5.07568975E+07	 1.98621800E-01	-2.01281802E-01
5.07691056E+07	 1.98256443E-01	-2.01633394E-01
5.07813136E+07	 1.97897598E-01	-2.01972748E-01
5.07935216E+07	 1.97545005E-01	-2.02325376E-01
5.08057296E+07	 1.97180557E-01	-2.02672771E-01
5.08179377E+07	 1.96824761E-01	-2.03018035E-01
5.08301457E+07	 1.96460251E-01	-2.03372535E-01
5.08423537E+07	 1.96100928E-01	-2.03710227E-01
5.08545617E+07	 1.95742858E-01	-2.04057093E-01
5.08667698E+07	 1.95369120E-01	-2.04395780E-01
5.08789778E+07	 1.95007518E-01	-2.04734721E-01
5.08911858E+07	 1.94641181E-01	-2.05080906E-01
5.09033938E+07	 1.94285244E-01	-2.05426537E-01
5.09156019E+07	 1.93917430E-01	-2.05769121E-01
5.09278099E+07	 1.93552329E-01	-2.06107393E-01
5.09400179E+07	 1.93182637E-01	-2.06443522E-01
5.09522259E+07	 1.92825662E-01	-2.06790438E-01
5.09644340E+07	 1.92448907E-01	-2.07122478E-01
5.09766420E+07	 1.92085264E-01	-2.07460231E-01
5.09888500E+07	 1.91711601E-01	-2.07798380E-01
5.10010580E+07	 1.91341234E-01	-2.08133536E-01
5.10132661E+07	 1.90976138E-01	-2.08468895E-01
5.10254741E+07	 1.90602574E-01	-2.08804936E-01
5.10376821E+07	 1.90236196E-01	-2.09130611E-01
5.10498901E+07	 1.89865076E-01	-2.09473099E-01
5.10620982E+07	 1.89492664E-01	-2.09801486E-01
5.10743062E+07	 1.89122168E-01	-2.10138469E-01
5.10865142E+07	 1.88746371E-01	-2.10465154E-01
5.10987222E+07	 1.88380842E-01	-2.10792160E-01
5.11109303E+07	 1.87998344E-01	-2.11124644E-01
5.11231383E+07	 1.87628387E-01	-2.11453731E-01
5.11353463E+07	 1.87251363E-01	-2.11782635E-01
5.11475543E+07	 1.86872987E-01	-2.12116506E-01
5.11597624E+07	 1.86502779E-01	-2.12444181E-01
5.11719704E+07	 1.86122055E-01	-2.12763434E-01
5.11841784E+07	 1.85746534E-01	-2.13094514E-01
5.11963864E+07	 1.85366474E-01	-2.13420351E-01
5.12085944E+07	 1.84984755E-01	-2.13748343E-01
5.12208025E+07	 1.84621582E-01	-2.14067707E-01
5.12330105E+07	 1.84237948E-01	-2.14387470E-01
5.12452185E+07	 1.83854495E-01	-2.14713184E-01
5.12574265E+07	 1.83476401E-01	-2.15036425E-01
5.12696346E+07	 1.83096578E-01	-2.15352311E-01
5.12818426E+07	 1.82713341E-01	-2.15676038E-01
5.12940506E+07	 1.82331388E-01	-2.16004951E-01
5.13062586E+07	 1.81949538E-01	-2.16318721E-01
5.13184667E+07	 1.81564657E-01	-2.16631734E-01
5.13306747E+07	 1.81181605E-01	-2.16957279E-01
5.13428827E+07	 1.80791659E-01	-2.17278350E-01
5.13550907E+07	 1.80414956E-01	-2.17593946E-01
5.13672988E+07	 1.80025498E-01	-2.17904565E-01
5.13795068E+07	 1.79637092E-01	-2.18223879E-01
5.13917148E+07	 1.79250280E-01	-2.18536815E-01
5.14039228E+07	 1.78866365E-01	-2.18851356E-01
5.14161309E+07	 1.78481436E-01	-2.19160509E-01
5.14283389E+07	 1.78088872E-01	-2.19476483E-01
5.14405469E+07	 1.77700234E-01	-2.19789954E-01
5.14527549E+07	 1.77317065E-01	-2.20104691E-01
5.14649630E+07	 1.76916976E-01	-2.20416107E-01
5.14771710E+07	 1.76532484E-01	-2.20720384E-01
5.14893790E+07	 1.76138044E-01	-2.21025902E-01
5.15015870E+07	 1.75751290E-01	-2.21350211E-01
5.15137951E+07	 1.75364056E-01	-2.21647018E-01
5.15260031E+07	 1.74965741E-01	-2.21956673E-01
5.15382111E+07	 1.74575940E-01	-2.22263088E-01
5.15504191E+07	 1.74184086E-01	-2.22566285E-01
5.15626272E+07	 1.73789910E-01	-2.22873482E-01
5.15748352E+07	 1.73392466E-01	-2.23182493E-01
5.15870432E+07	 1.72998584E-01	-2.23483446E-01
5.15992512E+07	 1.72601195E-01	-2.23786050E-01
5.16114593E+07	 1.72207713E-01	-2.24089628E-01
5.16236673E+07	 1.71807787E-01	-2.24394139E-01
5.16358753E+07	 1.71414559E-01	-2.24697835E-01
5.16480833E+07	 1.71019445E-01	-2.24994286E-01
5.16602914E+07	 1.70614182E-01	-2.25297909E-01
5.16724994E+07	 1.70216266E-01	-2.25594260E-01
5.16847074E+07	 1.69824641E-01	-2.25891256E-01
5.16969154E+07	 1.69414063E-01	-2.26193082E-01
5.17091235E+07	 1.69021211E-01	-2.26479446E-01
5.17213315E+07	 1.68616435E-01	-2.26782227E-01
5.17335395E+07	 1.68221857E-01	-2.27073333E-01
5.17457475E+07	 1.67814302E-01	-2.27373251E-01
5.17579556E+07	 1.67412949E-01	-2.27665422E-01
5.17701636E+07	 1.67007622E-01	-2.27961652E-01
5.17823716E+07	 1.66606111E-01	-2.28254379E-01
5.17945796E+07	 1.66204879E-01	-2.28546426E-01
5.18067877E+07	 1.65794495E-01	-2.28836358E-01
5.18189957E+07	 1.65400590E-01	-2.29132630E-01
5.18312037E+07	 1.64989213E-01	-2.29419883E-01
5.18434117E+07	 1.64586392E-01	-2.29706541E-01
5.18556198E+07	 1.64178687E-01	-2.29997530E-01
5.18678278E+07	 1.63774867E-01	-2.30288120E-01
5.18800358E+07	 1.63365504E-01	-2.30577728E-01
5.18922438E+07	 1.62961666E-01	-2.30861850E-01
5.19044519E+07	 1.62543748E-01	-2.31143615E-01
5.19166599E+07	 1.62145893E-01	-2.31429040E-01
5.19288679E+07	 1.61736787E-01	-2.31719778E-01
5.19410759E+07	 1.61322735E-01	-2.32001124E-01
5.19532840E+07	 1.60908553E-01	-2.32275553E-01
5.19654920E+07	 1.60506821E-01	-2.32563017E-01
5.19777000E+07	 1.60089792E-01	-2.32848084E-01
5.19899080E+07	 1.59678211E-01	-2.33123804E-01
5.20021161E+07	 1.59271044E-01	-2.33400820E-01
5.20143241E+07	 1.58851521E-01	-2.33689176E-01
5.20265321E+07	 1.58447751E-01	-2.33959197E-01
5.20387401E+07	 1.58024656E-01	-2.34239851E-01
5.20509482E+07	 1.57612949E-01	-2.34521779E-01
5.20631562E+07	 1.57192383E-01	-2.34796341E-01
5.20753642E+07	 1.56785885E-01	-2.35065161E-01
5.20875722E+07	 1.56362032E-01	-2.35345516E-01
5.20997803E+07	 1.55949124E-01	-2.35618298E-01
5.21119883E+07	 1.55529307E-01	-2.35895865E-01
5.21241963E+07	 1.55124265E-01	-2.36164912E-01
5.21364043E+07	 1.54698165E-01	-2.36435533E-01
5.21486124E+07	 1.54275598E-01	-2.36711073E-01
5.21608204E+07	 1.53861787E-01	-2.36978091E-01
5.21730284E+07	 1.53442194E-01	-2.37248422E-01
5.21852364E+07	 1.53025405E-01	-2.37521322E-01
5.21974445E+07	 1.52605697E-01	-2.37785488E-01
5.22096525E+07	 1.52181910E-01	-2.38056748E-01
5.22218605E+07	 1.51759019E-01	-2.38321586E-01
5.22340685E+07	 1.51339436E-01	-2.38579684E-01
5.22462766E+07	 1.50917670E-01	-2.38849827E-01
5.22584846E+07	 1.50498582E-01	-2.39116497E-01
5.22706926E+07	 1.50077173E-01	-2.39375908E-01
5.22829006E+07	 1.49653541E-01	-2.39640338E-01
5.22951087E+07	 1.49228634E-01	-2.39907084E-01
5.23073167E+07	 1.48801892E-01	-2.40169829E-01
5.23195247E+07	 1.48382548E-01	-2.40434682E-01
5.23317327E+07	 1.47956618E-01	-2.40686582E-01
5.23439408E+07	 1.47525607E-01	-2.40942609E-01
5.23561488E+07	 1.47104261E-01	-2.41207057E-01
5.23683568E+07	 1.46678187E-01	-2.41469516E-01
5.23805648E+07	 1.46245510E-01	-2.41722117E-01
5.23927728E+07	 1.45822416E-01	-2.41986657E-01
5.24049809E+07	 1.45391659E-01	-2.42236971E-01
5.24171889E+07	 1.44957908E-01	-2.42494005E-01
5.24293969E+07	 1.44539705E-01	-2.42743959E-01
5.24416049E+07	 1.44105366E-01	-2.42996239E-01
5.24538130E+07	 1.43676081E-01	-2.43248806E-01
5.24660210E+07	 1.43246887E-01	-2.43503929E-01
5.24782290E+07	 1.42820427E-01	-2.43754559E-01
5.24904370E+07	 1.42384021E-01	-2.44001053E-01
5.25026451E+07	 1.41957545E-01	-2.44258977E-01
5.25148531E+07	 1.41523567E-01	-2.44503461E-01
5.25270611E+07	 1.41091951E-01	-2.44752412E-01
5.25392691E+07	 1.40660423E-01	-2.45001450E-01
5.25514772E+07	 1.40230647E-01	-2.45245492E-01
5.25636852E+07	 1.39797972E-01	-2.45491361E-01
5.25758932E+07	 1.39362191E-01	-2.45737369E-01
5.25881012E+07	 1.38926338E-01	-2.45974330E-01
5.26003093E+07	 1.38494547E-01	-2.46222156E-01
5.26125173E+07	 1.38060573E-01	-2.46468893E-01
5.26247253E+07	 1.37625649E-01	-2.46709586E-01
5.26369333E+07	 1.37189358E-01	-2.46960255E-01
5.26491414E+07	 1.36757880E-01	-2.47200039E-01
5.26613494E+07	 1.36314086E-01	-2.47430696E-01
5.26735574E+07	 1.35876006E-01	-2.47679803E-01
5.26857654E+07	 1.35438831E-01	-2.47909844E-01
5.26979735E+07	 1.35009136E-01	-2.48151480E-01
5.27101815E+07	 1.34554681E-01	-2.48385647E-01
5.27223895E+07	 1.34126494E-01	-2.48626669E-01
5.27345975E+07	 1.33689074E-01	-2.48856843E-01
5.27468056E+07	 1.33250946E-01	-2.49091760E-01
5.27590136E+07	 1.32811451E-01	-2.49325626E-01
5.27712216E+07	 1.32370725E-01	-2.49556588E-01
5.27834296E+07	 1.31929487E-01	-2.49790730E-01
5.27956377E+07	 1.31494736E-01	-2.50017813E-01
5.28078457E+07	 1.31044903E-01	-2.50255268E-01
5.28200537E+07	 1.30607445E-01	-2.50483161E-01
5.28322617E+07	 1.30161751E-01	-2.50709125E-01
5.28444698E+07	 1.29719745E-01	-2.50943069E-01
5.28566778E+07	 1.29276988E-01	-2.51168620E-01
5.28688858E+07	 1.28841508E-01	-2.51398163E-01
5.28810938E+07	 1.28387422E-01	-2.51620914E-01
5.28933019E+07	 1.27946736E-01	-2.51852262E-01
5.29055099E+07	 1.27502926E-01	-2.52068876E-01
5.29177179E+07	 1.27056430E-01	-2.52301159E-01
5.29299259E+07	 1.26612070E-01	-2.52517384E-01
5.29421340E+07	 1.26167197E-01	-2.52737938E-01
5.29543420E+07	 1.25715836E-01	-2.52954033E-01
5.29665500E+07	 1.25275815E-01	-2.53185054E-01
5.29787580E+07	 1.24825706E-01	-2.53399356E-01
5.29909661E+07	 1.24378384E-01	-2.53621098E-01
5.30031741E+07	 1.23935472E-01	-2.53840736E-01
5.30153821E+07	 1.23479539E-01	-2.54060385E-01
5.30275901E+07	 1.23040411E-01	-2.54274535E-01
5.30397982E+07	 1.22595487E-01	-2.54495326E-01
5.30520062E+07	 1.22140409E-01	-2.54707247E-01
5.30642142E+07	 1.21693818E-01	-2.54920067E-01
5.30764222E+07	 1.21242654E-01	-2.55134641E-01
5.30886303E+07	 1.20798418E-01	-2.55352583E-01
5.31008383E+07	 1.20346552E-01	-2.55560551E-01
5.31130463E+07	 1.19885451E-01	-2.55775655E-01
5.31252543E+07	 1.19443800E-01	-2.55986323E-01
5.31374624E+07	 1.18990170E-01	-2.56192623E-01
5.31496704E+07	 1.18542162E-01	-2.56408141E-01
5.31618784E+07	 1.18087356E-01	-2.56614071E-01
5.31740864E+07	 1.17633386E-01	-2.56818113E-01
5.31862945E+07	 1.17181182E-01	-2.57025487E-01
5.31985025E+07	 1.16731934E-01	-2.57227934E-01
5.32107105E+07	 1.16277207E-01	-2.57436634E-01
5.32229185E+07	 1.15823675E-01	-2.57642848E-01
5.32351266E+07	 1.15373713E-01	-2.57838979E-01
5.32473346E+07	 1.14914772E-01	-2.58047204E-01
5.32595426E+07	 1.14460937E-01	-2.58247347E-01
5.32717506E+07	 1.14008215E-01	-2.58451199E-01
5.32839587E+07	 1.13550881E-01	-2.58639640E-01
5.32961667E+07	 1.13089998E-01	-2.58840252E-01
5.33083747E+07	 1.12640400E-01	-2.59048218E-01
5.33205827E+07	 1.12187584E-01	-2.59241468E-01
5.33327908E+07	 1.11727751E-01	-2.59444165E-01
5.33449988E+07	 1.11273339E-01	-2.59636982E-01
5.33572068E+07	 1.10809342E-01	-2.59833626E-01
5.33694148E+07	 1.10351340E-01	-2.60024520E-01
5.33816229E+07	 1.09897811E-01	-2.60220021E-01
5.33938309E+07	 1.09439101E-01	-2.60416810E-01
5.34060389E+07	 1.08978753E-01	-2.60603320E-01
5.34182469E+07	 1.08522928E-01	-2.60795568E-01
5.34304550E+07	 1.08062068E-01	-2.60988674E-01
5.34426630E+07	 1.07605118E-01	-2.61176105E-01
5.34548710E+07	 1.07147634E-01	-2.61367402E-01
5.34670790E+07	 1.06685737E-01	-2.61555494E-01
5.34792871E+07	 1.06222810E-01	-2.61740077E-01
5.34914951E+07	 1.05762944E-01	-2.61932879E-01
5.35037031E+07	 1.05300849E-01	-2.62117795E-01
5.35159111E+07	 1.04835142E-01	-2.62301872E-01
5.35281192E+07	 1.04378508E-01	-2.62489709E-01
5.35403272E+07	 1.03912514E-01	-2.62670050E-01
5.35525352E+07	 1.03457600E-01	-2.62850723E-01
5.35647432E+07	 1.02987802E-01	-2.63034497E-01
5.35769512E+07	 1.02528249E-01	-2.63219652E-01
5.35891593E+07	 1.02062191E-01	-2.63394015E-01
5.36013673E+07	 1.01597001E-01	-2.63577000E-01
5.36135753E+07	 1.01143247E-01	-2.63754451E-01
5.36257833E+07	 1.00670363E-01	-2.63932747E-01
5.36379914E+07	 1.00204798E-01	-2.64110531E-01
5.36501994E+07	 9.97465852E-02	-2.64281790E-01
5.36624074E+07	 9.92787795E-02	-2.64465122E-01
5.36746154E+07	 9.88141746E-02	-2.64635793E-01
5.36868235E+07	 9.83429511E-02	-2.64808351E-01
5.36990315E+07	 9.78836623E-02	-2.64984204E-01
5.37112395E+07	 9.74154364E-02	-2.65157149E-01
5.37234475E+07	 9.69503746E-02	-2.65326937E-01
5.37356556E+07	 9.64849224E-02	-2.65495762E-01
5.37478636E+07	 9.60150362E-02	-2.65664568E-01
5.37600716E+07	 9.55516686E-02	-2.65837101E-01
5.37722796E+07	 9.50823429E-02	-2.66003579E-01
5.37844877E+07	 9.46077549E-02	-2.66170027E-01
5.37966957E+07	 9.41455142E-02	-2.66333420E-01
5.38089037E+07	 9.36722032E-02	-2.66503986E-01
5.38211117E+07	 9.32103481E-02	-2.66665117E-01
5.38333198E+07	 9.27364896E-02	-2.66831921E-01
5.38455278E+07	 9.22713626E-02	-2.66993099E-01
5.38577358E+07	 9.18036322E-02	-2.67152464E-01
5.38699438E+07	 9.13318169E-02	-2.67321006E-01
5.38821519E+07	 9.08568119E-02	-2.67477283E-01
5.38943599E+07	 9.03933713E-02	-2.67631053E-01
5.39065679E+07	 8.99177035E-02	-2.67796556E-01
5.39187759E+07	 8.94474240E-02	-2.67958256E-01
5.39309840E+07	 8.89723098E-02	-2.68120213E-01
5.39431920E+07	 8.85009996E-02	-2.68271364E-01
5.39554000E+07	 8.80287425E-02	-2.68428805E-01
5.39676080E+07	 8.75625863E-02	-2.68577996E-01
5.39798161E+07	 8.70919650E-02	-2.68734646E-01
5.39920241E+07	 8.66132613E-02	-2.68890100E-01
5.40042321E+07	 8.61429010E-02	-2.69044762E-01
5.40164401E+07	 8.56658095E-02	-2.69192680E-01
5.40286482E+07	 8.51954811E-02	-2.69343320E-01
5.40408562E+07	 8.47242504E-02	-2.69492931E-01
5.40530642E+07	 8.42470824E-02	-2.69640462E-01
5.40652722E+07	 8.37704875E-02	-2.69793279E-01
5.40774803E+07	 8.32990303E-02	-2.69940236E-01
5.40896883E+07	 8.28259671E-02	-2.70093801E-01
5.41018963E+07	 8.23491912E-02	-2.70230866E-01
5.41141043E+07	 8.18785294E-02	-2.70381961E-01
5.41263124E+07	 8.13970016E-02	-2.70529212E-01
5.41385204E+07	 8.09319742E-02	-2.70671163E-01
5.41507284E+07	 8.04418404E-02	-2.70806180E-01
5.41629364E+07	 7.99614579E-02	-2.70952486E-01
5.41751445E+07	 7.94896937E-02	-2.71095118E-01
5.41873525E+07	 7.90155437E-02	-2.71231990E-01
5.41995605E+07	 7.85385191E-02	-2.71371565E-01
5.42117685E+07	 7.80642160E-02	-2.71509695E-01
5.42239766E+07	 7.75850932E-02	-2.71651159E-01
5.42361846E+07	 7.70986483E-02	-2.71782197E-01
5.42483926E+07	 7.66274240E-02	-2.71924020E-01
5.42606006E+07	 7.61481783E-02	-2.72062252E-01
5.42728087E+07	 7.56694308E-02	-2.72192820E-01
5.42850167E+07	 7.51923046E-02	-2.72332029E-01
5.42972247E+07	 7.47087554E-02	-2.72457028E-01
5.43094327E+07	 7.42324889E-02	-2.72593018E-01
5.43216408E+07	 7.37553339E-02	-2.72721181E-01
5.43338488E+07	 7.32764127E-02	-2.72852201E-01
5.43460568E+07	 7.27913373E-02	-2.72981214E-01
5.43582648E+07	 7.23141411E-02	-2.73113697E-01
5.43704729E+07	 7.18300995E-02	-2.73244564E-01
5.43826809E+07	 7.13530908E-02	-2.73367295E-01
5.43948889E+07	 7.08721547E-02	-2.73491641E-01
5.44070969E+07	 7.03939605E-02	-2.73619055E-01
5.44193050E+07	 6.99129142E-02	-2.73738040E-01
5.44315130E+07	 6.94292893E-02	-2.73866777E-01
5.44437210E+07	 6.89455726E-02	-2.73989329E-01
5.44559290E+07	 6.84666736E-02	-2.74118588E-01
5.44681371E+07	 6.79779163E-02	-2.74229890E-01
5.44803451E+07	 6.74995155E-02	-2.74354001E-01
5.44925531E+07	 6.70133940E-02	-2.74470346E-01
5.45047611E+07	 6.65354298E-02	-2.74587683E-01
5.45169692E+07	 6.60534809E-02	-2.74711635E-01
5.45291772E+07	 6.55737737E-02	-2.74829163E-01
5.45413852E+07	 6.50924313E-02	-2.74941734E-01
5.45535932E+07	 6.46059458E-02	-2.75055394E-01
5.45658013E+07	 6.41143934E-02	-2.75172846E-01
5.45780093E+07	 6.36354232E-02	-2.75289124E-01
5.45902173E+07	 6.31573928E-02	-2.75398507E-01
5.46024253E+07	 6.26744023E-02	-2.75510137E-01
5.46146334E+07	 6.21833778E-02	-2.75618165E-01
5.46268414E+07	 6.16963274E-02	-2.75731216E-01
5.46390494E+07	 6.12195820E-02	-2.75838724E-01
5.46512574E+07	 6.07328072E-02	-2.75949966E-01
5.46634655E+07	 6.02407562E-02	-2.76050625E-01
5.46756735E+07	 5.97631352E-02	-2.76162669E-01
5.46878815E+07	 5.92692002E-02	-2.76268558E-01
5.47000895E+07	 5.87898271E-02	-2.76373978E-01
5.47122976E+07	 5.83050216E-02	-2.76479146E-01
5.47245056E+07	 5.78207200E-02	-2.76583415E-01
5.47367136E+07	 5.73350643E-02	-2.76685404E-01
5.47489216E+07	 5.68433391E-02	-2.76787318E-01
5.47611296E+07	 5.63605176E-02	-2.76886223E-01
5.47733377E+07	 5.58710509E-02	-2.76986517E-01
5.47855457E+07	 5.53916215E-02	-2.77085595E-01
5.47977537E+07	 5.49006397E-02	-2.77186875E-01
5.48099617E+07	 5.44168663E-02	-2.77283955E-01
5.48221698E+07	 5.39282349E-02	-2.77379041E-01
5.48343778E+07	 5.34354218E-02	-2.77468462E-01
5.48465858E+07	 5.29528977E-02	-2.77566972E-01
5.48587938E+07	 5.24622635E-02	-2.77664009E-01
5.48710019E+07	 5.19685267E-02	-2.77763252E-01
5.48832099E+07	 5.14837381E-02	-2.77853717E-01
5.48954179E+07	 5.09971732E-02	-2.77935782E-01
5.49076259E+07	 5.05056565E-02	-2.78032550E-01
5.49198340E+07	 5.00270706E-02	-2.78123722E-01
5.49320420E+07	 4.95338995E-02	-2.78210050E-01
5.49442500E+07	 4.90406066E-02	-2.78298564E-01
5.49564580E+07	 4.85551197E-02	-2.78383454E-01
5.49686661E+07	 4.80693378E-02	-2.78468116E-01
5.49808741E+07	 4.75814658E-02	-2.78564895E-01
5.49930821E+07	 4.70959694E-02	-2.78640666E-01
5.50052901E+07	 4.65995983E-02	-2.78723398E-01
5.50174982E+07	 4.61159836E-02	-2.78813160E-01
5.50297062E+07	 4.56261243E-02	-2.78895475E-01
5.50419142E+07	 4.51299714E-02	-2.78980989E-01
5.50541222E+07	 4.46434245E-02	-2.79057574E-01
5.50663303E+07	 4.41563208E-02	-2.79133813E-01
5.50785383E+07	 4.36677915E-02	-2.79219346E-01
5.50907463E+07	 4.31693043E-02	-2.79295617E-01
5.51029543E+07	 4.26847261E-02	-2.79369843E-01
5.51151624E+07	 4.21898651E-02	-2.79448899E-01
5.51273704E+07	 4.17084006E-02	-2.79531551E-01
