! COPPER MOUNTAIN TECHNOLOGIES, PLANAR TR1300/1, 00071119, 20.2.2/1.0
! Date: 11/21/2023 7:04:58 PM
! Data: Format [Calibration Info]
! Freq          	S11: Re/Im F1                  
# HZ S RI R 50
5.00000000E+07	 2.81513889E-01	 3.77557125E-02
5.00122080E+07	 2.81568613E-01	 3.73270982E-02
5.00244160E+07	 2.81630598E-01	 3.68960376E-02
5.00366241E+07	 2.81676323E-01	 3.64638564E-02
5.00488321E+07	 2.81727089E-01	 3.60296318E-02
5.00610401E+07	 2.81776749E-01	 3.55990451E-02
5.00732481E+07	 2.81829893E-01	 3.51653290E-02
5.00854562E+07	 2.81890363E-01	 3.47349366E-02
5.00976642E+07	 2.81935440E-01	 3.43026158E-02
5.01098722E+07	 2.81985180E-01	 3.38688418E-02
5.01220802E+07	 2.82029472E-01	 3.34377213E-02
5.01342883E+07	 2.82086404E-01	 3.30035940E-02
5.01464963E+07	 2.82130893E-01	 3.25647101E-02
5.01587043E+07	 2.82174327E-01	 3.21416352E-02
5.01709123E+07	 2.82223400E-01	 3.17035369E-02
5.01831204E+07	 2.82271403E-01	 3.12718680E-02
5.01953284E+07	 2.82313750E-01	 3.08299581E-02
5.02075364E+07	 2.82353258E-01	 3.04043723E-02
5.02197444E+07	 2.82403582E-01	 2.99654533E-02
5.02319525E+07	 2.82445097E-01	 2.95350524E-02
5.02441605E+07	 2.82484858E-01	 2.91023246E-02
5.02563685E+07	 2.82531493E-01	 2.86685364E-02
5.02685765E+07	 2.82568974E-01	 2.82365512E-02
5.02807846E+07	 2.82612993E-01	 2.77966756E-02
5.02929926E+07	 2.82654134E-01	 2.73653528E-02
5.03052006E+07	 2.82694207E-01	 2.69310640E-02
5.03174086E+07	 2.82733550E-01	 2.64966808E-02
5.03296167E+07	 2.82770035E-01	 2.60656188E-02
5.03418247E+07	 2.82804766E-01	 2.56319824E-02
5.03540327E+07	 2.82845796E-01	 2.51925579E-02
5.03662407E+07	 2.82877853E-01	 2.47644801E-02
5.03784488E+07	 2.82915388E-01	 2.43297281E-02
5.03906568E+07	 2.82948816E-01	 2.38973479E-02
5.04028648E+07	 2.82981766E-01	 2.34577095E-02
5.04150728E+07	 2.83016161E-01	 2.30251173E-02
5.04272809E+07	 2.83048863E-01	 2.25910605E-02
5.04394889E+07	 2.83081200E-01	 2.21572593E-02
5.04516969E+07	 2.83115650E-01	 2.17210665E-02
5.04639049E+07	 2.83140435E-01	 2.12895167E-02
5.04761130E+07	 2.83174932E-01	 2.08522675E-02
5.04883210E+07	 2.83199694E-01	 2.04211725E-02
5.05005290E+07	 2.83233456E-01	 1.99796964E-02
5.05127370E+07	 2.83258753E-01	 1.95476339E-02
5.05249451E+07	 2.83289455E-01	 1.91081755E-02
5.05371531E+07	 2.83318988E-01	 1.86796856E-02
5.05493611E+07	 2.83344858E-01	 1.82402766E-02
5.05615691E+07	 2.83366927E-01	 1.78125432E-02
5.05737772E+07	 2.83391004E-01	 1.73706757E-02
5.05859852E+07	 2.83412213E-01	 1.69384375E-02
5.05981932E+07	 2.83435673E-01	 1.65033482E-02
5.06104012E+07	 2.83461067E-01	 1.60719105E-02
5.06226093E+07	 2.83486458E-01	 1.56339907E-02
5.06348173E+07	 2.83506743E-01	 1.52019345E-02
5.06470253E+07	 2.83526464E-01	 1.47673885E-02
5.06592333E+07	 2.83542384E-01	 1.43205290E-02
5.06714414E+07	 2.83563771E-01	 1.38884424E-02
5.06836494E+07	 2.83586080E-01	 1.34554130E-02
5.06958574E+07	 2.83600684E-01	 1.30191925E-02
5.07080654E+07	 2.83624131E-01	 1.25855155E-02
5.07202735E+07	 2.83637871E-01	 1.21486396E-02
5.07324815E+07	 2.83654309E-01	 1.17198540E-02
5.07446895E+07	 2.83674843E-01	 1.12825503E-02
5.07568975E+07	 2.83686805E-01	 1.08418875E-02
5.07691056E+07	 2.83698344E-01	 1.04102559E-02
5.07813136E+07	 2.83718195E-01	 9.97678994E-03
5.07935216E+07	 2.83733377E-01	 9.53798595E-03
5.08057296E+07	 2.83739347E-01	 9.10287239E-03
5.08179377E+07	 2.83750057E-01	 8.66503659E-03
5.08301457E+07	 2.83762459E-01	 8.23138707E-03
5.08423537E+07	 2.83770485E-01	 7.79839313E-03
5.08545617E+07	 2.83781221E-01	 7.36360684E-03
5.08667698E+07	 2.83795136E-01	 6.92380205E-03
5.08789778E+07	 2.83798765E-01	 6.48729528E-03
5.08911858E+07	 2.83808516E-01	 6.05075716E-03
5.09033938E+07	 2.83814030E-01	 5.61925990E-03
5.09156019E+07	 2.83819656E-01	 5.18211471E-03
5.09278099E+07	 2.83821481E-01	 4.74897969E-03
5.09400179E+07	 2.83831623E-01	 4.30791186E-03
5.09522259E+07	 2.83835903E-01	 3.87311659E-03
5.09644340E+07	 2.83846820E-01	 3.43499879E-03
5.09766420E+07	 2.83842349E-01	 3.00680379E-03
5.09888500E+07	 2.83848273E-01	 2.56564396E-03
5.10010580E+07	 2.83847599E-01	 2.12717577E-03
5.10132661E+07	 2.83852612E-01	 1.69064337E-03
5.10254741E+07	 2.83853924E-01	 1.25539843E-03
5.10376821E+07	 2.83848174E-01	 8.23004600E-04
5.10498901E+07	 2.83850633E-01	 3.83805205E-04
5.10620982E+07	 2.83849870E-01	-4.50453999E-05
5.10743062E+07	 2.83852539E-01	-4.87102325E-04
5.10865142E+07	 2.83843813E-01	-9.14346636E-04
5.10987222E+07	 2.83842782E-01	-1.35644600E-03
5.11109303E+07	 2.83835862E-01	-1.79042989E-03
5.11231383E+07	 2.83831202E-01	-2.22667224E-03
5.11353463E+07	 2.83832231E-01	-2.66365593E-03
5.11475543E+07	 2.83828047E-01	-3.09462279E-03
5.11597624E+07	 2.83817106E-01	-3.53883956E-03
5.11719704E+07	 2.83810910E-01	-3.96958794E-03
5.11841784E+07	 2.83799200E-01	-4.40255248E-03
5.11963864E+07	 2.83793419E-01	-4.83777796E-03
5.12085944E+07	 2.83779473E-01	-5.27393118E-03
5.12208025E+07	 2.83773569E-01	-5.71069843E-03
5.12330105E+07	 2.83766801E-01	-6.14616310E-03
5.12452185E+07	 2.83749548E-01	-6.58289746E-03
5.12574265E+07	 2.83743594E-01	-7.01573258E-03
5.12696346E+07	 2.83724377E-01	-7.45186262E-03
5.12818426E+07	 2.83712859E-01	-7.89051143E-03
5.12940506E+07	 2.83700116E-01	-8.32729046E-03
5.13062586E+07	 2.83689451E-01	-8.76506902E-03
5.13184667E+07	 2.83671758E-01	-9.19396883E-03
5.13306747E+07	 2.83655174E-01	-9.63250140E-03
5.13428827E+07	 2.83641671E-01	-1.00677162E-02
5.13550907E+07	 2.83626501E-01	-1.04966237E-02
5.13672988E+07	 2.83609196E-01	-1.09376867E-02
5.13795068E+07	 2.83591450E-01	-1.13747389E-02
5.13917148E+07	 2.83567402E-01	-1.18058668E-02
5.14039228E+07	 2.83549343E-01	-1.22439472E-02
5.14161309E+07	 2.83525242E-01	-1.26761160E-02
5.14283389E+07	 2.83511175E-01	-1.31184833E-02
5.14405469E+07	 2.83483787E-01	-1.35480339E-02
5.14527549E+07	 2.83461964E-01	-1.39872486E-02
5.14649630E+07	 2.83439971E-01	-1.44193825E-02
5.14771710E+07	 2.83415371E-01	-1.48561110E-02
5.14893790E+07	 2.83393730E-01	-1.52932312E-02
5.15015870E+07	 2.83368917E-01	-1.57209914E-02
5.15137951E+07	 2.83344537E-01	-1.61588927E-02
5.15260031E+07	 2.83314843E-01	-1.65979310E-02
5.15382111E+07	 2.83295168E-01	-1.70305955E-02
5.15504191E+07	 2.83259942E-01	-1.74650044E-02
5.15626272E+07	 2.83230336E-01	-1.78980549E-02
5.15748352E+07	 2.83204777E-01	-1.83363919E-02
5.15870432E+07	 2.83173309E-01	-1.87686753E-02
5.15992512E+07	 2.83141184E-01	-1.92068203E-02
5.16114593E+07	 2.83116135E-01	-1.96425978E-02
5.16236673E+07	 2.83083406E-01	-2.00746044E-02
5.16358753E+07	 2.83050219E-01	-2.05059501E-02
5.16480833E+07	 2.83013588E-01	-2.09439144E-02
5.16602914E+07	 2.82991997E-01	-2.13764175E-02
5.16724994E+07	 2.82949800E-01	-2.18108405E-02
5.16847074E+07	 2.82915985E-01	-2.22467367E-02
5.16969154E+07	 2.82878267E-01	-2.26812747E-02
5.17091235E+07	 2.82848795E-01	-2.31109715E-02
5.17213315E+07	 2.82803847E-01	-2.35529636E-02
5.17335395E+07	 2.82765590E-01	-2.39857740E-02
5.17457475E+07	 2.82729793E-01	-2.44233981E-02
5.17579556E+07	 2.82694815E-01	-2.48467524E-02
5.17701636E+07	 2.82657484E-01	-2.52829481E-02
5.17823716E+07	 2.82614078E-01	-2.57182948E-02
5.17945796E+07	 2.82573120E-01	-2.61548080E-02
5.18067877E+07	 2.82529758E-01	-2.65846890E-02
5.18189957E+07	 2.82488593E-01	-2.70165996E-02
5.18312037E+07	 2.82451180E-01	-2.74497940E-02
5.18434117E+07	 2.82408369E-01	-2.78881875E-02
5.18556198E+07	 2.82364052E-01	-2.83219081E-02
5.18678278E+07	 2.82316401E-01	-2.87540450E-02
5.18800358E+07	 2.82271994E-01	-2.91873671E-02
5.18922438E+07	 2.82223696E-01	-2.96225967E-02
5.19044519E+07	 2.82177201E-01	-3.00551305E-02
5.19166599E+07	 2.82130930E-01	-3.04935526E-02
5.19288679E+07	 2.82082088E-01	-3.09229929E-02
5.19410759E+07	 2.82039187E-01	-3.13541263E-02
5.19532840E+07	 2.81989032E-01	-3.17897029E-02
5.19654920E+07	 2.81935855E-01	-3.22178970E-02
5.19777000E+07	 2.81882621E-01	-3.26551557E-02
5.19899080E+07	 2.81840745E-01	-3.30857351E-02
5.20021161E+07	 2.81784917E-01	-3.35221298E-02
5.20143241E+07	 2.81732122E-01	-3.39522381E-02
5.20265321E+07	 2.81677201E-01	-3.43809143E-02
5.20387401E+07	 2.81619304E-01	-3.48173653E-02
5.20509482E+07	 2.81567926E-01	-3.52513872E-02
5.20631562E+07	 2.81506956E-01	-3.56839728E-02
5.20753642E+07	 2.81456095E-01	-3.61108982E-02
5.20875722E+07	 2.81401355E-01	-3.65508994E-02
5.20997803E+07	 2.81344565E-01	-3.69801143E-02
5.21119883E+07	 2.81282027E-01	-3.74086116E-02
5.21241963E+07	 2.81226397E-01	-3.78446462E-02
5.21364043E+07	 2.81168559E-01	-3.82725277E-02
5.21486124E+07	 2.81107849E-01	-3.87047481E-02
5.21608204E+07	 2.81048376E-01	-3.91417024E-02
5.21730284E+07	 2.80990848E-01	-3.95683363E-02
5.21852364E+07	 2.80916816E-01	-3.99958961E-02
5.21974445E+07	 2.80861463E-01	-4.04261377E-02
5.22096525E+07	 2.80798285E-01	-4.08624654E-02
5.22218605E+07	 2.80734102E-01	-4.12938550E-02
5.22340685E+07	 2.80667469E-01	-4.17196126E-02
5.22462766E+07	 2.80604461E-01	-4.21548294E-02
5.22584846E+07	 2.80534334E-01	-4.25802080E-02
5.22706926E+07	 2.80466405E-01	-4.30191926E-02
5.22829006E+07	 2.80399464E-01	-4.34469671E-02
5.22951087E+07	 2.80341943E-01	-4.38752548E-02
5.23073167E+07	 2.80265579E-01	-4.43076891E-02
5.23195247E+07	 2.80199055E-01	-4.47344055E-02
5.23317327E+07	 2.80132365E-01	-4.51673386E-02
5.23439408E+07	 2.80062403E-01	-4.55960567E-02
5.23561488E+07	 2.79987122E-01	-4.60242461E-02
5.23683568E+07	 2.79911991E-01	-4.64560845E-02
5.23805648E+07	 2.79841862E-01	-4.68870815E-02
5.23927728E+07	 2.79770763E-01	-4.73140335E-02
5.24049809E+07	 2.79701374E-01	-4.77438852E-02
5.24171889E+07	 2.79621588E-01	-4.81751862E-02
5.24293969E+07	 2.79545309E-01	-4.86021226E-02
5.24416049E+07	 2.79466448E-01	-4.90350994E-02
5.24538130E+07	 2.79402667E-01	-4.94661054E-02
5.24660210E+07	 2.79322675E-01	-4.98932382E-02
5.24782290E+07	 2.79241907E-01	-5.03235861E-02
5.24904370E+07	 2.79162020E-01	-5.07504418E-02
5.25026451E+07	 2.79081685E-01	-5.11827801E-02
5.25148531E+07	 2.79000077E-01	-5.16103091E-02
5.25270611E+07	 2.78926353E-01	-5.20353996E-02
5.25392691E+07	 2.78844693E-01	-5.24652684E-02
5.25514772E+07	 2.78760902E-01	-5.28932198E-02
5.25636852E+07	 2.78679545E-01	-5.33213602E-02
5.25758932E+07	 2.78602035E-01	-5.37519372E-02
5.25881012E+07	 2.78510902E-01	-5.41805816E-02
5.26003093E+07	 2.78436278E-01	-5.46049817E-02
5.26125173E+07	 2.78341289E-01	-5.50326798E-02
5.26247253E+07	 2.78259518E-01	-5.54642544E-02
5.26369333E+07	 2.78169087E-01	-5.58835698E-02
5.26491414E+07	 2.78085136E-01	-5.63153201E-02
5.26613494E+07	 2.78002887E-01	-5.67413946E-02
5.26735574E+07	 2.77910385E-01	-5.71649629E-02
5.26857654E+07	 2.77822520E-01	-5.75969275E-02
5.26979735E+07	 2.77735889E-01	-5.80231455E-02
5.27101815E+07	 2.77639817E-01	-5.84471889E-02
5.27223895E+07	 2.77549721E-01	-5.88730068E-02
5.27345975E+07	 2.77462603E-01	-5.93009294E-02
5.27468056E+07	 2.77367773E-01	-5.97252471E-02
5.27590136E+07	 2.77275941E-01	-6.01540540E-02
5.27712216E+07	 2.77187890E-01	-6.05759717E-02
5.27834296E+07	 2.77091599E-01	-6.10054486E-02
5.27956377E+07	 2.76995380E-01	-6.14271809E-02
5.28078457E+07	 2.76901614E-01	-6.18520038E-02
5.28200537E+07	 2.76802813E-01	-6.22783678E-02
5.28322617E+07	 2.76712448E-01	-6.27034411E-02
5.28444698E+07	 2.76610350E-01	-6.31271381E-02
5.28566778E+07	 2.76517634E-01	-6.35542577E-02
5.28688858E+07	 2.76413920E-01	-6.39743573E-02
5.28810938E+07	 2.76321242E-01	-6.44034972E-02
5.28933019E+07	 2.76222694E-01	-6.48331241E-02
5.29055099E+07	 2.76121714E-01	-6.52558152E-02
5.29177179E+07	 2.76016774E-01	-6.56754614E-02
5.29299259E+07	 2.75917308E-01	-6.61025426E-02
5.29421340E+07	 2.75816857E-01	-6.65274160E-02
5.29543420E+07	 2.75714370E-01	-6.69513867E-02
5.29665500E+07	 2.75612118E-01	-6.73738302E-02
5.29787580E+07	 2.75505415E-01	-6.77927777E-02
5.29909661E+07	 2.75394408E-01	-6.82140358E-02
5.30031741E+07	 2.75290124E-01	-6.86465931E-02
5.30153821E+07	 2.75185730E-01	-6.90632982E-02
5.30275901E+07	 2.75084906E-01	-6.94835230E-02
5.30397982E+07	 2.74976119E-01	-6.99096965E-02
5.30520062E+07	 2.74865281E-01	-7.03315147E-02
5.30642142E+07	 2.74761307E-01	-7.07539705E-02
5.30764222E+07	 2.74649303E-01	-7.11757764E-02
5.30886303E+07	 2.74539761E-01	-7.15968792E-02
5.31008383E+07	 2.74426454E-01	-7.20184423E-02
5.31130463E+07	 2.74318999E-01	-7.24384748E-02
5.31252543E+07	 2.74210225E-01	-7.28595630E-02
5.31374624E+07	 2.74098904E-01	-7.32820254E-02
5.31496704E+07	 2.73980182E-01	-7.37001206E-02
5.31618784E+07	 2.73872036E-01	-7.41196603E-02
5.31740864E+07	 2.73756803E-01	-7.45419295E-02
5.31862945E+07	 2.73641370E-01	-7.49633027E-02
5.31985025E+07	 2.73525326E-01	-7.53836738E-02
5.32107105E+07	 2.73414644E-01	-7.58050452E-02
5.32229185E+07	 2.73293573E-01	-7.62236214E-02
5.32351266E+07	 2.73175808E-01	-7.66470485E-02
5.32473346E+07	 2.73054498E-01	-7.70583674E-02
5.32595426E+07	 2.72943872E-01	-7.74798820E-02
5.32717506E+07	 2.72823740E-01	-7.79043245E-02
5.32839587E+07	 2.72699928E-01	-7.83185707E-02
5.32961667E+07	 2.72576124E-01	-7.87370751E-02
5.33083747E+07	 2.72455191E-01	-7.91572674E-02
5.33205827E+07	 2.72336847E-01	-7.95750110E-02
5.33327908E+07	 2.72218866E-01	-7.99899207E-02
5.33449988E+07	 2.72094044E-01	-8.04159844E-02
5.33572068E+07	 2.71967998E-01	-8.08279901E-02
5.33694148E+07	 2.71845887E-01	-8.12446208E-02
5.33816229E+07	 2.71722010E-01	-8.16625938E-02
5.33938309E+07	 2.71596494E-01	-8.20804704E-02
5.34060389E+07	 2.71468052E-01	-8.24948265E-02
5.34182469E+07	 2.71338107E-01	-8.29121513E-02
5.34304550E+07	 2.71217822E-01	-8.33294617E-02
5.34426630E+07	 2.71086136E-01	-8.37406681E-02
5.34548710E+07	 2.70951339E-01	-8.41600635E-02
5.34670790E+07	 2.70827721E-01	-8.45740622E-02
5.34792871E+07	 2.70697369E-01	-8.49922519E-02
5.34914951E+07	 2.70570144E-01	-8.54073180E-02
5.35037031E+07	 2.70436258E-01	-8.58250911E-02
5.35159111E+07	 2.70305277E-01	-8.62418189E-02
5.35281192E+07	 2.70174361E-01	-8.66479363E-02
5.35403272E+07	 2.70041796E-01	-8.70692631E-02
5.35525352E+07	 2.69904165E-01	-8.74856039E-02
5.35647432E+07	 2.69776839E-01	-8.78977691E-02
5.35769512E+07	 2.69635125E-01	-8.83127217E-02
5.35891593E+07	 2.69499943E-01	-8.87233338E-02
5.36013673E+07	 2.69364535E-01	-8.91356725E-02
5.36135753E+07	 2.69224792E-01	-8.95549970E-02
5.36257833E+07	 2.69087317E-01	-8.99679054E-02
5.36379914E+07	 2.68955189E-01	-9.03799906E-02
5.36501994E+07	 2.68815224E-01	-9.07985153E-02
5.36624074E+07	 2.68672896E-01	-9.12041206E-02
5.36746154E+07	 2.68533198E-01	-9.16218758E-02
5.36868235E+07	 2.68391816E-01	-9.20303764E-02
5.36990315E+07	 2.68254460E-01	-9.24441607E-02
5.37112395E+07	 2.68119208E-01	-9.28575075E-02
5.37234475E+07	 2.67971526E-01	-9.32658376E-02
5.37356556E+07	 2.67822298E-01	-9.36827496E-02
5.37478636E+07	 2.67679427E-01	-9.40921184E-02
5.37600716E+07	 2.67543898E-01	-9.45047138E-02
5.37722796E+07	 2.67395603E-01	-9.49201865E-02
5.37844877E+07	 2.67249523E-01	-9.53260985E-02
5.37966957E+07	 2.67100047E-01	-9.57352227E-02
5.38089037E+07	 2.66954642E-01	-9.61426256E-02
5.38211117E+07	 2.66805577E-01	-9.65546482E-02
5.38333198E+07	 2.66659907E-01	-9.69674369E-02
5.38455278E+07	 2.66508888E-01	-9.73712953E-02
5.38577358E+07	 2.66362045E-01	-9.77856263E-02
5.38699438E+07	 2.66210316E-01	-9.81930381E-02
5.38821519E+07	 2.66064115E-01	-9.86002799E-02
5.38943599E+07	 2.65905067E-01	-9.90128633E-02
5.39065679E+07	 2.65755382E-01	-9.94139184E-02
5.39187759E+07	 2.65609985E-01	-9.98259633E-02
5.39309840E+07	 2.65450617E-01	-1.00238460E-01
5.39431920E+07	 2.65300896E-01	-1.00641658E-01
5.39554000E+07	 2.65146400E-01	-1.01044058E-01
5.39676080E+07	 2.64993194E-01	-1.01457438E-01
5.39798161E+07	 2.64834509E-01	-1.01862305E-01
5.39920241E+07	 2.64678402E-01	-1.02274768E-01
5.40042321E+07	 2.64524639E-01	-1.02677908E-01
5.40164401E+07	 2.64364112E-01	-1.03080220E-01
5.40286482E+07	 2.64203699E-01	-1.03491041E-01
5.40408562E+07	 2.64039710E-01	-1.03897832E-01
5.40530642E+07	 2.63888328E-01	-1.04303257E-01
5.40652722E+07	 2.63726360E-01	-1.04713427E-01
5.40774803E+07	 2.63568511E-01	-1.05113351E-01
5.40896883E+07	 2.63409282E-01	-1.05518766E-01
5.41018963E+07	 2.63247002E-01	-1.05924427E-01
5.41141043E+07	 2.63081970E-01	-1.06330828E-01
5.41263124E+07	 2.62918022E-01	-1.06728419E-01
5.41385204E+07	 2.62754525E-01	-1.07137335E-01
5.41507284E+07	 2.62592630E-01	-1.07535676E-01
5.41629364E+07	 2.62427086E-01	-1.07945885E-01
5.41751445E+07	 2.62259315E-01	-1.08344062E-01
5.41873525E+07	 2.62098945E-01	-1.08753195E-01
5.41995605E+07	 2.61927609E-01	-1.09151223E-01
5.42117685E+07	 2.61763604E-01	-1.09559866E-01
5.42239766E+07	 2.61593786E-01	-1.09961940E-01
5.42361846E+07	 2.61422917E-01	-1.10362386E-01
5.42483926E+07	 2.61256858E-01	-1.10767378E-01
5.42606006E+07	 2.61085806E-01	-1.11166198E-01
5.42728087E+07	 2.60918400E-01	-1.11568736E-01
5.42850167E+07	 2.60746169E-01	-1.11967215E-01
5.42972247E+07	 2.60570011E-01	-1.12371025E-01
5.43094327E+07	 2.60402271E-01	-1.12770723E-01
5.43216408E+07	 2.60234117E-01	-1.13168329E-01
5.43338488E+07	 2.60053039E-01	-1.13567472E-01
5.43460568E+07	 2.59880383E-01	-1.13970660E-01
5.43582648E+07	 2.59705919E-01	-1.14373211E-01
5.43704729E+07	 2.59532718E-01	-1.14770247E-01
5.43826809E+07	 2.59353925E-01	-1.15169286E-01
5.43948889E+07	 2.59179188E-01	-1.15565521E-01
5.44070969E+07	 2.59003275E-01	-1.15965067E-01
5.44193050E+07	 2.58825099E-01	-1.16365403E-01
5.44315130E+07	 2.58644998E-01	-1.16759356E-01
5.44437210E+07	 2.58468414E-01	-1.17159979E-01
5.44559290E+07	 2.58289262E-01	-1.17562691E-01
5.44681371E+07	 2.58109208E-01	-1.17953275E-01
5.44803451E+07	 2.57930996E-01	-1.18351297E-01
5.44925531E+07	 2.57746904E-01	-1.18742319E-01
5.45047611E+07	 2.57567129E-01	-1.19143107E-01
5.45169692E+07	 2.57382652E-01	-1.19540544E-01
5.45291772E+07	 2.57203430E-01	-1.19940223E-01
5.45413852E+07	 2.57009031E-01	-1.20333051E-01
5.45535932E+07	 2.56833555E-01	-1.20730254E-01
5.45658013E+07	 2.56643897E-01	-1.21125824E-01
5.45780093E+07	 2.56466699E-01	-1.21520059E-01
5.45902173E+07	 2.56282682E-01	-1.21913009E-01
5.46024253E+07	 2.56090874E-01	-1.22304637E-01
5.46146334E+07	 2.55902319E-01	-1.22696436E-01
5.46268414E+07	 2.55713717E-01	-1.23087921E-01
5.46390494E+07	 2.55523486E-01	-1.23488226E-01
5.46512574E+07	 2.55331836E-01	-1.23880872E-01
5.46634655E+07	 2.55143735E-01	-1.24276124E-01
5.46756735E+07	 2.54955903E-01	-1.24661942E-01
5.46878815E+07	 2.54767317E-01	-1.25057595E-01
5.47000895E+07	 2.54572760E-01	-1.25450934E-01
5.47122976E+07	 2.54381638E-01	-1.25837645E-01
5.47245056E+07	 2.54192515E-01	-1.26236304E-01
5.47367136E+07	 2.53997247E-01	-1.26623216E-01
5.47489216E+07	 2.53804073E-01	-1.27016234E-01
5.47611296E+07	 2.53607042E-01	-1.27406300E-01
5.47733377E+07	 2.53414247E-01	-1.27793198E-01
5.47855457E+07	 2.53224522E-01	-1.28181220E-01
5.47977537E+07	 2.53022618E-01	-1.28573820E-01
5.48099617E+07	 2.52825779E-01	-1.28963247E-01
5.48221698E+07	 2.52627867E-01	-1.29348767E-01
5.48343778E+07	 2.52432903E-01	-1.29740300E-01
5.48465858E+07	 2.52232817E-01	-1.30127994E-01
5.48587938E+07	 2.52030052E-01	-1.30519325E-01
5.48710019E+07	 2.51833677E-01	-1.30904742E-01
5.48832099E+07	 2.51634498E-01	-1.31292925E-01
5.48954179E+07	 2.51427753E-01	-1.31679419E-01
5.49076259E+07	 2.51233211E-01	-1.32069066E-01
5.49198340E+07	 2.51028815E-01	-1.32449052E-01
5.49320420E+07	 2.50825651E-01	-1.32839092E-01
5.49442500E+07	 2.50626598E-01	-1.33219522E-01
5.49564580E+07	 2.50415139E-01	-1.33612099E-01
5.49686661E+07	 2.50211375E-01	-1.33993623E-01
5.49808741E+07	 2.50015567E-01	-1.34382008E-01
5.49930821E+07	 2.49808522E-01	-1.34763093E-01
5.50052901E+07	 2.49599145E-01	-1.35153920E-01
5.50174982E+07	 2.49391440E-01	-1.35539165E-01
5.50297062E+07	 2.49185540E-01	-1.35917432E-01
5.50419142E+07	 2.48981412E-01	-1.36301253E-01
5.50541222E+07	 2.48768619E-01	-1.36684809E-01
5.50663303E+07	 2.48561090E-01	-1.37070259E-01
5.50785383E+07	 2.48354657E-01	-1.37449228E-01
5.50907463E+07	 2.48145656E-01	-1.37833328E-01
5.51029543E+07	 2.47928469E-01	-1.38213913E-01
5.51151624E+07	 2.47722445E-01	-1.38595658E-01
5.51273704E+07	 2.47511085E-01	-1.38977631E-01
