! COPPER MOUNTAIN TECHNOLOGIES, PLANAR TR1300/1, 00071119, 20.2.2/1.0
! Date: 7/24/2023 9:32:28 AM
! Data: Format [Calibration Info]
! Freq          	S11: Re/Im F1                  
# HZ S RI R 50
5.00000000E+07	-1.02997800E-01	 2.35698820E-01
5.00122080E+07	-1.02731630E-01	 2.35811566E-01
5.00244160E+07	-1.02469357E-01	 2.35919820E-01
5.00366241E+07	-1.02213767E-01	 2.36025571E-01
5.00488321E+07	-1.01946936E-01	 2.36131113E-01
5.00610401E+07	-1.01690152E-01	 2.36239724E-01
5.00732481E+07	-1.01427737E-01	 2.36348339E-01
5.00854562E+07	-1.01161269E-01	 2.36457468E-01
5.00976642E+07	-1.00908066E-01	 2.36557379E-01
5.01098722E+07	-1.00639910E-01	 2.36670091E-01
5.01220802E+07	-1.00373966E-01	 2.36767638E-01
5.01342883E+07	-1.00120258E-01	 2.36873141E-01
5.01464963E+07	-9.98566900E-02	 2.36979923E-01
5.01587043E+07	-9.95920488E-02	 2.37086910E-01
5.01709123E+07	-9.93210782E-02	 2.37184720E-01
5.01831204E+07	-9.90661770E-02	 2.37292573E-01
5.01953284E+07	-9.87979911E-02	 2.37395678E-01
5.02075364E+07	-9.85381807E-02	 2.37494325E-01
5.02197444E+07	-9.82820797E-02	 2.37596319E-01
5.02319525E+07	-9.80092202E-02	 2.37703619E-01
5.02441605E+07	-9.77508248E-02	 2.37810961E-01
5.02563685E+07	-9.74892792E-02	 2.37910086E-01
5.02685765E+07	-9.72212454E-02	 2.38007247E-01
5.02807846E+07	-9.69589080E-02	 2.38114987E-01
5.02929926E+07	-9.66914549E-02	 2.38213969E-01
5.03052006E+07	-9.64325075E-02	 2.38314843E-01
5.03174086E+07	-9.61715333E-02	 2.38420023E-01
5.03296167E+07	-9.59046230E-02	 2.38514616E-01
5.03418247E+07	-9.56437681E-02	 2.38615478E-01
5.03540327E+07	-9.53808403E-02	 2.38721624E-01
5.03662407E+07	-9.51049866E-02	 2.38815752E-01
5.03784488E+07	-9.48489017E-02	 2.38915804E-01
5.03906568E+07	-9.45851269E-02	 2.39009671E-01
5.04028648E+07	-9.43151713E-02	 2.39110856E-01
5.04150728E+07	-9.40559185E-02	 2.39209542E-01
5.04272809E+07	-9.37883443E-02	 2.39312468E-01
5.04394889E+07	-9.35278657E-02	 2.39401539E-01
5.04516969E+07	-9.32612026E-02	 2.39505925E-01
5.04639049E+07	-9.29933069E-02	 2.39608212E-01
5.04761130E+07	-9.27311308E-02	 2.39692023E-01
5.04883210E+07	-9.24639303E-02	 2.39799408E-01
5.05005290E+07	-9.21943413E-02	 2.39893966E-01
5.05127370E+07	-9.19293921E-02	 2.39988885E-01
5.05249451E+07	-9.16666855E-02	 2.40086947E-01
5.05371531E+07	-9.13984596E-02	 2.40183479E-01
5.05493611E+07	-9.11376193E-02	 2.40273548E-01
5.05615691E+07	-9.08627159E-02	 2.40372662E-01
5.05737772E+07	-9.05997408E-02	 2.40463535E-01
5.05859852E+07	-9.03346188E-02	 2.40556517E-01
5.05981932E+07	-9.00648200E-02	 2.40656294E-01
5.06104012E+07	-8.98073785E-02	 2.40751546E-01
5.06226093E+07	-8.95328493E-02	 2.40841040E-01
5.06348173E+07	-8.92702681E-02	 2.40938616E-01
5.06470253E+07	-8.90022938E-02	 2.41033639E-01
5.06592333E+07	-8.87404003E-02	 2.41122234E-01
5.06714414E+07	-8.84729372E-02	 2.41215519E-01
5.06836494E+07	-8.81980907E-02	 2.41303430E-01
5.06958574E+07	-8.79413432E-02	 2.41398099E-01
5.07080654E+07	-8.76695194E-02	 2.41489876E-01
5.07202735E+07	-8.74004280E-02	 2.41578571E-01
5.07324815E+07	-8.71292398E-02	 2.41676025E-01
5.07446895E+07	-8.68624535E-02	 2.41763222E-01
5.07568975E+07	-8.65977566E-02	 2.41856168E-01
5.07691056E+07	-8.63302905E-02	 2.41944963E-01
5.07813136E+07	-8.60613682E-02	 2.42033520E-01
5.07935216E+07	-8.58004798E-02	 2.42126247E-01
5.08057296E+07	-8.55262997E-02	 2.42211780E-01
5.08179377E+07	-8.52611408E-02	 2.42306573E-01
5.08301457E+07	-8.49914639E-02	 2.42386186E-01
5.08423537E+07	-8.47253137E-02	 2.42480724E-01
5.08545617E+07	-8.44555386E-02	 2.42567339E-01
5.08667698E+07	-8.41868801E-02	 2.42657678E-01
5.08789778E+07	-8.39217621E-02	 2.42741631E-01
5.08911858E+07	-8.36536811E-02	 2.42834207E-01
5.09033938E+07	-8.33790248E-02	 2.42919234E-01
5.09156019E+07	-8.31080274E-02	 2.43009218E-01
5.09278099E+07	-8.28419660E-02	 2.43092615E-01
5.09400179E+07	-8.25710037E-02	 2.43178346E-01
5.09522259E+07	-8.23007014E-02	 2.43265299E-01
5.09644340E+07	-8.20370360E-02	 2.43357799E-01
5.09766420E+07	-8.17659661E-02	 2.43433914E-01
5.09888500E+07	-8.14984795E-02	 2.43517343E-01
5.10010580E+07	-8.12231198E-02	 2.43603300E-01
5.10132661E+07	-8.09595214E-02	 2.43691168E-01
5.10254741E+07	-8.06851072E-02	 2.43780917E-01
5.10376821E+07	-8.04213692E-02	 2.43860117E-01
5.10498901E+07	-8.01414749E-02	 2.43941864E-01
5.10620982E+07	-7.98779645E-02	 2.44022783E-01
5.10743062E+07	-7.96072918E-02	 2.44106315E-01
5.10865142E+07	-7.93393648E-02	 2.44195884E-01
5.10987222E+07	-7.90638618E-02	 2.44276133E-01
5.11109303E+07	-7.87967216E-02	 2.44354091E-01
5.11231383E+07	-7.85241054E-02	 2.44437014E-01
5.11353463E+07	-7.82583899E-02	 2.44515749E-01
5.11475543E+07	-7.79771804E-02	 2.44597483E-01
5.11597624E+07	-7.77115196E-02	 2.44675622E-01
5.11719704E+07	-7.74414944E-02	 2.44759448E-01
5.11841784E+07	-7.71716256E-02	 2.44836307E-01
5.11963864E+07	-7.68949367E-02	 2.44915979E-01
5.12085944E+07	-7.66259185E-02	 2.45001358E-01
5.12208025E+07	-7.63563832E-02	 2.45079739E-01
5.12330105E+07	-7.60889241E-02	 2.45161652E-01
5.12452185E+07	-7.58143903E-02	 2.45235878E-01
5.12574265E+07	-7.55427820E-02	 2.45314627E-01
5.12696346E+07	-7.52730501E-02	 2.45397579E-01
5.12818426E+07	-7.49991956E-02	 2.45468365E-01
5.12940506E+07	-7.47277894E-02	 2.45545355E-01
5.13062586E+07	-7.44531412E-02	 2.45625776E-01
5.13184667E+07	-7.41828568E-02	 2.45708498E-01
5.13306747E+07	-7.39135556E-02	 2.45779942E-01
5.13428827E+07	-7.36402491E-02	 2.45855538E-01
5.13550907E+07	-7.33660495E-02	 2.45935795E-01
5.13672988E+07	-7.30934090E-02	 2.46011384E-01
5.13795068E+07	-7.28194912E-02	 2.46081557E-01
5.13917148E+07	-7.25550858E-02	 2.46164953E-01
5.14039228E+07	-7.22747726E-02	 2.46232927E-01
5.14161309E+07	-7.20100025E-02	 2.46310999E-01
5.14283389E+07	-7.17385863E-02	 2.46381114E-01
5.14405469E+07	-7.14593568E-02	 2.46460413E-01
5.14527549E+07	-7.11880952E-02	 2.46534929E-01
5.14649630E+07	-7.09149057E-02	 2.46608368E-01
5.14771710E+07	-7.06430724E-02	 2.46680458E-01
5.14893790E+07	-7.03686543E-02	 2.46755960E-01
5.15015870E+07	-7.00966647E-02	 2.46819118E-01
5.15137951E+07	-6.98213388E-02	 2.46900982E-01
5.15260031E+07	-6.95450739E-02	 2.46971236E-01
5.15382111E+07	-6.92779277E-02	 2.47042491E-01
5.15504191E+07	-6.89992744E-02	 2.47116593E-01
5.15626272E+07	-6.87286503E-02	 2.47183394E-01
5.15748352E+07	-6.84523095E-02	 2.47261056E-01
5.15870432E+07	-6.81798077E-02	 2.47326432E-01
5.15992512E+07	-6.79051740E-02	 2.47394856E-01
5.16114593E+07	-6.76319289E-02	 2.47468910E-01
5.16236673E+07	-6.73598432E-02	 2.47540542E-01
5.16358753E+07	-6.70837774E-02	 2.47610856E-01
5.16480833E+07	-6.68138118E-02	 2.47679589E-01
5.16602914E+07	-6.65354935E-02	 2.47745947E-01
5.16724994E+07	-6.62583567E-02	 2.47814176E-01
5.16847074E+07	-6.59904531E-02	 2.47884629E-01
5.16969154E+07	-6.57076312E-02	 2.47952391E-01
5.17091235E+07	-6.54396229E-02	 2.48018675E-01
5.17213315E+07	-6.51656335E-02	 2.48088864E-01
5.17335395E+07	-6.48827934E-02	 2.48154493E-01
5.17457475E+07	-6.46234322E-02	 2.48222305E-01
5.17579556E+07	-6.43429246E-02	 2.48293291E-01
5.17701636E+07	-6.40714027E-02	 2.48355399E-01
5.17823716E+07	-6.37935980E-02	 2.48419575E-01
5.17945796E+07	-6.35165677E-02	 2.48485165E-01
5.18067877E+07	-6.32369081E-02	 2.48552581E-01
5.18189957E+07	-6.29636849E-02	 2.48618935E-01
5.18312037E+07	-6.26973361E-02	 2.48680741E-01
5.18434117E+07	-6.24104068E-02	 2.48742060E-01
5.18556198E+07	-6.21421781E-02	 2.48821566E-01
5.18678278E+07	-6.18625138E-02	 2.48869390E-01
5.18800358E+07	-6.15956994E-02	 2.48935145E-01
5.18922438E+07	-6.13194861E-02	 2.49007024E-01
5.19044519E+07	-6.10443063E-02	 2.49067449E-01
5.19166599E+07	-6.07608264E-02	 2.49127837E-01
5.19288679E+07	-6.04891394E-02	 2.49186381E-01
5.19410759E+07	-6.02113019E-02	 2.49260048E-01
5.19532840E+07	-5.99437272E-02	 2.49318303E-01
5.19654920E+07	-5.96615982E-02	 2.49373059E-01
5.19777000E+07	-5.93832116E-02	 2.49434020E-01
5.19899080E+07	-5.91065819E-02	 2.49501047E-01
5.20021161E+07	-5.88342711E-02	 2.49554778E-01
5.20143241E+07	-5.85495321E-02	 2.49621709E-01
5.20265321E+07	-5.82830125E-02	 2.49678349E-01
5.20387401E+07	-5.80064383E-02	 2.49741750E-01
5.20509482E+07	-5.77322771E-02	 2.49798470E-01
5.20631562E+07	-5.74539232E-02	 2.49861101E-01
5.20753642E+07	-5.71830553E-02	 2.49911407E-01
5.20875722E+07	-5.69004622E-02	 2.49981533E-01
5.20997803E+07	-5.66250972E-02	 2.50035718E-01
5.21119883E+07	-5.63550971E-02	 2.50097078E-01
5.21241963E+07	-5.60803870E-02	 2.50153907E-01
5.21364043E+07	-5.57985350E-02	 2.50211909E-01
5.21486124E+07	-5.55208076E-02	 2.50266854E-01
5.21608204E+07	-5.52475817E-02	 2.50321898E-01
5.21730284E+07	-5.49672310E-02	 2.50381294E-01
5.21852364E+07	-5.46921361E-02	 2.50438497E-01
5.21974445E+07	-5.44148209E-02	 2.50493710E-01
5.22096525E+07	-5.41421524E-02	 2.50548484E-01
5.22218605E+07	-5.38656168E-02	 2.50602006E-01
5.22340685E+07	-5.35910883E-02	 2.50658325E-01
5.22462766E+07	-5.33075502E-02	 2.50711315E-01
5.22584846E+07	-5.30302988E-02	 2.50776795E-01
5.22706926E+07	-5.27533623E-02	 2.50825400E-01
5.22829006E+07	-5.24818949E-02	 2.50877813E-01
5.22951087E+07	-5.22069754E-02	 2.50933024E-01
5.23073167E+07	-5.19255188E-02	 2.50983038E-01
5.23195247E+07	-5.16484193E-02	 2.51038745E-01
5.23317327E+07	-5.13676733E-02	 2.51090381E-01
5.23439408E+07	-5.10965913E-02	 2.51141529E-01
5.23561488E+07	-5.08089989E-02	 2.51194132E-01
5.23683568E+07	-5.05363779E-02	 2.51247942E-01
5.23805648E+07	-5.02657938E-02	 2.51300414E-01
5.23927728E+07	-4.99768775E-02	 2.51351383E-01
5.24049809E+07	-4.97017505E-02	 2.51403113E-01
5.24171889E+07	-4.94249350E-02	 2.51455157E-01
5.24293969E+07	-4.91550707E-02	 2.51504162E-01
5.24416049E+07	-4.88741385E-02	 2.51549665E-01
5.24538130E+07	-4.85929868E-02	 2.51610694E-01
5.24660210E+07	-4.83142489E-02	 2.51654482E-01
5.24782290E+07	-4.80378530E-02	 2.51706152E-01
5.24904370E+07	-4.77599225E-02	 2.51747970E-01
5.25026451E+07	-4.74830171E-02	 2.51794573E-01
5.25148531E+07	-4.72084697E-02	 2.51843727E-01
5.25270611E+07	-4.69319674E-02	 2.51897056E-01
5.25392691E+07	-4.66488842E-02	 2.51945808E-01
5.25514772E+07	-4.63702250E-02	 2.51990672E-01
5.25636852E+07	-4.60926735E-02	 2.52035075E-01
5.25758932E+07	-4.58106251E-02	 2.52086329E-01
5.25881012E+07	-4.55351933E-02	 2.52138330E-01
5.26003093E+07	-4.52604184E-02	 2.52175896E-01
5.26125173E+07	-4.49808614E-02	 2.52225155E-01
5.26247253E+07	-4.47046203E-02	 2.52271650E-01
5.26369333E+07	-4.44251857E-02	 2.52315994E-01
5.26491414E+07	-4.41443640E-02	 2.52356136E-01
5.26613494E+07	-4.38674629E-02	 2.52409319E-01
5.26735574E+07	-4.35843655E-02	 2.52454192E-01
5.26857654E+07	-4.33046291E-02	 2.52495450E-01
5.26979735E+07	-4.30346377E-02	 2.52540922E-01
5.27101815E+07	-4.27502562E-02	 2.52578747E-01
5.27223895E+07	-4.24742976E-02	 2.52629943E-01
5.27345975E+07	-4.21981244E-02	 2.52669898E-01
5.27468056E+07	-4.19228497E-02	 2.52713939E-01
5.27590136E+07	-4.16338811E-02	 2.52759306E-01
5.27712216E+07	-4.13633960E-02	 2.52797897E-01
5.27834296E+07	-4.10797356E-02	 2.52834681E-01
5.27956377E+07	-4.07994397E-02	 2.52887452E-01
5.28078457E+07	-4.05108597E-02	 2.52918893E-01
5.28200537E+07	-4.02386664E-02	 2.52969851E-01
5.28322617E+07	-3.99670416E-02	 2.53007094E-01
5.28444698E+07	-3.96830486E-02	 2.53042705E-01
5.28566778E+07	-3.94046534E-02	 2.53086713E-01
5.28688858E+07	-3.91170125E-02	 2.53115632E-01
5.28810938E+07	-3.88450389E-02	 2.53162962E-01
5.28933019E+07	-3.85716992E-02	 2.53202570E-01
5.29055099E+07	-3.82835525E-02	 2.53240246E-01
5.29177179E+07	-3.80027219E-02	 2.53275301E-01
5.29299259E+07	-3.77232790E-02	 2.53323976E-01
5.29421340E+07	-3.74451274E-02	 2.53361684E-01
5.29543420E+07	-3.71712743E-02	 2.53399047E-01
5.29665500E+07	-3.68859756E-02	 2.53436908E-01
5.29787580E+07	-3.66148088E-02	 2.53471366E-01
5.29909661E+07	-3.63276542E-02	 2.53501602E-01
5.30031741E+07	-3.60479436E-02	 2.53543620E-01
5.30153821E+07	-3.57727408E-02	 2.53578697E-01
5.30275901E+07	-3.54913513E-02	 2.53610548E-01
5.30397982E+07	-3.52091556E-02	 2.53648916E-01
5.30520062E+07	-3.49331398E-02	 2.53683143E-01
5.30642142E+07	-3.46546687E-02	 2.53721106E-01
5.30764222E+07	-3.43693710E-02	 2.53755431E-01
5.30886303E+07	-3.40869986E-02	 2.53789870E-01
5.31008383E+07	-3.38128451E-02	 2.53827221E-01
5.31130463E+07	-3.35325801E-02	 2.53860577E-01
5.31252543E+07	-3.32513878E-02	 2.53890454E-01
5.31374624E+07	-3.29742984E-02	 2.53927161E-01
5.31496704E+07	-3.26856211E-02	 2.53957180E-01
5.31618784E+07	-3.24040408E-02	 2.53993765E-01
5.31740864E+07	-3.21334543E-02	 2.54024700E-01
5.31862945E+07	-3.18485842E-02	 2.54054913E-01
5.31985025E+07	-3.15693357E-02	 2.54086145E-01
5.32107105E+07	-3.12856108E-02	 2.54116689E-01
5.32229185E+07	-3.10079246E-02	 2.54148341E-01
5.32351266E+07	-3.07263551E-02	 2.54183968E-01
5.32473346E+07	-3.04476784E-02	 2.54210192E-01
5.32595426E+07	-3.01648907E-02	 2.54246729E-01
5.32717506E+07	-2.98841247E-02	 2.54271547E-01
5.32839587E+07	-2.95980523E-02	 2.54305463E-01
5.32961667E+07	-2.93234699E-02	 2.54332489E-01
5.33083747E+07	-2.90434267E-02	 2.54365101E-01
5.33205827E+07	-2.87601605E-02	 2.54390876E-01
5.33327908E+07	-2.84893314E-02	 2.54417062E-01
5.33449988E+07	-2.82030004E-02	 2.54447934E-01
5.33572068E+07	-2.79220714E-02	 2.54475932E-01
5.33694148E+07	-2.76370206E-02	 2.54505818E-01
5.33816229E+07	-2.73593238E-02	 2.54527147E-01
5.33938309E+07	-2.70745708E-02	 2.54559721E-01
5.34060389E+07	-2.67925377E-02	 2.54584828E-01
5.34182469E+07	-2.65121258E-02	 2.54608651E-01
5.34304550E+07	-2.62369778E-02	 2.54636245E-01
5.34426630E+07	-2.59538819E-02	 2.54658003E-01
5.34548710E+07	-2.56753166E-02	 2.54688473E-01
5.34670790E+07	-2.53906526E-02	 2.54710416E-01
5.34792871E+07	-2.51163918E-02	 2.54740390E-01
5.34914951E+07	-2.48296015E-02	 2.54761710E-01
5.35037031E+07	-2.45481081E-02	 2.54787789E-01
5.35159111E+07	-2.42663902E-02	 2.54815086E-01
5.35281192E+07	-2.39884198E-02	 2.54838978E-01
5.35403272E+07	-2.37052168E-02	 2.54861146E-01
5.35525352E+07	-2.34181880E-02	 2.54881677E-01
5.35647432E+07	-2.31408041E-02	 2.54902359E-01
5.35769512E+07	-2.28562920E-02	 2.54925224E-01
5.35891593E+07	-2.25805389E-02	 2.54948928E-01
5.36013673E+07	-2.22955392E-02	 2.54966744E-01
5.36135753E+07	-2.20157893E-02	 2.54994280E-01
5.36257833E+07	-2.17339038E-02	 2.55011592E-01
5.36379914E+07	-2.14507363E-02	 2.55033699E-01
5.36501994E+07	-2.11694133E-02	 2.55060804E-01
5.36624074E+07	-2.08897634E-02	 2.55081121E-01
5.36746154E+07	-2.06066194E-02	 2.55099285E-01
5.36868235E+07	-2.03270828E-02	 2.55119987E-01
5.36990315E+07	-2.00450011E-02	 2.55136357E-01
5.37112395E+07	-1.97604286E-02	 2.55151811E-01
5.37234475E+07	-1.94827750E-02	 2.55174696E-01
5.37356556E+07	-1.91968406E-02	 2.55189509E-01
5.37478636E+07	-1.89216599E-02	 2.55212649E-01
5.37600716E+07	-1.86396330E-02	 2.55230127E-01
5.37722796E+07	-1.83595634E-02	 2.55247753E-01
5.37844877E+07	-1.80780797E-02	 2.55267213E-01
5.37966957E+07	-1.77920439E-02	 2.55281285E-01
5.38089037E+07	-1.75160265E-02	 2.55301808E-01
5.38211117E+07	-1.72259411E-02	 2.55320508E-01
5.38333198E+07	-1.69490302E-02	 2.55331949E-01
5.38455278E+07	-1.66662645E-02	 2.55352072E-01
5.38577358E+07	-1.63832529E-02	 2.55365739E-01
5.38699438E+07	-1.61060416E-02	 2.55378996E-01
5.38821519E+07	-1.58278053E-02	 2.55395244E-01
5.38943599E+07	-1.55404671E-02	 2.55410606E-01
5.39065679E+07	-1.52623757E-02	 2.55421974E-01
5.39187759E+07	-1.49810097E-02	 2.55436311E-01
5.39309840E+07	-1.46980648E-02	 2.55452103E-01
5.39431920E+07	-1.44103013E-02	 2.55466146E-01
5.39554000E+07	-1.41291383E-02	 2.55476893E-01
5.39676080E+07	-1.38487098E-02	 2.55493048E-01
5.39798161E+07	-1.35734623E-02	 2.55502502E-01
5.39920241E+07	-1.32830822E-02	 2.55512921E-01
5.40042321E+07	-1.29974790E-02	 2.55520852E-01
5.40164401E+07	-1.27217277E-02	 2.55536641E-01
5.40286482E+07	-1.24384272E-02	 2.55551666E-01
5.40408562E+07	-1.21605180E-02	 2.55564929E-01
5.40530642E+07	-1.18816824E-02	 2.55566756E-01
5.40652722E+07	-1.15923145E-02	 2.55581951E-01
5.40774803E+07	-1.13121136E-02	 2.55598244E-01
5.40896883E+07	-1.10254910E-02	 2.55598042E-01
5.41018963E+07	-1.07524055E-02	 2.55616761E-01
5.41141043E+07	-1.04702154E-02	 2.55621479E-01
5.41263124E+07	-1.01881913E-02	 2.55630997E-01
5.41385204E+07	-9.90121198E-03	 2.55637618E-01
5.41507284E+07	-9.62902578E-03	 2.55654319E-01
5.41629364E+07	-9.34188280E-03	 2.55658196E-01
5.41751445E+07	-9.05686284E-03	 2.55663940E-01
5.41873525E+07	-8.78177246E-03	 2.55672548E-01
5.41995605E+07	-8.49541958E-03	 2.55681050E-01
5.42117685E+07	-8.21032017E-03	 2.55684762E-01
5.42239766E+07	-7.92903993E-03	 2.55692408E-01
5.42361846E+07	-7.65480385E-03	 2.55699136E-01
5.42483926E+07	-7.36830159E-03	 2.55706416E-01
5.42606006E+07	-7.08702359E-03	 2.55710721E-01
5.42728087E+07	-6.79997700E-03	 2.55714314E-01
5.42850167E+07	-6.51808344E-03	 2.55726438E-01
5.42972247E+07	-6.24216011E-03	 2.55727486E-01
5.43094327E+07	-5.96037640E-03	 2.55730904E-01
5.43216408E+07	-5.67091105E-03	 2.55733784E-01
5.43338488E+07	-5.39285769E-03	 2.55737206E-01
5.43460568E+07	-5.11074073E-03	 2.55742344E-01
5.43582648E+07	-4.83279222E-03	 2.55743488E-01
5.43704729E+07	-4.55028872E-03	 2.55748693E-01
5.43826809E+07	-4.25867088E-03	 2.55744588E-01
5.43948889E+07	-3.98698746E-03	 2.55745150E-01
5.44070969E+07	-3.70488644E-03	 2.55753504E-01
5.44193050E+07	-3.42709555E-03	 2.55754805E-01
5.44315130E+07	-3.13754589E-03	 2.55761059E-01
5.44437210E+07	-2.85888662E-03	 2.55761301E-01
5.44559290E+07	-2.57118434E-03	 2.55763525E-01
5.44681371E+07	-2.29547753E-03	 2.55756997E-01
5.44803451E+07	-2.01830703E-03	 2.55764890E-01
5.44925531E+07	-1.73422126E-03	 2.55756346E-01
5.45047611E+07	-1.44824494E-03	 2.55762767E-01
5.45169692E+07	-1.16111352E-03	 2.55758491E-01
5.45291772E+07	-8.84298115E-04	 2.55753454E-01
5.45413852E+07	-6.01551388E-04	 2.55759957E-01
5.45535932E+07	-3.21331892E-04	 2.55757697E-01
5.45658013E+07	-3.62852714E-05	 2.55754773E-01
5.45780093E+07	 2.40920731E-04	 2.55752024E-01
5.45902173E+07	 5.28359269E-04	 2.55747067E-01
5.46024253E+07	 8.08857831E-04	 2.55747678E-01
5.46146334E+07	 1.09378049E-03	 2.55746853E-01
5.46268414E+07	 1.37634213E-03	 2.55736117E-01
5.46390494E+07	 1.64925139E-03	 2.55733985E-01
5.46512574E+07	 1.93495292E-03	 2.55732780E-01
5.46634655E+07	 2.22323154E-03	 2.55721493E-01
5.46756735E+07	 2.49820361E-03	 2.55726403E-01
5.46878815E+07	 2.78153994E-03	 2.55713336E-01
5.47000895E+07	 3.05964597E-03	 2.55717349E-01
5.47122976E+07	 3.34733185E-03	 2.55706290E-01
5.47245056E+07	 3.63243489E-03	 2.55702048E-01
5.47367136E+07	 3.90703653E-03	 2.55697951E-01
5.47489216E+07	 4.19467616E-03	 2.55691735E-01
5.47611296E+07	 4.47126277E-03	 2.55683786E-01
5.47733377E+07	 4.75097791E-03	 2.55672119E-01
5.47855457E+07	 5.03401056E-03	 2.55671240E-01
5.47977537E+07	 5.31789289E-03	 2.55659431E-01
5.48099617E+07	 5.60064377E-03	 2.55652538E-01
5.48221698E+07	 5.87504391E-03	 2.55642889E-01
5.48343778E+07	 6.16540141E-03	 2.55631705E-01
5.48465858E+07	 6.43980371E-03	 2.55629198E-01
5.48587938E+07	 6.73272681E-03	 2.55616520E-01
5.48710019E+07	 7.00982382E-03	 2.55610614E-01
5.48832099E+07	 7.29070687E-03	 2.55603894E-01
5.48954179E+07	 7.57118871E-03	 2.55592935E-01
5.49076259E+07	 7.85860946E-03	 2.55580707E-01
5.49198340E+07	 8.13780655E-03	 2.55570412E-01
5.49320420E+07	 8.41845757E-03	 2.55559684E-01
5.49442500E+07	 8.69918211E-03	 2.55543039E-01
5.49564580E+07	 8.98101917E-03	 2.55538735E-01
5.49686661E+07	 9.25912315E-03	 2.55524508E-01
5.49808741E+07	 9.54486324E-03	 2.55513270E-01
5.49930821E+07	 9.82742443E-03	 2.55500217E-01
5.50052901E+07	 1.01062540E-02	 2.55484389E-01
5.50174982E+07	 1.03890549E-02	 2.55475131E-01
5.50297062E+07	 1.06734351E-02	 2.55457584E-01
5.50419142E+07	 1.09539562E-02	 2.55452112E-01
5.50541222E+07	 1.12402399E-02	 2.55427067E-01
5.50663303E+07	 1.15170079E-02	 2.55417241E-01
5.50785383E+07	 1.18055012E-02	 2.55403086E-01
5.50907463E+07	 1.20795843E-02	 2.55386469E-01
5.51029543E+07	 1.23629860E-02	 2.55367666E-01
5.51151624E+07	 1.26513615E-02	 2.55357560E-01
5.51273704E+07	 1.29348512E-02	 2.55344039E-01
