! COPPER MOUNTAIN TECHNOLOGIES, PLANAR TR1300/1, 00071119, 20.2.2/1.0
! Date: 11/21/2023 7:14:17 PM
! Data: Format [Calibration Info]
! Freq          	S11: Re/Im F1                  
# HZ S RI R 50
5.00000000E+07	 4.05824733E-01	 4.79731715E-01
5.00122080E+07	 4.06404968E-01	 4.78284009E-01
5.00244160E+07	 4.07002951E-01	 4.76806021E-01
5.00366241E+07	 4.07583658E-01	 4.75334914E-01
5.00488321E+07	 4.08161082E-01	 4.73857017E-01
5.00610401E+07	 4.08748234E-01	 4.72362732E-01
5.00732481E+07	 4.09312522E-01	 4.70885505E-01
5.00854562E+07	 4.09882661E-01	 4.69412438E-01
5.00976642E+07	 4.10443315E-01	 4.67929729E-01
5.01098722E+07	 4.10984123E-01	 4.66451062E-01
5.01220802E+07	 4.11526046E-01	 4.64963770E-01
5.01342883E+07	 4.12088792E-01	 4.63476328E-01
5.01464963E+07	 4.12622232E-01	 4.61978987E-01
5.01587043E+07	 4.13146743E-01	 4.60509994E-01
5.01709123E+07	 4.13681840E-01	 4.59014857E-01
5.01831204E+07	 4.14201911E-01	 4.57522802E-01
5.01953284E+07	 4.14717924E-01	 4.56021673E-01
5.02075364E+07	 4.15212246E-01	 4.54534405E-01
5.02197444E+07	 4.15729253E-01	 4.53038195E-01
5.02319525E+07	 4.16225840E-01	 4.51540065E-01
5.02441605E+07	 4.16716049E-01	 4.50047441E-01
5.02563685E+07	 4.17206189E-01	 4.48548072E-01
5.02685765E+07	 4.17671187E-01	 4.47044742E-01
5.02807846E+07	 4.18159155E-01	 4.45551873E-01
5.02929926E+07	 4.18635095E-01	 4.44044971E-01
5.03052006E+07	 4.19099986E-01	 4.42542211E-01
5.03174086E+07	 4.19561311E-01	 4.41036823E-01
5.03296167E+07	 4.20018698E-01	 4.39537761E-01
5.03418247E+07	 4.20459162E-01	 4.38031458E-01
5.03540327E+07	 4.20899843E-01	 4.36523230E-01
5.03662407E+07	 4.21334428E-01	 4.35026358E-01
5.03784488E+07	 4.21765133E-01	 4.33522825E-01
5.03906568E+07	 4.22170129E-01	 4.32009771E-01
5.04028648E+07	 4.22612190E-01	 4.30502265E-01
5.04150728E+07	 4.23025973E-01	 4.28992092E-01
5.04272809E+07	 4.23433588E-01	 4.27477493E-01
5.04394889E+07	 4.23820498E-01	 4.25968784E-01
5.04516969E+07	 4.24226859E-01	 4.24460887E-01
5.04639049E+07	 4.24612050E-01	 4.22950482E-01
5.04761130E+07	 4.25014349E-01	 4.21438269E-01
5.04883210E+07	 4.25370873E-01	 4.19920340E-01
5.05005290E+07	 4.25764972E-01	 4.18404881E-01
5.05127370E+07	 4.26123833E-01	 4.16886241E-01
5.05249451E+07	 4.26481116E-01	 4.15377317E-01
5.05371531E+07	 4.26849159E-01	 4.13865795E-01
5.05493611E+07	 4.27193567E-01	 4.12343592E-01
5.05615691E+07	 4.27539859E-01	 4.10828853E-01
5.05737772E+07	 4.27870633E-01	 4.09311993E-01
5.05859852E+07	 4.28209838E-01	 4.07803244E-01
5.05981932E+07	 4.28536163E-01	 4.06276100E-01
5.06104012E+07	 4.28859160E-01	 4.04757632E-01
5.06226093E+07	 4.29181042E-01	 4.03236586E-01
5.06348173E+07	 4.29484975E-01	 4.01722401E-01
5.06470253E+07	 4.29782080E-01	 4.00199846E-01
5.06592333E+07	 4.30083311E-01	 3.98676618E-01
5.06714414E+07	 4.30371834E-01	 3.97160671E-01
5.06836494E+07	 4.30670298E-01	 3.95639690E-01
5.06958574E+07	 4.30938211E-01	 3.94126570E-01
5.07080654E+07	 4.31220306E-01	 3.92607270E-01
5.07202735E+07	 4.31487855E-01	 3.91082881E-01
5.07324815E+07	 4.31741887E-01	 3.89554923E-01
5.07446895E+07	 4.32013930E-01	 3.88037030E-01
5.07568975E+07	 4.32255411E-01	 3.86512174E-01
5.07691056E+07	 4.32509804E-01	 3.84995675E-01
5.07813136E+07	 4.32750956E-01	 3.83479668E-01
5.07935216E+07	 4.32986437E-01	 3.81965647E-01
5.08057296E+07	 4.33208614E-01	 3.80439273E-01
5.08179377E+07	 4.33432176E-01	 3.78913828E-01
5.08301457E+07	 4.33651613E-01	 3.77405937E-01
5.08423537E+07	 4.33859609E-01	 3.75883026E-01
5.08545617E+07	 4.34060565E-01	 3.74352073E-01
5.08667698E+07	 4.34264166E-01	 3.72839453E-01
5.08789778E+07	 4.34459771E-01	 3.71314859E-01
5.08911858E+07	 4.34643513E-01	 3.69790767E-01
5.09033938E+07	 4.34817980E-01	 3.68284650E-01
5.09156019E+07	 4.34999675E-01	 3.66755621E-01
5.09278099E+07	 4.35153150E-01	 3.65230879E-01
5.09400179E+07	 4.35332946E-01	 3.63718120E-01
5.09522259E+07	 4.35497642E-01	 3.62210808E-01
5.09644340E+07	 4.35656550E-01	 3.60686207E-01
5.09766420E+07	 4.35789001E-01	 3.59168113E-01
5.09888500E+07	 4.35935736E-01	 3.57652285E-01
5.10010580E+07	 4.36061295E-01	 3.56123765E-01
5.10132661E+07	 4.36196986E-01	 3.54617598E-01
5.10254741E+07	 4.36324427E-01	 3.53094805E-01
5.10376821E+07	 4.36433711E-01	 3.51587386E-01
5.10498901E+07	 4.36549835E-01	 3.50056513E-01
5.10620982E+07	 4.36653349E-01	 3.48566689E-01
5.10743062E+07	 4.36757714E-01	 3.47040566E-01
5.10865142E+07	 4.36837435E-01	 3.45542365E-01
5.10987222E+07	 4.36930803E-01	 3.44009100E-01
5.11109303E+07	 4.37015081E-01	 3.42512804E-01
5.11231383E+07	 4.37091400E-01	 3.40999295E-01
5.11353463E+07	 4.37172557E-01	 3.39487476E-01
5.11475543E+07	 4.37233749E-01	 3.37987117E-01
5.11597624E+07	 4.37289451E-01	 3.36462770E-01
5.11719704E+07	 4.37344267E-01	 3.34966322E-01
5.11841784E+07	 4.37390600E-01	 3.33443273E-01
5.11963864E+07	 4.37435007E-01	 3.31959323E-01
5.12085944E+07	 4.37462149E-01	 3.30446903E-01
5.12208025E+07	 4.37495149E-01	 3.28946308E-01
5.12330105E+07	 4.37520013E-01	 3.27446127E-01
5.12452185E+07	 4.37537673E-01	 3.25933842E-01
5.12574265E+07	 4.37554823E-01	 3.24442013E-01
5.12696346E+07	 4.37558970E-01	 3.22929839E-01
5.12818426E+07	 4.37559209E-01	 3.21433413E-01
5.12940506E+07	 4.37555000E-01	 3.19933212E-01
5.13062586E+07	 4.37546522E-01	 3.18440273E-01
5.13184667E+07	 4.37525428E-01	 3.16946328E-01
5.13306747E+07	 4.37510194E-01	 3.15448701E-01
5.13428827E+07	 4.37483922E-01	 3.13958211E-01
5.13550907E+07	 4.37445344E-01	 3.12468246E-01
5.13672988E+07	 4.37404474E-01	 3.10977015E-01
5.13795068E+07	 4.37360651E-01	 3.09494497E-01
5.13917148E+07	 4.37308812E-01	 3.07998709E-01
5.14039228E+07	 4.37243903E-01	 3.06513256E-01
5.14161309E+07	 4.37184683E-01	 3.05032070E-01
5.14283389E+07	 4.37129657E-01	 3.03545635E-01
5.14405469E+07	 4.37045793E-01	 3.02057699E-01
5.14527549E+07	 4.36966873E-01	 3.00581860E-01
5.14649630E+07	 4.36883917E-01	 2.99103871E-01
5.14771710E+07	 4.36801072E-01	 2.97614000E-01
5.14893790E+07	 4.36696442E-01	 2.96140288E-01
5.15015870E+07	 4.36589843E-01	 2.94677876E-01
5.15137951E+07	 4.36483254E-01	 2.93201447E-01
5.15260031E+07	 4.36368267E-01	 2.91724302E-01
5.15382111E+07	 4.36254482E-01	 2.90255764E-01
5.15504191E+07	 4.36126925E-01	 2.88785822E-01
5.15626272E+07	 4.35992399E-01	 2.87322819E-01
5.15748352E+07	 4.35852080E-01	 2.85848577E-01
5.15870432E+07	 4.35721421E-01	 2.84385002E-01
5.15992512E+07	 4.35569964E-01	 2.82929371E-01
5.16114593E+07	 4.35424767E-01	 2.81466949E-01
5.16236673E+07	 4.35252962E-01	 2.80006827E-01
5.16358753E+07	 4.35091890E-01	 2.78546225E-01
5.16480833E+07	 4.34922015E-01	 2.77098760E-01
5.16602914E+07	 4.34750655E-01	 2.75642952E-01
5.16724994E+07	 4.34561604E-01	 2.74195842E-01
5.16847074E+07	 4.34372519E-01	 2.72744015E-01
5.16969154E+07	 4.34183409E-01	 2.71303773E-01
5.17091235E+07	 4.33992060E-01	 2.69854153E-01
5.17213315E+07	 4.33784954E-01	 2.68411382E-01
5.17335395E+07	 4.33578823E-01	 2.66963555E-01
5.17457475E+07	 4.33352483E-01	 2.65528035E-01
5.17579556E+07	 4.33135630E-01	 2.64099304E-01
5.17701636E+07	 4.32910720E-01	 2.62660749E-01
5.17823716E+07	 4.32685699E-01	 2.61220498E-01
5.17945796E+07	 4.32448126E-01	 2.59798063E-01
5.18067877E+07	 4.32201235E-01	 2.58370193E-01
5.18189957E+07	 4.31955519E-01	 2.56948895E-01
5.18312037E+07	 4.31709439E-01	 2.55519165E-01
5.18434117E+07	 4.31446075E-01	 2.54091583E-01
5.18556198E+07	 4.31176124E-01	 2.52678489E-01
5.18678278E+07	 4.30916637E-01	 2.51261532E-01
5.18800358E+07	 4.30637455E-01	 2.49842908E-01
5.18922438E+07	 4.30354786E-01	 2.48434498E-01
5.19044519E+07	 4.30075417E-01	 2.47015760E-01
5.19166599E+07	 4.29783426E-01	 2.45619589E-01
5.19288679E+07	 4.29482833E-01	 2.44206303E-01
5.19410759E+07	 4.29186857E-01	 2.42812365E-01
5.19532840E+07	 4.28879132E-01	 2.41413948E-01
5.19654920E+07	 4.28564009E-01	 2.40005334E-01
5.19777000E+07	 4.28247892E-01	 2.38613668E-01
5.19899080E+07	 4.27929995E-01	 2.37213883E-01
5.20021161E+07	 4.27597314E-01	 2.35822264E-01
5.20143241E+07	 4.27261528E-01	 2.34447645E-01
5.20265321E+07	 4.26921195E-01	 2.33060290E-01
5.20387401E+07	 4.26576227E-01	 2.31674951E-01
5.20509482E+07	 4.26225769E-01	 2.30288599E-01
5.20631562E+07	 4.25867874E-01	 2.28921178E-01
5.20753642E+07	 4.25506825E-01	 2.27553200E-01
5.20875722E+07	 4.25140655E-01	 2.26172802E-01
5.20997803E+07	 4.24771270E-01	 2.24809399E-01
5.21119883E+07	 4.24394083E-01	 2.23442448E-01
5.21241963E+07	 4.24018626E-01	 2.22075861E-01
5.21364043E+07	 4.23627978E-01	 2.20718448E-01
5.21486124E+07	 4.23249026E-01	 2.19354879E-01
5.21608204E+07	 4.22840477E-01	 2.18007027E-01
5.21730284E+07	 4.22443342E-01	 2.16650794E-01
5.21852364E+07	 4.22034318E-01	 2.15304644E-01
5.21974445E+07	 4.21624821E-01	 2.13956936E-01
5.22096525E+07	 4.21205071E-01	 2.12619500E-01
5.22218605E+07	 4.20785251E-01	 2.11274252E-01
5.22340685E+07	 4.20351903E-01	 2.09942530E-01
5.22462766E+07	 4.19923804E-01	 2.08604091E-01
5.22584846E+07	 4.19479804E-01	 2.07278148E-01
5.22706926E+07	 4.19032949E-01	 2.05940588E-01
5.22829006E+07	 4.18587252E-01	 2.04617714E-01
5.22951087E+07	 4.18143843E-01	 2.03308062E-01
5.23073167E+07	 4.17677341E-01	 2.01981552E-01
5.23195247E+07	 4.17223469E-01	 2.00677398E-01
5.23317327E+07	 4.16749821E-01	 1.99356848E-01
5.23439408E+07	 4.16280430E-01	 1.98045146E-01
5.23561488E+07	 4.15800440E-01	 1.96753861E-01
5.23683568E+07	 4.15312664E-01	 1.95441343E-01
5.23805648E+07	 4.14825332E-01	 1.94141348E-01
5.23927728E+07	 4.14336653E-01	 1.92853783E-01
5.24049809E+07	 4.13846292E-01	 1.91564077E-01
5.24171889E+07	 4.13335670E-01	 1.90274881E-01
5.24293969E+07	 4.12837474E-01	 1.88983327E-01
5.24416049E+07	 4.12317646E-01	 1.87702076E-01
5.24538130E+07	 4.11809006E-01	 1.86418738E-01
5.24660210E+07	 4.11292668E-01	 1.85146167E-01
5.24782290E+07	 4.10757425E-01	 1.83880120E-01
5.24904370E+07	 4.10229102E-01	 1.82607178E-01
5.25026451E+07	 4.09693517E-01	 1.81341864E-01
5.25148531E+07	 4.09153007E-01	 1.80087186E-01
5.25270611E+07	 4.08609767E-01	 1.78830644E-01
5.25392691E+07	 4.08062235E-01	 1.77572695E-01
5.25514772E+07	 4.07509689E-01	 1.76323142E-01
5.25636852E+07	 4.06950281E-01	 1.75076800E-01
5.25758932E+07	 4.06385188E-01	 1.73831125E-01
5.25881012E+07	 4.05808762E-01	 1.72590829E-01
5.26003093E+07	 4.05244611E-01	 1.71361318E-01
5.26125173E+07	 4.04659128E-01	 1.70130318E-01
5.26247253E+07	 4.04076345E-01	 1.68898434E-01
5.26369333E+07	 4.03491559E-01	 1.67677833E-01
5.26491414E+07	 4.02901963E-01	 1.66449173E-01
5.26613494E+07	 4.02303166E-01	 1.65239417E-01
5.26735574E+07	 4.01705272E-01	 1.64034264E-01
5.26857654E+07	 4.01104441E-01	 1.62811800E-01
5.26979735E+07	 4.00496520E-01	 1.61602694E-01
5.27101815E+07	 3.99890088E-01	 1.60414321E-01
5.27223895E+07	 3.99269915E-01	 1.59218611E-01
5.27345975E+07	 3.98642678E-01	 1.58021765E-01
5.27468056E+07	 3.98017536E-01	 1.56826195E-01
5.27590136E+07	 3.97388344E-01	 1.55646840E-01
5.27712216E+07	 3.96755795E-01	 1.54466486E-01
5.27834296E+07	 3.96110385E-01	 1.53289920E-01
5.27956377E+07	 3.95464853E-01	 1.52114145E-01
5.28078457E+07	 3.94829877E-01	 1.50949688E-01
5.28200537E+07	 3.94168958E-01	 1.49780284E-01
5.28322617E+07	 3.93519814E-01	 1.48621593E-01
5.28444698E+07	 3.92849763E-01	 1.47464505E-01
5.28566778E+07	 3.92192208E-01	 1.46307375E-01
5.28688858E+07	 3.91509964E-01	 1.45162469E-01
5.28810938E+07	 3.90849130E-01	 1.44016874E-01
5.28933019E+07	 3.90174806E-01	 1.42871111E-01
5.29055099E+07	 3.89489721E-01	 1.41737998E-01
5.29177179E+07	 3.88801752E-01	 1.40607958E-01
5.29299259E+07	 3.88114622E-01	 1.39479988E-01
5.29421340E+07	 3.87427467E-01	 1.38348645E-01
5.29543420E+07	 3.86720311E-01	 1.37236087E-01
5.29665500E+07	 3.86021362E-01	 1.36120259E-01
5.29787580E+07	 3.85311199E-01	 1.35006408E-01
5.29909661E+07	 3.84603352E-01	 1.33904013E-01
5.30031741E+07	 3.83887382E-01	 1.32801155E-01
5.30153821E+07	 3.83174315E-01	 1.31706094E-01
5.30275901E+07	 3.82447517E-01	 1.30609370E-01
5.30397982E+07	 3.81728522E-01	 1.29522181E-01
5.30520062E+07	 3.80993092E-01	 1.28439860E-01
5.30642142E+07	 3.80266061E-01	 1.27353609E-01
5.30764222E+07	 3.79527162E-01	 1.26276825E-01
5.30886303E+07	 3.78787164E-01	 1.25201122E-01
5.31008383E+07	 3.78044090E-01	 1.24143383E-01
5.31130463E+07	 3.77292863E-01	 1.23080022E-01
5.31252543E+07	 3.76548067E-01	 1.22021953E-01
5.31374624E+07	 3.75787741E-01	 1.20968811E-01
5.31496704E+07	 3.75023813E-01	 1.19921128E-01
5.31618784E+07	 3.74264419E-01	 1.18882186E-01
5.31740864E+07	 3.73497070E-01	 1.17831926E-01
5.31862945E+07	 3.72725976E-01	 1.16801099E-01
5.31985025E+07	 3.71952782E-01	 1.15768639E-01
5.32107105E+07	 3.71183870E-01	 1.14745717E-01
5.32229185E+07	 3.70393548E-01	 1.13728340E-01
5.32351266E+07	 3.69606377E-01	 1.12706366E-01
5.32473346E+07	 3.68826444E-01	 1.11695526E-01
5.32595426E+07	 3.68035547E-01	 1.10692760E-01
5.32717506E+07	 3.67234565E-01	 1.09692198E-01
5.32839587E+07	 3.66437725E-01	 1.08688660E-01
5.32961667E+07	 3.65632332E-01	 1.07697282E-01
5.33083747E+07	 3.64831834E-01	 1.06708994E-01
5.33205827E+07	 3.64021334E-01	 1.05723757E-01
5.33327908E+07	 3.63216476E-01	 1.04749489E-01
5.33449988E+07	 3.62399882E-01	 1.03769648E-01
5.33572068E+07	 3.61578703E-01	 1.02807202E-01
5.33694148E+07	 3.60756291E-01	 1.01845303E-01
5.33816229E+07	 3.59934996E-01	 1.00877683E-01
5.33938309E+07	 3.59103177E-01	 9.99244683E-02
5.34060389E+07	 3.58271008E-01	 9.89761400E-02
5.34182469E+07	 3.57442222E-01	 9.80362750E-02
5.34304550E+07	 3.56599105E-01	 9.70940866E-02
5.34426630E+07	 3.55759644E-01	 9.61588428E-02
5.34548710E+07	 3.54911144E-01	 9.52324160E-02
5.34670790E+07	 3.54062409E-01	 9.43048672E-02
5.34792871E+07	 3.53217919E-01	 9.33844328E-02
5.34914951E+07	 3.52359746E-01	 9.24649252E-02
5.35037031E+07	 3.51505037E-01	 9.15580270E-02
5.35159111E+07	 3.50650481E-01	 9.06559917E-02
5.35281192E+07	 3.49782707E-01	 8.97581208E-02
5.35403272E+07	 3.48923884E-01	 8.88568351E-02
5.35525352E+07	 3.48054616E-01	 8.79686273E-02
5.35647432E+07	 3.47180755E-01	 8.70812462E-02
5.35769512E+07	 3.46305236E-01	 8.61988417E-02
5.35891593E+07	 3.45425558E-01	 8.53294515E-02
5.36013673E+07	 3.44548436E-01	 8.44525436E-02
5.36135753E+07	 3.43663556E-01	 8.35914993E-02
5.36257833E+07	 3.42780459E-01	 8.27295915E-02
5.36379914E+07	 3.41902121E-01	 8.18683893E-02
5.36501994E+07	 3.41005233E-01	 8.10235905E-02
5.36624074E+07	 3.40106029E-01	 8.01796184E-02
5.36746154E+07	 3.39218240E-01	 7.93395548E-02
5.36868235E+07	 3.38318604E-01	 7.85041865E-02
5.36990315E+07	 3.37421872E-01	 7.76786699E-02
5.37112395E+07	 3.36521552E-01	 7.68520503E-02
5.37234475E+07	 3.35608631E-01	 7.60362237E-02
5.37356556E+07	 3.34700308E-01	 7.52204746E-02
5.37478636E+07	 3.33782239E-01	 7.44188810E-02
5.37600716E+07	 3.32871495E-01	 7.36144126E-02
5.37722796E+07	 3.31957353E-01	 7.28140297E-02
5.37844877E+07	 3.31032614E-01	 7.20160554E-02
5.37966957E+07	 3.30112222E-01	 7.12362049E-02
5.38089037E+07	 3.29192749E-01	 7.04512983E-02
5.38211117E+07	 3.28268847E-01	 6.96689597E-02
5.38333198E+07	 3.27339148E-01	 6.88984688E-02
5.38455278E+07	 3.26405639E-01	 6.81375799E-02
5.38577358E+07	 3.25473060E-01	 6.73815619E-02
5.38699438E+07	 3.24532859E-01	 6.66219770E-02
5.38821519E+07	 3.23602687E-01	 6.58699576E-02
5.38943599E+07	 3.22655819E-01	 6.51228671E-02
5.39065679E+07	 3.21713834E-01	 6.43846773E-02
5.39187759E+07	 3.20774488E-01	 6.36536545E-02
5.39309840E+07	 3.19824112E-01	 6.29254060E-02
5.39431920E+07	 3.18884269E-01	 6.21983204E-02
5.39554000E+07	 3.17928862E-01	 6.14865459E-02
5.39676080E+07	 3.16981166E-01	 6.07645124E-02
5.39798161E+07	 3.16020856E-01	 6.00583098E-02
5.39920241E+07	 3.15067757E-01	 5.93579910E-02
5.40042321E+07	 3.14107998E-01	 5.86634604E-02
5.40164401E+07	 3.13149890E-01	 5.79697742E-02
5.40286482E+07	 3.12181990E-01	 5.72850372E-02
5.40408562E+07	 3.11217115E-01	 5.66012189E-02
5.40530642E+07	 3.10256407E-01	 5.59269729E-02
5.40652722E+07	 3.09280930E-01	 5.52529958E-02
5.40774803E+07	 3.08318481E-01	 5.45926736E-02
5.40896883E+07	 3.07345535E-01	 5.39384178E-02
5.41018963E+07	 3.06367488E-01	 5.32819372E-02
5.41141043E+07	 3.05393378E-01	 5.26311320E-02
5.41263124E+07	 3.04417553E-01	 5.19972941E-02
5.41385204E+07	 3.03435936E-01	 5.13566547E-02
5.41507284E+07	 3.02458904E-01	 5.07256183E-02
5.41629364E+07	 3.01480640E-01	 5.01001261E-02
5.41751445E+07	 3.00494350E-01	 4.94795351E-02
5.41873525E+07	 2.99510370E-01	 4.88589744E-02
5.41995605E+07	 2.98521001E-01	 4.82584171E-02
5.42117685E+07	 2.97532568E-01	 4.76503769E-02
5.42239766E+07	 2.96541793E-01	 4.70502170E-02
5.42361846E+07	 2.95548137E-01	 4.64583925E-02
5.42483926E+07	 2.94557323E-01	 4.58698170E-02
5.42606006E+07	 2.93563901E-01	 4.52932740E-02
5.42728087E+07	 2.92569470E-01	 4.47182751E-02
5.42850167E+07	 2.91567480E-01	 4.41493888E-02
5.42972247E+07	 2.90568991E-01	 4.35799905E-02
5.43094327E+07	 2.89572547E-01	 4.30187080E-02
5.43216408E+07	 2.88578867E-01	 4.24625841E-02
5.43338488E+07	 2.87570147E-01	 4.19174800E-02
5.43460568E+07	 2.86565000E-01	 4.13742311E-02
5.43582648E+07	 2.85558667E-01	 4.08358515E-02
5.43704729E+07	 2.84554123E-01	 4.03031794E-02
5.43826809E+07	 2.83543388E-01	 3.97782576E-02
5.43948889E+07	 2.82541831E-01	 3.92574767E-02
5.44070969E+07	 2.81531685E-01	 3.87381824E-02
5.44193050E+07	 2.80520819E-01	 3.82269339E-02
5.44315130E+07	 2.79509593E-01	 3.77341590E-02
5.44437210E+07	 2.78501098E-01	 3.72303170E-02
5.44559290E+07	 2.77486311E-01	 3.67377989E-02
5.44681371E+07	 2.76466103E-01	 3.62516325E-02
5.44803451E+07	 2.75455177E-01	 3.57704091E-02
5.44925531E+07	 2.74438895E-01	 3.53012264E-02
5.45047611E+07	 2.73419873E-01	 3.48250235E-02
5.45169692E+07	 2.72405666E-01	 3.43617139E-02
5.45291772E+07	 2.71384019E-01	 3.39039313E-02
5.45413852E+07	 2.70363155E-01	 3.34452431E-02
5.45535932E+07	 2.69346649E-01	 3.30058563E-02
5.45658013E+07	 2.68319997E-01	 3.25611420E-02
5.45780093E+07	 2.67298940E-01	 3.21286470E-02
5.45902173E+07	 2.66278952E-01	 3.16982022E-02
5.46024253E+07	 2.65251046E-01	 3.12775703E-02
5.46146334E+07	 2.64226052E-01	 3.08607021E-02
5.46268414E+07	 2.63204706E-01	 3.04420740E-02
5.46390494E+07	 2.62178984E-01	 3.00345601E-02
5.46512574E+07	 2.61151950E-01	 2.96316776E-02
5.46634655E+07	 2.60127521E-01	 2.92359304E-02
5.46756735E+07	 2.59101806E-01	 2.88471511E-02
5.46878815E+07	 2.58072744E-01	 2.84625196E-02
5.47000895E+07	 2.57038716E-01	 2.80829779E-02
5.47122976E+07	 2.56020527E-01	 2.77095666E-02
5.47245056E+07	 2.54987902E-01	 2.73385560E-02
5.47367136E+07	 2.53959084E-01	 2.69772049E-02
5.47489216E+07	 2.52929667E-01	 2.66203209E-02
5.47611296E+07	 2.51891549E-01	 2.62686879E-02
5.47733377E+07	 2.50873253E-01	 2.59270114E-02
5.47855457E+07	 2.49839050E-01	 2.55939967E-02
5.47977537E+07	 2.48808729E-01	 2.52518873E-02
5.48099617E+07	 2.47775815E-01	 2.49250877E-02
5.48221698E+07	 2.46742196E-01	 2.46080708E-02
5.48343778E+07	 2.45713579E-01	 2.42832016E-02
5.48465858E+07	 2.44681979E-01	 2.39744355E-02
5.48587938E+07	 2.43650825E-01	 2.36680518E-02
5.48710019E+07	 2.42619747E-01	 2.33736507E-02
5.48832099E+07	 2.41591372E-01	 2.30768245E-02
5.48954179E+07	 2.40557626E-01	 2.27938384E-02
5.49076259E+07	 2.39524351E-01	 2.25046473E-02
5.49198340E+07	 2.38488157E-01	 2.22316028E-02
5.49320420E+07	 2.37464864E-01	 2.19609980E-02
5.49442500E+07	 2.36433356E-01	 2.16961989E-02
5.49564580E+07	 2.35401069E-01	 2.14340851E-02
5.49686661E+07	 2.34365905E-01	 2.11823341E-02
5.49808741E+07	 2.33336201E-01	 2.09355644E-02
5.49930821E+07	 2.32306507E-01	 2.06926967E-02
5.50052901E+07	 2.31277468E-01	 2.04519820E-02
5.50174982E+07	 2.30250023E-01	 2.02227516E-02
5.50297062E+07	 2.29217432E-01	 1.99940602E-02
5.50419142E+07	 2.28182382E-01	 1.97760550E-02
5.50541222E+07	 2.27155924E-01	 1.95653193E-02
5.50663303E+07	 2.26126811E-01	 1.93492602E-02
5.50785383E+07	 2.25103921E-01	 1.91529642E-02
5.50907463E+07	 2.24076266E-01	 1.89551259E-02
5.51029543E+07	 2.23043380E-01	 1.87694111E-02
5.51151624E+07	 2.22017791E-01	 1.85775775E-02
5.51273704E+07	 2.20992700E-01	 1.83974911E-02
