! MS46122B
! 1746301/73750021
! 8/7/2023 2:50:37 PM
! C:\USERS\SPEGWAL\DOWNLOADS\SAURABH\REACH\NODES\FRONT END\MEASUREMENTS\MEASURED S-PARAMETER_07-08-2023\MS-3\P2_J4\J1_ON.S2P
! CHANNEL.1
! TR.MEASUREMENT
! CORRECTED.DATA
# GHZ S RI R 50.0
! FREQ.GHZ         S11RE         S11IM         S21RE         S21IM         S12RE         S12IM         S22RE         S22IM         
!; PortSelection: Port_12
   0.001000000     1.0051620   -0.0075860     0.0000037   -0.0000035     0.0000022   -0.0000006    -0.0037410    0.0029027 
   0.001249500     1.0024370   -0.0074147     0.0000006   -0.0000001     0.0000002   -0.0000020    -0.0043199    0.0029989 
   0.001499000     1.0022020   -0.0076550    -0.0000003   -0.0000002     0.0000002    0.0000003    -0.0045512    0.0032353 
   0.001748500     1.0021490   -0.0079917     0.0000005   -0.0000007    -0.0000003    0.0000000    -0.0044996    0.0034642 
   0.001998000     1.0021990   -0.0082269    -0.0000004   -0.0000003    -0.0000007    0.0000006    -0.0043366    0.0035880 
   0.002247500     1.0026070   -0.0091993     0.0000011    0.0000002     0.0000007    0.0000005    -0.0039597    0.0033961 
   0.002497000     1.0025460   -0.0095593    -0.0000003   -0.0000005    -0.0000003   -0.0000004    -0.0036914    0.0034284 
   0.002746500     1.0027450   -0.0098472    -0.0000004    0.0000016     0.0000010    0.0000015    -0.0034111    0.0034476 
   0.002996000     1.0027800   -0.0101799     0.0000001   -0.0000016     0.0000002    0.0000005    -0.0031202    0.0033181 
   0.003245500     1.0028000   -0.0105541    -0.0000012    0.0000001     0.0000000    0.0000001    -0.0028801    0.0032589 
   0.003495000     1.0027600   -0.0108253    -0.0000007    0.0000003     0.0000002   -0.0000001    -0.0026396    0.0031297 
   0.003744500     1.0029000   -0.0113036     0.0000005   -0.0000004    -0.0000018   -0.0000008    -0.0024396    0.0029564 
   0.003994000     1.0029750   -0.0117857     0.0000004   -0.0000001    -0.0000002    0.0000000    -0.0022464    0.0027861 
   0.004243500     1.0029620   -0.0120411     0.0000002    0.0000005    -0.0000003    0.0000006    -0.0018203    0.0025006 
   0.004493000     1.0030480   -0.0125787    -0.0000002   -0.0000002     0.0000002    0.0000004    -0.0016883    0.0023785 
   0.004742500     1.0030480   -0.0129299    -0.0000003   -0.0000001    -0.0000017   -0.0000007    -0.0015829    0.0022464 
   0.004992000     1.0031400   -0.0134663     0.0000001   -0.0000014     0.0000014   -0.0000008    -0.0014956    0.0021245 
   0.005241500     1.0032820   -0.0139478     0.0000012   -0.0000002     0.0000005    0.0000004    -0.0014092    0.0019921 
   0.005491000     1.0032960   -0.0145196     0.0000014   -0.0000004     0.0000011   -0.0000016    -0.0013747    0.0018901 
   0.005740500     1.0033360   -0.0149871     0.0000001   -0.0000009     0.0000008    0.0000005    -0.0013544    0.0017970 
   0.005990000     1.0033790   -0.0155819     0.0000005   -0.0000018     0.0000009   -0.0000011    -0.0013314    0.0016950 
   0.006239500     1.0034290   -0.0160163     0.0000010   -0.0000009    -0.0000008   -0.0000002    -0.0013201    0.0016085 
   0.006489000     1.0035180   -0.0167114    -0.0000001    0.0000006     0.0000002    0.0000006    -0.0013241    0.0015178 
   0.006738500     1.0035480   -0.0170775     0.0000004   -0.0000010    -0.0000004    0.0000010    -0.0013243    0.0014557 
   0.006988000     1.0035380   -0.0176218    -0.0000003   -0.0000002     0.0000001    0.0000002    -0.0013366    0.0014044 
   0.007237500     1.0034640   -0.0179758     0.0000009   -0.0000006    -0.0000005   -0.0000017    -0.0013411    0.0013618 
   0.007487000     1.0031640   -0.0182685     0.0000005    0.0000004    -0.0000001    0.0000006    -0.0013703    0.0013359 
   0.007736500     1.0027750   -0.0185352     0.0000005    0.0000000    -0.0000002    0.0000000    -0.0013727    0.0012929 
   0.007986000     1.0022300   -0.0185997     0.0000004    0.0000011     0.0000003   -0.0000004    -0.0013728    0.0012547 
   0.008235500     1.0014250   -0.0188297    -0.0000004   -0.0000021    -0.0000011    0.0000011    -0.0013986    0.0012197 
   0.008485000     1.0007630   -0.0189457     0.0000006    0.0000012     0.0000001   -0.0000013    -0.0013904    0.0011991 
   0.008734500     0.9999610   -0.0190510    -0.0000018    0.0000009     0.0000006    0.0000009    -0.0014221    0.0011519 
   0.008984000     0.9992968   -0.0191101     0.0000007    0.0000006    -0.0000006   -0.0000005    -0.0014230    0.0011224 
   0.009233500     0.9971225   -0.0181446     0.0000008    0.0000014    -0.0000001    0.0000000    -0.0014533    0.0010930 
   0.009483000     0.9970024   -0.0185747     0.0000014    0.0000002    -0.0000005    0.0000015    -0.0014630    0.0010764 
   0.009732500     0.9971380   -0.0190575    -0.0000012    0.0000007     0.0000000    0.0000012    -0.0014602    0.0010617 
   0.009982000     0.9970267   -0.0194584    -0.0000013    0.0000000     0.0000010    0.0000003    -0.0014665    0.0010474 
   0.010231500     0.9969195   -0.0199239    -0.0000005   -0.0000002    -0.0000002    0.0000004    -0.0014909    0.0010349 
   0.010481000     0.9968645   -0.0203707     0.0000003    0.0000002    -0.0000009   -0.0000003    -0.0014939    0.0010288 
   0.010730500     0.9968491   -0.0210074     0.0000003   -0.0000006    -0.0000001   -0.0000008    -0.0015038    0.0010225 
   0.010980000     0.9968734   -0.0214869     0.0000002    0.0000005    -0.0000013   -0.0000006    -0.0015240    0.0010100 
   0.011229500     0.9968776   -0.0218212     0.0000005   -0.0000015    -0.0000009    0.0000009    -0.0015146    0.0010064 
   0.011479000     0.9967587   -0.0223052    -0.0000008   -0.0000011     0.0000006    0.0000002    -0.0015233    0.0009919 
   0.011728500     0.9969347   -0.0227043    -0.0000012    0.0000010    -0.0000006    0.0000004    -0.0015435    0.0009738 
   0.011978000     0.9968370   -0.0231057    -0.0000008    0.0000005     0.0000000   -0.0000002    -0.0015468    0.0009643 
   0.012227500     0.9968484   -0.0236047     0.0000002    0.0000006     0.0000006    0.0000008    -0.0015567    0.0009412 
   0.012477000     0.9967424   -0.0241424     0.0000003    0.0000004    -0.0000008    0.0000006    -0.0015702    0.0009369 
   0.012726500     0.9968021   -0.0245795    -0.0000014    0.0000007     0.0000012   -0.0000005    -0.0015712    0.0009277 
   0.012976000     0.9967859   -0.0251366     0.0000011   -0.0000007     0.0000004   -0.0000003    -0.0015794    0.0009072 
   0.013225500     0.9966676   -0.0254450    -0.0000015   -0.0000001     0.0000000    0.0000005    -0.0015966    0.0008923 
   0.013475000     0.9966848   -0.0259200     0.0000002    0.0000006     0.0000008   -0.0000013    -0.0016059    0.0008822 
   0.013724500     0.9965658   -0.0263873     0.0000010    0.0000012    -0.0000002    0.0000005    -0.0016055    0.0008790 
   0.013974000     0.9965672   -0.0267980     0.0000008    0.0000005     0.0000002    0.0000007    -0.0016041    0.0008712 
   0.014223500     0.9965153   -0.0272744    -0.0000007    0.0000005     0.0000009   -0.0000007    -0.0016168    0.0008537 
   0.014473000     0.9964979   -0.0277615    -0.0000008   -0.0000012    -0.0000007   -0.0000001    -0.0016226    0.0008623 
   0.014722500     0.9964167   -0.0282656     0.0000006    0.0000010    -0.0000007   -0.0000001    -0.0016163    0.0008595 
   0.014972000     0.9965739   -0.0287382    -0.0000001    0.0000007     0.0000008   -0.0000001    -0.0016182    0.0008455 
   0.015221500     0.9965160   -0.0290285     0.0000004   -0.0000001    -0.0000006   -0.0000007    -0.0016299    0.0008509 
   0.015471000     0.9964055   -0.0295001    -0.0000004    0.0000000     0.0000000    0.0000009    -0.0016296    0.0008470 
   0.015720500     0.9963242   -0.0299358     0.0000000    0.0000003    -0.0000005   -0.0000001    -0.0016386    0.0008362 
   0.015970000     0.9962485   -0.0303571    -0.0000009    0.0000002     0.0000015    0.0000013    -0.0016479    0.0008212 
   0.016219500     0.9961848   -0.0308285     0.0000002    0.0000001    -0.0000003   -0.0000006    -0.0016556    0.0008235 
   0.016469000     0.9961990   -0.0312499     0.0000005    0.0000008     0.0000003    0.0000004    -0.0016550    0.0008060 
   0.016718500     0.9962487   -0.0317845    -0.0000003    0.0000007     0.0000006   -0.0000001    -0.0016522    0.0008076 
   0.016968000     0.9962032   -0.0322523    -0.0000014    0.0000007     0.0000005   -0.0000011    -0.0016628    0.0007732 
   0.017217500     0.9961620   -0.0326355     0.0000000   -0.0000015    -0.0000013   -0.0000002    -0.0016681    0.0007769 
   0.017467000     0.9962571   -0.0330565    -0.0000011    0.0000015     0.0000000   -0.0000008    -0.0016501    0.0007717 
   0.017716500     0.9963034   -0.0335868     0.0000004   -0.0000006    -0.0000006   -0.0000001    -0.0016573    0.0007638 
   0.017966000     0.9961674   -0.0341195     0.0000009   -0.0000010     0.0000009   -0.0000013    -0.0016593    0.0007603 
   0.018215500     0.9962023   -0.0344813    -0.0000014   -0.0000013     0.0000003   -0.0000003    -0.0016508    0.0007385 
   0.018465000     0.9960847   -0.0349497     0.0000002    0.0000004     0.0000009   -0.0000005    -0.0016552    0.0007324 
   0.018714500     0.9960244   -0.0353432     0.0000002    0.0000001     0.0000006    0.0000009    -0.0016542    0.0007212 
   0.018964000     0.9959253   -0.0357698    -0.0000010    0.0000004    -0.0000005    0.0000003    -0.0016514    0.0007237 
   0.019213500     0.9959978   -0.0362638     0.0000003   -0.0000005    -0.0000001    0.0000000    -0.0016411    0.0007134 
   0.019463000     0.9957905   -0.0367042     0.0000001    0.0000000     0.0000000   -0.0000005    -0.0016427    0.0007057 
   0.019712500     0.9958053   -0.0371931    -0.0000002   -0.0000007     0.0000002   -0.0000003    -0.0016449    0.0006945 
   0.019962000     0.9958059   -0.0374502    -0.0000007   -0.0000005    -0.0000006    0.0000004    -0.0016380    0.0006895 
   0.020211500     0.9958143   -0.0380369    -0.0000003   -0.0000007     0.0000009   -0.0000009    -0.0016433    0.0006809 
   0.020461000     0.9958166   -0.0383806    -0.0000003   -0.0000005    -0.0000007   -0.0000002    -0.0016435    0.0006797 
   0.020710500     0.9956900   -0.0389551     0.0000003    0.0000003    -0.0000002    0.0000001    -0.0016436    0.0006623 
   0.020960000     0.9957438   -0.0394611     0.0000003    0.0000000     0.0000003   -0.0000011    -0.0016429    0.0006554 
   0.021209500     0.9955313   -0.0398189     0.0000004   -0.0000005     0.0000010    0.0000008    -0.0016322    0.0006470 
   0.021459000     0.9955238   -0.0402588     0.0000010    0.0000010    -0.0000003    0.0000006    -0.0016242    0.0006399 
   0.021708500     0.9955694   -0.0407338     0.0000003   -0.0000002    -0.0000002   -0.0000006    -0.0016284    0.0006237 
   0.021958000     0.9956275   -0.0412800    -0.0000005   -0.0000009     0.0000008    0.0000005    -0.0016230    0.0006203 
   0.022207500     0.9955922   -0.0416287    -0.0000001   -0.0000002    -0.0000003   -0.0000010    -0.0016049    0.0006206 
   0.022457000     0.9955850   -0.0421782     0.0000001   -0.0000005    -0.0000012    0.0000003    -0.0016335    0.0006413 
   0.022706500     0.9956846   -0.0424983    -0.0000007   -0.0000016    -0.0000002   -0.0000005    -0.0016389    0.0006226 
   0.022956000     0.9954494   -0.0431415     0.0000001   -0.0000006     0.0000004    0.0000010    -0.0016194    0.0005985 
   0.023205500     0.9954425   -0.0434254     0.0000005   -0.0000005    -0.0000003   -0.0000008    -0.0016134    0.0006229 
   0.023455000     0.9953488   -0.0438403    -0.0000007   -0.0000004     0.0000012    0.0000008    -0.0016036    0.0006024 
   0.023704500     0.9954118   -0.0443231    -0.0000004   -0.0000022    -0.0000003   -0.0000007    -0.0015973    0.0005944 
   0.023954000     0.9952179   -0.0448810     0.0000005   -0.0000004    -0.0000006    0.0000009    -0.0015802    0.0006011 
   0.024203500     0.9953234   -0.0453434     0.0000000    0.0000000     0.0000005   -0.0000002    -0.0015599    0.0006018 
   0.024453000     0.9952569   -0.0457459     0.0000008    0.0000016     0.0000008   -0.0000003    -0.0015743    0.0005715 
   0.024702500     0.9952139   -0.0461866    -0.0000016   -0.0000002    -0.0000002    0.0000000    -0.0015531    0.0005736 
   0.024952000     0.9951544   -0.0466115    -0.0000003    0.0000007     0.0000002    0.0000007    -0.0015383    0.0005834 
   0.025201500     0.9955385   -0.0468844    -0.0000003    0.0000016    -0.0000005   -0.0000013    -0.0015815    0.0005804 
   0.025451000     0.9952294   -0.0473621    -0.0000005   -0.0000010     0.0000005   -0.0000007    -0.0015255    0.0005541 
   0.025700500     0.9951110   -0.0480084    -0.0000008    0.0000009    -0.0000001    0.0000013    -0.0015210    0.0005463 
   0.025950000     0.9951965   -0.0483926     0.0000000   -0.0000008     0.0000007   -0.0000001    -0.0015101    0.0005456 
   0.026199500     0.9950734   -0.0489227     0.0000002    0.0000002     0.0000005   -0.0000004    -0.0015106    0.0005405 
   0.026449000     0.9950096   -0.0492837    -0.0000008   -0.0000001    -0.0000011   -0.0000006    -0.0014927    0.0005341 
   0.026698500     0.9950187   -0.0496235     0.0000002   -0.0000009    -0.0000005   -0.0000002    -0.0014965    0.0005339 
   0.026948000     0.9948863   -0.0501174     0.0000001   -0.0000008    -0.0000001    0.0000005    -0.0014744    0.0005257 
   0.027197500     0.9949537   -0.0505956    -0.0000006    0.0000012    -0.0000001    0.0000000    -0.0014746    0.0005142 
   0.027447000     0.9949428   -0.0509620     0.0000007    0.0000008    -0.0000004   -0.0000002    -0.0014479    0.0005192 
   0.027696500     0.9947788   -0.0513858    -0.0000003    0.0000004     0.0000003    0.0000002    -0.0014381    0.0005052 
   0.027946000     0.9948794   -0.0518466    -0.0000004   -0.0000007    -0.0000003   -0.0000007    -0.0014278    0.0005099 
   0.028195500     0.9948289   -0.0521841     0.0000003   -0.0000010    -0.0000003   -0.0000001    -0.0014141    0.0004964 
   0.028445000     0.9947501   -0.0526133    -0.0000007   -0.0000016     0.0000001    0.0000005    -0.0013886    0.0005052 
   0.028694500     0.9946051   -0.0530840     0.0000000   -0.0000008    -0.0000009    0.0000005    -0.0013819    0.0004860 
   0.028944000     0.9945317   -0.0536826    -0.0000003    0.0000009     0.0000000    0.0000006    -0.0013643    0.0005001 
   0.029193500     0.9944885   -0.0541282    -0.0000006   -0.0000005    -0.0000012   -0.0000007    -0.0013458    0.0005011 
   0.029443000     0.9944963   -0.0545718    -0.0000003   -0.0000008     0.0000009   -0.0000018    -0.0013261    0.0004945 
   0.029692500     0.9944336   -0.0550461     0.0000003    0.0000004    -0.0000004   -0.0000004    -0.0013184    0.0004998 
   0.029942000     0.9944242   -0.0555550     0.0000011   -0.0000008    -0.0000003    0.0000007    -0.0012953    0.0004963 
   0.030191500     0.9944372   -0.0557712     0.0000003   -0.0000007    -0.0000001   -0.0000010    -0.0012825    0.0004847 
   0.030441000     0.9943963   -0.0561863    -0.0000007    0.0000001    -0.0000010    0.0000018    -0.0012687    0.0004977 
   0.030690500     0.9943736   -0.0565983     0.0000007    0.0000000     0.0000013    0.0000004    -0.0012616    0.0004812 
   0.030940000     0.9943559   -0.0570987    -0.0000003    0.0000005    -0.0000004    0.0000007    -0.0012482    0.0004874 
   0.031189500     0.9942984   -0.0575016     0.0000007   -0.0000011     0.0000002   -0.0000009    -0.0012405    0.0004875 
   0.031439000     0.9942323   -0.0579548    -0.0000010    0.0000003     0.0000008   -0.0000016    -0.0012179    0.0004831 
   0.031688500     0.9942305   -0.0585433    -0.0000008    0.0000001     0.0000001   -0.0000005    -0.0012139    0.0004868 
   0.031938000     0.9942085   -0.0590535     0.0000001   -0.0000003     0.0000018   -0.0000001    -0.0011854    0.0004877 
   0.032187500     0.9941995   -0.0592311    -0.0000005    0.0000003    -0.0000004    0.0000002    -0.0011814    0.0004917 
   0.032437000     0.9940744   -0.0597403     0.0000005    0.0000006     0.0000004    0.0000000    -0.0011601    0.0004986 
   0.032686500     0.9941697   -0.0599365     0.0000008    0.0000003     0.0000007    0.0000007    -0.0011287    0.0004487 
   0.032936000     0.9940686   -0.0606512     0.0000016    0.0000008     0.0000005   -0.0000004    -0.0011227    0.0005072 
   0.033185500     0.9940112   -0.0609686    -0.0000011    0.0000001    -0.0000008    0.0000005    -0.0010826    0.0004537 
   0.033435000     0.9939821   -0.0614701     0.0000001   -0.0000016    -0.0000003    0.0000004    -0.0010747    0.0005184 
   0.033684500     0.9939108   -0.0620477    -0.0000003    0.0000004     0.0000002    0.0000005    -0.0010519    0.0005233 
   0.033934000     0.9938505   -0.0625787     0.0000003   -0.0000013    -0.0000001   -0.0000007    -0.0010379    0.0005326 
   0.034183500     0.9939046   -0.0630693     0.0000004   -0.0000010     0.0000004   -0.0000015    -0.0010277    0.0005358 
   0.034433000     0.9938404   -0.0634668     0.0000003    0.0000009     0.0000010    0.0000001    -0.0010172    0.0005636 
   0.034682500     0.9939053   -0.0639779     0.0000000   -0.0000001     0.0000000    0.0000006    -0.0009972    0.0005561 
   0.034932000     0.9938386   -0.0642775     0.0000003   -0.0000001     0.0000006    0.0000001    -0.0009800    0.0005708 
   0.035181500     0.9938194   -0.0647203    -0.0000009    0.0000001     0.0000001   -0.0000001    -0.0009631    0.0005669 
   0.035431000     0.9939091   -0.0650538     0.0000005    0.0000007    -0.0000001   -0.0000006    -0.0009419    0.0005675 
   0.035680500     0.9937671   -0.0655396     0.0000005   -0.0000005     0.0000004    0.0000005    -0.0009274    0.0005924 
   0.035930000     0.9936683   -0.0660924    -0.0000006    0.0000004     0.0000014    0.0000002    -0.0009178    0.0005918 
   0.036179500     0.9935499   -0.0665284     0.0000006   -0.0000011    -0.0000008    0.0000008    -0.0008890    0.0005927 
   0.036429000     0.9935346   -0.0669601     0.0000003   -0.0000007     0.0000012    0.0000002    -0.0008768    0.0006025 
   0.036678500     0.9935558   -0.0674748    -0.0000016    0.0000009     0.0000012    0.0000004    -0.0008613    0.0006051 
   0.036928000     0.9934782   -0.0679589    -0.0000009    0.0000000    -0.0000012   -0.0000011    -0.0008323    0.0006170 
   0.037177500     0.9934666   -0.0684093    -0.0000006   -0.0000001    -0.0000002    0.0000008    -0.0008140    0.0006300 
   0.037427000     0.9934872   -0.0687325    -0.0000007    0.0000007    -0.0000008   -0.0000005    -0.0007946    0.0006435 
   0.037676500     0.9935123   -0.0691482    -0.0000011   -0.0000018    -0.0000015    0.0000006    -0.0007798    0.0006544 
   0.037926000     0.9934957   -0.0696137    -0.0000013   -0.0000014     0.0000001   -0.0000009    -0.0007333    0.0006732 
   0.038175500     0.9934591   -0.0699960    -0.0000020   -0.0000003    -0.0000002   -0.0000012    -0.0007200    0.0006929 
   0.038425000     0.9933966   -0.0703909    -0.0000005    0.0000000     0.0000003   -0.0000002    -0.0007007    0.0007029 
   0.038674500     0.9933804   -0.0708439    -0.0000002    0.0000008     0.0000005    0.0000011    -0.0006828    0.0007262 
   0.038924000     0.9932765   -0.0714604     0.0000008    0.0000011     0.0000008    0.0000004    -0.0006719    0.0007405 
   0.039173500     0.9933123   -0.0719448     0.0000015   -0.0000005     0.0000004    0.0000009    -0.0006563    0.0007585 
   0.039423000     0.9933063   -0.0723784     0.0000009    0.0000008    -0.0000004    0.0000019    -0.0006255    0.0007750 
   0.039672500     0.9933144   -0.0724382    -0.0000018   -0.0000001     0.0000002   -0.0000008    -0.0005585    0.0007394 
   0.039922000     0.9934528   -0.0729033     0.0000009   -0.0000013     0.0000011    0.0000002    -0.0006114    0.0007321 
   0.040171500     0.9935189   -0.0733901    -0.0000009    0.0000004    -0.0000010   -0.0000011    -0.0005822    0.0007411 
