! MS46122B
! 1746301/73750021
! 8/7/2023 2:52:14 PM
! C:\USERS\SPEGWAL\DOWNLOADS\SAURABH\REACH\NODES\FRONT END\MEASUREMENTS\MEASURED S-PARAMETER_07-08-2023\MS-3\P2_J4\J2_ON.S2P
! CHANNEL.1
! TR.MEASUREMENT
! CORRECTED.DATA
# GHZ S RI R 50.0
! FREQ.GHZ         S11RE         S11IM         S21RE         S21IM         S12RE         S12IM         S22RE         S22IM         
!; PortSelection: Port_12
   0.001000000     1.0039010   -0.0084499    -0.0000050    0.0000021    -0.0000018    0.0000002    -0.0037844    0.0029157 
   0.001249500     1.0024280   -0.0074750     0.0000003   -0.0000006     0.0000012    0.0000001    -0.0043214    0.0030085 
   0.001499000     1.0023330   -0.0076893     0.0000022    0.0000001    -0.0000012   -0.0000001    -0.0045648    0.0032345 
   0.001748500     1.0022270   -0.0079888    -0.0000015    0.0000017     0.0000015    0.0000007    -0.0044979    0.0034706 
   0.001998000     1.0022170   -0.0083955     0.0000003   -0.0000017    -0.0000003    0.0000015    -0.0043395    0.0035992 
   0.002247500     1.0026120   -0.0093137     0.0000014    0.0000001    -0.0000006   -0.0000002    -0.0039492    0.0034049 
   0.002497000     1.0025840   -0.0096453     0.0000017   -0.0000003     0.0000008    0.0000004    -0.0036765    0.0034436 
   0.002746500     1.0027140   -0.0099395    -0.0000007   -0.0000002    -0.0000011    0.0000014    -0.0034037    0.0034576 
   0.002996000     1.0027420   -0.0102619    -0.0000006   -0.0000002     0.0000010   -0.0000014    -0.0031085    0.0033366 
   0.003245500     1.0028210   -0.0106082     0.0000010    0.0000001     0.0000005   -0.0000005    -0.0028736    0.0032511 
   0.003495000     1.0027870   -0.0108941    -0.0000006    0.0000006     0.0000009   -0.0000010    -0.0026172    0.0031449 
   0.003744500     1.0029370   -0.0113483    -0.0000003    0.0000001     0.0000005   -0.0000006    -0.0024183    0.0029541 
   0.003994000     1.0029550   -0.0118794     0.0000001   -0.0000008    -0.0000002    0.0000013    -0.0022188    0.0027842 
   0.004243500     1.0029940   -0.0121122     0.0000008   -0.0000001     0.0000004   -0.0000011    -0.0018121    0.0024968 
   0.004493000     1.0030760   -0.0126635    -0.0000002   -0.0000006     0.0000012   -0.0000014    -0.0016645    0.0023763 
   0.004742500     1.0031130   -0.0129837     0.0000013    0.0000011     0.0000007   -0.0000012    -0.0015629    0.0022568 
   0.004992000     1.0031790   -0.0134163    -0.0000001    0.0000000    -0.0000003    0.0000010    -0.0014693    0.0021292 
   0.005241500     1.0032900   -0.0140655     0.0000006    0.0000002     0.0000000    0.0000005    -0.0013858    0.0019946 
   0.005491000     1.0033690   -0.0146129    -0.0000001   -0.0000005    -0.0000006    0.0000018    -0.0013507    0.0018864 
   0.005740500     1.0033520   -0.0151134    -0.0000002    0.0000005    -0.0000005   -0.0000006    -0.0013395    0.0017920 
   0.005990000     1.0033900   -0.0156279    -0.0000005   -0.0000012     0.0000005   -0.0000003    -0.0013093    0.0016951 
   0.006239500     1.0034950   -0.0161654    -0.0000013    0.0000007     0.0000002   -0.0000008    -0.0013042    0.0016098 
   0.006489000     1.0035530   -0.0167398     0.0000004   -0.0000006     0.0000007    0.0000007    -0.0013118    0.0015248 
   0.006738500     1.0035330   -0.0171426    -0.0000002   -0.0000003    -0.0000014    0.0000011    -0.0013085    0.0014548 
   0.006988000     1.0035480   -0.0176961    -0.0000005   -0.0000010    -0.0000003    0.0000003    -0.0013130    0.0014143 
   0.007237500     1.0035080   -0.0181116     0.0000003   -0.0000005     0.0000003   -0.0000002    -0.0013304    0.0013657 
   0.007487000     1.0031580   -0.0183323     0.0000004   -0.0000002    -0.0000004   -0.0000012    -0.0013478    0.0013406 
   0.007736500     1.0027700   -0.0185783     0.0000006    0.0000009     0.0000005    0.0000006    -0.0013423    0.0012938 
   0.007986000     1.0022550   -0.0186892     0.0000002    0.0000004    -0.0000017    0.0000009    -0.0013548    0.0012543 
   0.008235500     1.0014060   -0.0189382     0.0000006    0.0000004    -0.0000016   -0.0000001    -0.0013739    0.0012288 
   0.008485000     1.0007050   -0.0190154     0.0000009    0.0000002     0.0000001    0.0000006    -0.0013873    0.0011964 
   0.008734500     0.9999920   -0.0191210     0.0000011   -0.0000001     0.0000002   -0.0000004    -0.0013877    0.0011537 
   0.008984000     0.9992384   -0.0191495    -0.0000008    0.0000014     0.0000012    0.0000009    -0.0014242    0.0011220 
   0.009233500     0.9970664   -0.0182208    -0.0000008    0.0000008     0.0000002   -0.0000003    -0.0014472    0.0010961 
   0.009483000     0.9970412   -0.0186424     0.0000007    0.0000000     0.0000003    0.0000003    -0.0014394    0.0010812 
   0.009732500     0.9970719   -0.0191659     0.0000004   -0.0000003    -0.0000006   -0.0000002    -0.0014395    0.0010642 
   0.009982000     0.9970598   -0.0195408    -0.0000004   -0.0000004     0.0000001   -0.0000004    -0.0014520    0.0010449 
   0.010231500     0.9969503   -0.0199925     0.0000010   -0.0000003     0.0000000    0.0000003    -0.0014776    0.0010505 
   0.010481000     0.9968354   -0.0204825    -0.0000013    0.0000005    -0.0000009    0.0000009    -0.0014886    0.0010311 
   0.010730500     0.9967769   -0.0210127     0.0000007    0.0000001    -0.0000011    0.0000001    -0.0014918    0.0010319 
   0.010980000     0.9968925   -0.0215863     0.0000020    0.0000005    -0.0000005    0.0000000    -0.0015053    0.0010181 
   0.011229500     0.9968492   -0.0219237    -0.0000003    0.0000002    -0.0000006    0.0000000    -0.0014948    0.0010087 
   0.011479000     0.9967880   -0.0223840    -0.0000014    0.0000006    -0.0000003   -0.0000009    -0.0015110    0.0010002 
   0.011728500     0.9969062   -0.0227756     0.0000004    0.0000002    -0.0000007    0.0000002    -0.0015263    0.0009660 
   0.011978000     0.9968315   -0.0231686     0.0000000   -0.0000004     0.0000001    0.0000019    -0.0015401    0.0009778 
   0.012227500     0.9968199   -0.0236736     0.0000000   -0.0000003     0.0000005   -0.0000001    -0.0015487    0.0009637 
   0.012477000     0.9967803   -0.0242209    -0.0000010    0.0000000     0.0000003   -0.0000002    -0.0015634    0.0009319 
   0.012726500     0.9967328   -0.0246572    -0.0000008    0.0000001     0.0000006   -0.0000010    -0.0015621    0.0009233 
   0.012976000     0.9968036   -0.0251493     0.0000005    0.0000001    -0.0000010    0.0000013    -0.0015632    0.0009040 
   0.013225500     0.9966459   -0.0255649     0.0000006    0.0000014    -0.0000003    0.0000001    -0.0015776    0.0008933 
   0.013475000     0.9966278   -0.0260085    -0.0000015    0.0000013     0.0000008    0.0000013    -0.0015902    0.0008830 
   0.013724500     0.9966018   -0.0263900    -0.0000001   -0.0000002    -0.0000004   -0.0000009    -0.0016042    0.0008839 
   0.013974000     0.9965364   -0.0269131     0.0000008   -0.0000001    -0.0000002   -0.0000004    -0.0015947    0.0008766 
   0.014223500     0.9965718   -0.0273460     0.0000003   -0.0000004     0.0000009    0.0000002    -0.0015986    0.0008736 
   0.014473000     0.9964792   -0.0278334     0.0000000    0.0000002    -0.0000006   -0.0000005    -0.0016115    0.0008798 
   0.014722500     0.9963570   -0.0282839    -0.0000011   -0.0000011     0.0000001    0.0000001    -0.0016037    0.0008592 
   0.014972000     0.9965262   -0.0288280    -0.0000001   -0.0000005    -0.0000004   -0.0000014    -0.0016085    0.0008532 
   0.015221500     0.9964873   -0.0292127    -0.0000020   -0.0000007    -0.0000011   -0.0000001    -0.0016188    0.0008592 
   0.015471000     0.9963661   -0.0295971     0.0000001    0.0000004    -0.0000007   -0.0000006    -0.0016288    0.0008486 
   0.015720500     0.9963159   -0.0300692     0.0000014   -0.0000001    -0.0000011   -0.0000013    -0.0016331    0.0008488 
   0.015970000     0.9962323   -0.0303733     0.0000003   -0.0000005    -0.0000003   -0.0000001    -0.0016420    0.0008383 
   0.016219500     0.9961476   -0.0309160     0.0000004    0.0000006     0.0000005    0.0000015    -0.0016494    0.0008254 
   0.016469000     0.9962130   -0.0314071    -0.0000002   -0.0000002    -0.0000002    0.0000005    -0.0016529    0.0008203 
   0.016718500     0.9961370   -0.0318806     0.0000006   -0.0000003    -0.0000003    0.0000002    -0.0016540    0.0008123 
   0.016968000     0.9962437   -0.0323425    -0.0000006   -0.0000003     0.0000003   -0.0000010    -0.0016617    0.0007900 
   0.017217500     0.9961236   -0.0326727    -0.0000001    0.0000007     0.0000000   -0.0000003    -0.0016604    0.0007846 
   0.017467000     0.9961658   -0.0331842    -0.0000001   -0.0000005     0.0000006    0.0000002    -0.0016500    0.0007794 
   0.017716500     0.9962823   -0.0336752     0.0000000    0.0000008     0.0000010   -0.0000007    -0.0016519    0.0007718 
   0.017966000     0.9961410   -0.0341907    -0.0000004   -0.0000012     0.0000005   -0.0000011    -0.0016551    0.0007569 
   0.018215500     0.9962294   -0.0345871    -0.0000008   -0.0000007    -0.0000005   -0.0000006    -0.0016489    0.0007509 
   0.018465000     0.9960617   -0.0349853    -0.0000005    0.0000005     0.0000006    0.0000000    -0.0016602    0.0007458 
   0.018714500     0.9960566   -0.0354743     0.0000007    0.0000005     0.0000008   -0.0000005    -0.0016549    0.0007337 
   0.018964000     0.9958770   -0.0358913     0.0000000    0.0000003     0.0000010    0.0000008    -0.0016487    0.0007381 
   0.019213500     0.9959220   -0.0363621     0.0000011   -0.0000001     0.0000009    0.0000005    -0.0016390    0.0007191 
   0.019463000     0.9958239   -0.0368179     0.0000004    0.0000002    -0.0000006    0.0000002    -0.0016588    0.0007078 
   0.019712500     0.9957782   -0.0373089     0.0000017   -0.0000011     0.0000002   -0.0000016    -0.0016404    0.0007045 
   0.019962000     0.9958298   -0.0376396    -0.0000001   -0.0000006     0.0000008   -0.0000009    -0.0016363    0.0006873 
   0.020211500     0.9957871   -0.0381472    -0.0000009   -0.0000010     0.0000003    0.0000003    -0.0016413    0.0006867 
   0.020461000     0.9957288   -0.0385560     0.0000007    0.0000011    -0.0000008   -0.0000007    -0.0016421    0.0006801 
   0.020710500     0.9956838   -0.0389357    -0.0000004   -0.0000004    -0.0000005    0.0000005    -0.0016533    0.0006692 
   0.020960000     0.9956827   -0.0395615    -0.0000001    0.0000012    -0.0000005    0.0000006    -0.0016430    0.0006614 
   0.021209500     0.9954923   -0.0399505    -0.0000011    0.0000000    -0.0000013    0.0000004    -0.0016435    0.0006439 
   0.021459000     0.9955364   -0.0402571     0.0000008   -0.0000008    -0.0000002   -0.0000009    -0.0016309    0.0006412 
   0.021708500     0.9955110   -0.0408889    -0.0000012    0.0000001     0.0000003   -0.0000008    -0.0016297    0.0006314 
   0.021958000     0.9955732   -0.0413759    -0.0000001   -0.0000008    -0.0000002   -0.0000004    -0.0016201    0.0006233 
   0.022207500     0.9955720   -0.0418262    -0.0000010    0.0000005    -0.0000015    0.0000013    -0.0016092    0.0006190 
   0.022457000     0.9955552   -0.0423244    -0.0000005    0.0000000     0.0000002    0.0000004    -0.0016537    0.0006312 
   0.022706500     0.9956523   -0.0426312    -0.0000004    0.0000000     0.0000003    0.0000003    -0.0016383    0.0006273 
   0.022956000     0.9954448   -0.0432883     0.0000010   -0.0000001     0.0000009    0.0000006    -0.0016220    0.0006129 
   0.023205500     0.9954078   -0.0436296     0.0000002   -0.0000004    -0.0000002    0.0000003    -0.0016195    0.0006180 
   0.023455000     0.9952849   -0.0439386     0.0000014   -0.0000008    -0.0000004   -0.0000003    -0.0016094    0.0006028 
   0.023704500     0.9953282   -0.0444181    -0.0000010   -0.0000001     0.0000013    0.0000003    -0.0015971    0.0006061 
   0.023954000     0.9952911   -0.0449322    -0.0000006   -0.0000003    -0.0000014    0.0000006    -0.0015845    0.0005968 
   0.024203500     0.9953291   -0.0453882    -0.0000007    0.0000002    -0.0000004   -0.0000007    -0.0015805    0.0005953 
   0.024453000     0.9951753   -0.0459041    -0.0000010    0.0000006     0.0000001   -0.0000004    -0.0015738    0.0005788 
   0.024702500     0.9952000   -0.0462251     0.0000003   -0.0000001    -0.0000002   -0.0000010    -0.0015580    0.0005763 
   0.024952000     0.9951483   -0.0467297    -0.0000003   -0.0000009     0.0000002    0.0000004    -0.0015520    0.0005783 
   0.025201500     0.9955574   -0.0469942    -0.0000004    0.0000003    -0.0000004    0.0000009    -0.0015955    0.0005658 
   0.025451000     0.9951820   -0.0474135     0.0000007   -0.0000004     0.0000004    0.0000000    -0.0015336    0.0005622 
   0.025700500     0.9950805   -0.0480939    -0.0000008    0.0000006    -0.0000009   -0.0000001    -0.0015321    0.0005420 
   0.025950000     0.9950899   -0.0484494    -0.0000001    0.0000003     0.0000000   -0.0000003    -0.0015178    0.0005510 
   0.026199500     0.9950625   -0.0490145    -0.0000002   -0.0000016     0.0000000   -0.0000009    -0.0015144    0.0005388 
   0.026449000     0.9949713   -0.0494100    -0.0000006    0.0000005     0.0000002    0.0000012    -0.0015021    0.0005343 
   0.026698500     0.9949055   -0.0498125     0.0000006   -0.0000004     0.0000007    0.0000006    -0.0014964    0.0005300 
   0.026948000     0.9948398   -0.0502972     0.0000001   -0.0000001     0.0000004    0.0000000    -0.0014939    0.0005192 
   0.027197500     0.9949058   -0.0506924     0.0000004    0.0000013    -0.0000015    0.0000002    -0.0014800    0.0005127 
   0.027447000     0.9949347   -0.0510347    -0.0000004   -0.0000006     0.0000007   -0.0000002    -0.0014618    0.0005075 
   0.027696500     0.9947692   -0.0515104    -0.0000004    0.0000000    -0.0000008    0.0000001    -0.0014499    0.0005063 
   0.027946000     0.9948905   -0.0519938     0.0000001   -0.0000008     0.0000004   -0.0000005    -0.0014302    0.0005111 
   0.028195500     0.9947695   -0.0523312     0.0000001   -0.0000011    -0.0000011    0.0000016    -0.0014205    0.0004860 
   0.028445000     0.9946624   -0.0527665    -0.0000010    0.0000001     0.0000000    0.0000000    -0.0014060    0.0004960 
   0.028694500     0.9945654   -0.0532663     0.0000005    0.0000001    -0.0000002   -0.0000002    -0.0013923    0.0004848 
   0.028944000     0.9944710   -0.0537946     0.0000000   -0.0000011    -0.0000001    0.0000010    -0.0013738    0.0004916 
   0.029193500     0.9944935   -0.0543470     0.0000000    0.0000015     0.0000008    0.0000002    -0.0013568    0.0004887 
   0.029443000     0.9943747   -0.0547601    -0.0000008    0.0000007    -0.0000008    0.0000005    -0.0013399    0.0004783 
   0.029692500     0.9944141   -0.0552324    -0.0000003   -0.0000007     0.0000010    0.0000005    -0.0013313    0.0004856 
   0.029942000     0.9943033   -0.0556983    -0.0000008    0.0000001     0.0000007    0.0000003    -0.0013059    0.0004856 
   0.030191500     0.9943859   -0.0558834    -0.0000012    0.0000009    -0.0000001   -0.0000001    -0.0013025    0.0004886 
   0.030441000     0.9943016   -0.0563630    -0.0000002   -0.0000007    -0.0000008    0.0000000    -0.0012845    0.0004807 
   0.030690500     0.9943604   -0.0567325    -0.0000011    0.0000003     0.0000009   -0.0000004    -0.0012689    0.0004713 
   0.030940000     0.9942887   -0.0572315    -0.0000005   -0.0000012    -0.0000007    0.0000011    -0.0012582    0.0004788 
   0.031189500     0.9943389   -0.0576396     0.0000013   -0.0000009    -0.0000013    0.0000008    -0.0012448    0.0004835 
   0.031439000     0.9942420   -0.0580929     0.0000009    0.0000009    -0.0000002    0.0000000    -0.0012240    0.0004744 
   0.031688500     0.9941398   -0.0586968     0.0000005    0.0000006    -0.0000002    0.0000005    -0.0012263    0.0004754 
   0.031938000     0.9941677   -0.0592155    -0.0000021    0.0000005     0.0000002    0.0000001    -0.0011916    0.0004697 
   0.032187500     0.9941262   -0.0594097     0.0000016   -0.0000005     0.0000003   -0.0000007    -0.0011865    0.0004754 
   0.032437000     0.9940518   -0.0599052    -0.0000012   -0.0000001     0.0000007   -0.0000004    -0.0011722    0.0004810 
   0.032686500     0.9941936   -0.0600749    -0.0000001   -0.0000001     0.0000001    0.0000001    -0.0011332    0.0004338 
   0.032936000     0.9940380   -0.0608125    -0.0000003   -0.0000007    -0.0000006   -0.0000008    -0.0011303    0.0004927 
   0.033185500     0.9940197   -0.0610914     0.0000005    0.0000003     0.0000006    0.0000007    -0.0010967    0.0004410 
   0.033435000     0.9939708   -0.0616355    -0.0000013   -0.0000004     0.0000003    0.0000002    -0.0010869    0.0005062 
   0.033684500     0.9938608   -0.0622347    -0.0000009   -0.0000002     0.0000003    0.0000001    -0.0010728    0.0005030 
   0.033934000     0.9938080   -0.0626990    -0.0000003   -0.0000007    -0.0000002    0.0000004    -0.0010495    0.0005149 
   0.034183500     0.9939001   -0.0632520    -0.0000005   -0.0000004     0.0000003   -0.0000010    -0.0010310    0.0005201 
   0.034433000     0.9938650   -0.0636040     0.0000001    0.0000018     0.0000006   -0.0000011    -0.0010301    0.0005426 
   0.034682500     0.9938955   -0.0640871     0.0000000    0.0000003    -0.0000004   -0.0000002    -0.0010026    0.0005355 
   0.034932000     0.9938330   -0.0644827     0.0000002   -0.0000006     0.0000000   -0.0000003    -0.0009853    0.0005468 
   0.035181500     0.9938044   -0.0648550     0.0000000    0.0000003     0.0000001   -0.0000010    -0.0009725    0.0005487 
   0.035431000     0.9938403   -0.0652420     0.0000004    0.0000001     0.0000012   -0.0000003    -0.0009629    0.0005463 
   0.035680500     0.9937835   -0.0656178    -0.0000002    0.0000006    -0.0000001   -0.0000004    -0.0009302    0.0005674 
   0.035930000     0.9936180   -0.0662358     0.0000003   -0.0000004    -0.0000002   -0.0000005    -0.0009228    0.0005692 
   0.036179500     0.9935341   -0.0666995    -0.0000003   -0.0000004     0.0000003    0.0000011    -0.0008981    0.0005630 
   0.036429000     0.9935263   -0.0671187     0.0000008    0.0000000    -0.0000008    0.0000002    -0.0008801    0.0005766 
   0.036678500     0.9934986   -0.0676312    -0.0000012    0.0000012     0.0000009    0.0000005    -0.0008756    0.0005960 
   0.036928000     0.9934488   -0.0681247    -0.0000002   -0.0000009     0.0000009   -0.0000009    -0.0008358    0.0005973 
   0.037177500     0.9934136   -0.0686061    -0.0000008    0.0000003    -0.0000005   -0.0000015    -0.0008174    0.0006139 
   0.037427000     0.9934625   -0.0688917     0.0000008    0.0000016    -0.0000001    0.0000011    -0.0007983    0.0006185 
   0.037676500     0.9934729   -0.0693101    -0.0000001    0.0000014     0.0000000    0.0000006    -0.0007776    0.0006391 
   0.037926000     0.9934549   -0.0697964     0.0000009    0.0000013     0.0000006    0.0000006    -0.0007501    0.0006492 
   0.038175500     0.9934108   -0.0701573    -0.0000003   -0.0000003     0.0000000    0.0000002    -0.0007326    0.0006665 
   0.038425000     0.9933631   -0.0706078     0.0000000    0.0000005     0.0000013   -0.0000006    -0.0007125    0.0006756 
   0.038674500     0.9933668   -0.0709848    -0.0000003    0.0000002     0.0000008   -0.0000005    -0.0006893    0.0006975 
   0.038924000     0.9932536   -0.0715991    -0.0000003    0.0000006    -0.0000013   -0.0000006    -0.0006802    0.0007249 
   0.039173500     0.9932405   -0.0720502     0.0000001    0.0000007    -0.0000002    0.0000002    -0.0006578    0.0007271 
   0.039423000     0.9932672   -0.0725714     0.0000019   -0.0000011    -0.0000005    0.0000009    -0.0006253    0.0007466 
   0.039672500     0.9932240   -0.0726274     0.0000010   -0.0000006     0.0000006   -0.0000015    -0.0005670    0.0007074 
   0.039922000     0.9934053   -0.0730925    -0.0000017   -0.0000010    -0.0000001    0.0000007    -0.0006126    0.0006945 
   0.040171500     0.9934937   -0.0735864    -0.0000020   -0.0000011     0.0000012    0.0000016    -0.0005925    0.0007275 
