! MS46122B
! 1746301/73750021
! 8/7/2023 2:53:22 PM
! C:\USERS\SPEGWAL\DOWNLOADS\SAURABH\REACH\NODES\FRONT END\MEASUREMENTS\MEASURED S-PARAMETER_07-08-2023\MS-3\P2_J4\J3_ON.S2P
! CHANNEL.1
! TR.MEASUREMENT
! CORRECTED.DATA
# GHZ S RI R 50.0
! FREQ.GHZ         S11RE         S11IM         S21RE         S21IM         S12RE         S12IM         S22RE         S22IM         
!; PortSelection: Port_12
   0.001000000     1.0029790   -0.0085156     0.0000025    0.0000055    -0.0000032    0.0000006    -0.0038108    0.0029618 
   0.001249500     1.0024350   -0.0074743    -0.0000003   -0.0000011    -0.0000016   -0.0000010    -0.0043200    0.0030147 
   0.001499000     1.0023430   -0.0077282    -0.0000008    0.0000003     0.0000008    0.0000021    -0.0045618    0.0032367 
   0.001748500     1.0022110   -0.0081167     0.0000000   -0.0000001    -0.0000001   -0.0000002    -0.0044861    0.0034815 
   0.001998000     1.0022220   -0.0082663     0.0000005    0.0000011     0.0000009    0.0000001    -0.0043330    0.0036120 
   0.002247500     1.0026570   -0.0092793     0.0000009    0.0000013    -0.0000010   -0.0000011    -0.0039479    0.0034096 
   0.002497000     1.0026330   -0.0096494    -0.0000002   -0.0000009     0.0000005    0.0000003    -0.0036746    0.0034533 
   0.002746500     1.0026470   -0.0099185    -0.0000006   -0.0000006     0.0000006   -0.0000003    -0.0034016    0.0034673 
   0.002996000     1.0028490   -0.0102565     0.0000004    0.0000024    -0.0000009   -0.0000011    -0.0030979    0.0033409 
   0.003245500     1.0028610   -0.0106347    -0.0000010    0.0000006    -0.0000008    0.0000000    -0.0028642    0.0032591 
   0.003495000     1.0028160   -0.0108990    -0.0000004    0.0000012     0.0000000    0.0000010    -0.0026155    0.0031443 
   0.003744500     1.0029340   -0.0113849     0.0000013    0.0000004    -0.0000006   -0.0000009    -0.0024084    0.0029627 
   0.003994000     1.0029880   -0.0117987     0.0000006   -0.0000012     0.0000001    0.0000013    -0.0022045    0.0027788 
   0.004243500     1.0030220   -0.0120996     0.0000000   -0.0000011    -0.0000011   -0.0000015    -0.0017843    0.0025011 
   0.004493000     1.0030570   -0.0126108    -0.0000002    0.0000003    -0.0000001   -0.0000007    -0.0016522    0.0023843 
   0.004742500     1.0031110   -0.0130561    -0.0000008    0.0000002     0.0000016   -0.0000004    -0.0015517    0.0022612 
   0.004992000     1.0032090   -0.0135332     0.0000006   -0.0000005     0.0000010   -0.0000001    -0.0014601    0.0021319 
   0.005241500     1.0032680   -0.0140706     0.0000001   -0.0000004     0.0000006    0.0000004    -0.0013788    0.0020015 
   0.005491000     1.0034140   -0.0145916     0.0000005   -0.0000001    -0.0000013    0.0000000    -0.0013436    0.0018868 
   0.005740500     1.0034270   -0.0150983    -0.0000010    0.0000009    -0.0000004   -0.0000012    -0.0013208    0.0017992 
   0.005990000     1.0034260   -0.0156557     0.0000000    0.0000004     0.0000010   -0.0000001    -0.0013000    0.0016901 
   0.006239500     1.0034600   -0.0161219    -0.0000003   -0.0000008    -0.0000023   -0.0000001    -0.0012940    0.0016000 
   0.006489000     1.0035870   -0.0167208    -0.0000009    0.0000003     0.0000010    0.0000007    -0.0012996    0.0015206 
   0.006738500     1.0035740   -0.0172342     0.0000000   -0.0000005    -0.0000019   -0.0000004    -0.0012870    0.0014562 
   0.006988000     1.0035830   -0.0176864     0.0000001    0.0000001    -0.0000001   -0.0000005    -0.0013102    0.0014173 
   0.007237500     1.0035210   -0.0180626    -0.0000004   -0.0000011     0.0000006   -0.0000006    -0.0013136    0.0013740 
   0.007487000     1.0032080   -0.0183080     0.0000014    0.0000004     0.0000001   -0.0000013    -0.0013449    0.0013430 
   0.007736500     1.0028170   -0.0185598    -0.0000003    0.0000004    -0.0000003    0.0000001    -0.0013339    0.0012922 
   0.007986000     1.0022100   -0.0187220     0.0000012    0.0000003     0.0000010   -0.0000007    -0.0013384    0.0012647 
   0.008235500     1.0014830   -0.0189155    -0.0000009   -0.0000006     0.0000000   -0.0000013    -0.0013597    0.0012310 
   0.008485000     1.0007800   -0.0189943     0.0000004   -0.0000005    -0.0000001    0.0000006    -0.0013761    0.0012007 
   0.008734500     0.9999526   -0.0190391    -0.0000001   -0.0000006    -0.0000003    0.0000014    -0.0013939    0.0011569 
   0.008984000     0.9992409   -0.0191652     0.0000004    0.0000003     0.0000001    0.0000010    -0.0014138    0.0011289 
   0.009233500     0.9970696   -0.0182387     0.0000004    0.0000006    -0.0000010    0.0000003    -0.0014244    0.0010977 
   0.009483000     0.9970962   -0.0186142    -0.0000010    0.0000007     0.0000007   -0.0000003    -0.0014355    0.0010793 
   0.009732500     0.9971343   -0.0191598     0.0000002    0.0000000     0.0000004    0.0000000    -0.0014388    0.0010701 
   0.009982000     0.9970132   -0.0195463     0.0000008    0.0000006     0.0000002   -0.0000006    -0.0014512    0.0010497 
   0.010231500     0.9969670   -0.0200184     0.0000011    0.0000008    -0.0000006    0.0000015    -0.0014735    0.0010482 
   0.010481000     0.9968212   -0.0204583     0.0000001    0.0000000     0.0000006   -0.0000008    -0.0014775    0.0010352 
   0.010730500     0.9967328   -0.0210543    -0.0000005    0.0000002    -0.0000004    0.0000010    -0.0014858    0.0010337 
   0.010980000     0.9968435   -0.0215278     0.0000006   -0.0000001    -0.0000007   -0.0000012    -0.0015048    0.0010234 
   0.011229500     0.9968020   -0.0219221     0.0000012    0.0000011     0.0000008    0.0000000    -0.0014978    0.0010141 
   0.011479000     0.9967954   -0.0223910     0.0000008    0.0000007     0.0000000    0.0000011    -0.0015070    0.0009953 
   0.011728500     0.9968758   -0.0227376     0.0000007   -0.0000007    -0.0000001   -0.0000002    -0.0015160    0.0009752 
   0.011978000     0.9968106   -0.0231435     0.0000005   -0.0000002    -0.0000004    0.0000004    -0.0015264    0.0009747 
   0.012227500     0.9968595   -0.0237195     0.0000007    0.0000008     0.0000001    0.0000005    -0.0015463    0.0009646 
   0.012477000     0.9967550   -0.0241935     0.0000003    0.0000002     0.0000009   -0.0000005    -0.0015533    0.0009423 
   0.012726500     0.9967504   -0.0246007     0.0000016    0.0000003    -0.0000003    0.0000000    -0.0015551    0.0009387 
   0.012976000     0.9967762   -0.0250744     0.0000000    0.0000004     0.0000000   -0.0000001    -0.0015614    0.0009179 
   0.013225500     0.9967020   -0.0255999     0.0000003   -0.0000006    -0.0000003   -0.0000001    -0.0015745    0.0008962 
   0.013475000     0.9966512   -0.0259901    -0.0000002    0.0000004    -0.0000001    0.0000014    -0.0015932    0.0008902 
   0.013724500     0.9965515   -0.0264787    -0.0000006    0.0000009    -0.0000004   -0.0000003    -0.0015879    0.0008877 
   0.013974000     0.9965814   -0.0268655     0.0000010    0.0000000     0.0000001    0.0000011    -0.0015947    0.0008806 
   0.014223500     0.9965182   -0.0273335    -0.0000001    0.0000000     0.0000011    0.0000010    -0.0015974    0.0008753 
   0.014473000     0.9964418   -0.0278111     0.0000006    0.0000002    -0.0000009   -0.0000013    -0.0016139    0.0008814 
   0.014722500     0.9963553   -0.0282820     0.0000005   -0.0000005     0.0000004   -0.0000005    -0.0016079    0.0008663 
   0.014972000     0.9964827   -0.0288181    -0.0000012    0.0000006    -0.0000002   -0.0000007    -0.0016079    0.0008603 
   0.015221500     0.9964494   -0.0291135    -0.0000002    0.0000025     0.0000005    0.0000008    -0.0016185    0.0008620 
   0.015471000     0.9963375   -0.0295825     0.0000003    0.0000002    -0.0000006    0.0000003    -0.0016196    0.0008469 
   0.015720500     0.9962844   -0.0300189     0.0000000   -0.0000001     0.0000000    0.0000013    -0.0016297    0.0008471 
   0.015970000     0.9961849   -0.0303426     0.0000000   -0.0000001    -0.0000005   -0.0000003    -0.0016248    0.0008360 
   0.016219500     0.9961631   -0.0309262     0.0000017    0.0000000    -0.0000002    0.0000022    -0.0016493    0.0008391 
   0.016469000     0.9962249   -0.0313837     0.0000002    0.0000002     0.0000005   -0.0000014    -0.0016428    0.0008171 
   0.016718500     0.9962080   -0.0319042     0.0000000    0.0000004    -0.0000007   -0.0000001    -0.0016575    0.0008141 
   0.016968000     0.9962173   -0.0323445    -0.0000009    0.0000014    -0.0000002   -0.0000014    -0.0016602    0.0007900 
   0.017217500     0.9961426   -0.0327147    -0.0000007    0.0000011     0.0000002   -0.0000012    -0.0016609    0.0007814 
   0.017467000     0.9962159   -0.0331630     0.0000000    0.0000005    -0.0000003    0.0000006    -0.0016590    0.0007830 
   0.017716500     0.9962825   -0.0336385    -0.0000012   -0.0000006    -0.0000006    0.0000006    -0.0016520    0.0007800 
   0.017966000     0.9961086   -0.0341116    -0.0000009   -0.0000003     0.0000001   -0.0000003    -0.0016476    0.0007678 
   0.018215500     0.9961612   -0.0346084    -0.0000004    0.0000000     0.0000001    0.0000008    -0.0016513    0.0007567 
   0.018465000     0.9960320   -0.0349767     0.0000000    0.0000014    -0.0000007    0.0000000    -0.0016540    0.0007408 
   0.018714500     0.9960150   -0.0353902    -0.0000002    0.0000000    -0.0000006    0.0000001    -0.0016570    0.0007427 
   0.018964000     0.9959484   -0.0358357     0.0000002    0.0000004     0.0000010    0.0000005    -0.0016445    0.0007344 
   0.019213500     0.9959013   -0.0364246     0.0000002    0.0000008    -0.0000010    0.0000004    -0.0016435    0.0007346 
   0.019463000     0.9958240   -0.0367459     0.0000015   -0.0000017     0.0000007    0.0000024    -0.0016547    0.0007085 
   0.019712500     0.9957280   -0.0373186     0.0000004   -0.0000013     0.0000005   -0.0000011    -0.0016469    0.0007087 
   0.019962000     0.9958254   -0.0375442     0.0000005    0.0000004    -0.0000007   -0.0000002    -0.0016530    0.0007045 
   0.020211500     0.9957722   -0.0381265    -0.0000013   -0.0000002     0.0000007    0.0000016    -0.0016406    0.0006926 
   0.020461000     0.9957244   -0.0384824    -0.0000004    0.0000002    -0.0000006   -0.0000006    -0.0016469    0.0006828 
   0.020710500     0.9956569   -0.0389694     0.0000010    0.0000004    -0.0000005    0.0000016    -0.0016488    0.0006660 
   0.020960000     0.9956475   -0.0394419    -0.0000007    0.0000000     0.0000008   -0.0000007    -0.0016406    0.0006711 
   0.021209500     0.9955361   -0.0398718     0.0000004    0.0000000     0.0000001    0.0000005    -0.0016358    0.0006493 
   0.021459000     0.9955481   -0.0402965    -0.0000009    0.0000004    -0.0000005    0.0000002    -0.0016266    0.0006511 
   0.021708500     0.9954898   -0.0408164     0.0000003    0.0000002    -0.0000004   -0.0000006    -0.0016240    0.0006356 
   0.021958000     0.9956282   -0.0412946     0.0000014   -0.0000001     0.0000006    0.0000000    -0.0016256    0.0006335 
   0.022207500     0.9956179   -0.0417496    -0.0000005    0.0000009     0.0000004    0.0000013    -0.0016197    0.0006194 
   0.022457000     0.9956443   -0.0422628    -0.0000002   -0.0000005    -0.0000002    0.0000011    -0.0016438    0.0006398 
   0.022706500     0.9956813   -0.0426013    -0.0000010   -0.0000004    -0.0000006   -0.0000008    -0.0016396    0.0006276 
   0.022956000     0.9954026   -0.0432365    -0.0000006   -0.0000009     0.0000001   -0.0000001    -0.0016258    0.0006091 
   0.023205500     0.9954109   -0.0436109     0.0000013    0.0000002     0.0000011   -0.0000006    -0.0016268    0.0006246 
   0.023455000     0.9952527   -0.0439531    -0.0000004   -0.0000012     0.0000009    0.0000012    -0.0016146    0.0006059 
   0.023704500     0.9953279   -0.0444625    -0.0000008    0.0000001     0.0000016    0.0000005    -0.0016015    0.0006052 
   0.023954000     0.9952636   -0.0448513     0.0000008    0.0000000    -0.0000007   -0.0000006    -0.0015929    0.0005981 
   0.024203500     0.9952912   -0.0453509     0.0000003    0.0000004    -0.0000005   -0.0000006    -0.0015783    0.0005945 
   0.024453000     0.9951793   -0.0458033     0.0000002    0.0000002    -0.0000013    0.0000008    -0.0015806    0.0005772 
   0.024702500     0.9952074   -0.0462600    -0.0000006   -0.0000003    -0.0000008    0.0000012    -0.0015562    0.0005862 
   0.024952000     0.9951793   -0.0467027     0.0000006   -0.0000005    -0.0000006   -0.0000001    -0.0015502    0.0005715 
   0.025201500     0.9955432   -0.0469855    -0.0000002    0.0000000    -0.0000007    0.0000002    -0.0015921    0.0005771 
   0.025451000     0.9951529   -0.0474857    -0.0000002    0.0000009    -0.0000009   -0.0000004    -0.0015449    0.0005602 
   0.025700500     0.9950591   -0.0480354     0.0000003   -0.0000001    -0.0000004    0.0000003    -0.0015306    0.0005436 
   0.025950000     0.9951634   -0.0485179     0.0000000    0.0000011     0.0000007    0.0000008    -0.0015253    0.0005515 
   0.026199500     0.9950330   -0.0490364    -0.0000001   -0.0000003     0.0000003   -0.0000007    -0.0015153    0.0005424 
   0.026449000     0.9949385   -0.0494607    -0.0000004    0.0000002    -0.0000001   -0.0000003    -0.0015165    0.0005386 
   0.026698500     0.9949620   -0.0498175     0.0000003    0.0000003     0.0000008    0.0000000    -0.0014973    0.0005242 
   0.026948000     0.9948649   -0.0502592     0.0000009    0.0000011    -0.0000002   -0.0000004    -0.0015006    0.0005131 
   0.027197500     0.9949381   -0.0506650     0.0000001   -0.0000006    -0.0000001   -0.0000018    -0.0014840    0.0005187 
   0.027447000     0.9948480   -0.0510943    -0.0000005    0.0000009    -0.0000002    0.0000000    -0.0014642    0.0005077 
   0.027696500     0.9947591   -0.0514735    -0.0000001   -0.0000003    -0.0000003   -0.0000003    -0.0014544    0.0005047 
   0.027946000     0.9949250   -0.0519669    -0.0000009   -0.0000005    -0.0000001   -0.0000005    -0.0014433    0.0005012 
   0.028195500     0.9947640   -0.0523044    -0.0000007    0.0000000    -0.0000002    0.0000007    -0.0014284    0.0004882 
   0.028445000     0.9946577   -0.0527536     0.0000002   -0.0000013    -0.0000002    0.0000002    -0.0014095    0.0004885 
   0.028694500     0.9946005   -0.0532321     0.0000004    0.0000007    -0.0000003    0.0000001    -0.0013965    0.0004838 
   0.028944000     0.9944518   -0.0538207     0.0000009    0.0000000    -0.0000003    0.0000007    -0.0013753    0.0004837 
   0.029193500     0.9944808   -0.0542796    -0.0000006    0.0000008     0.0000001    0.0000000    -0.0013629    0.0004791 
   0.029443000     0.9943996   -0.0547420     0.0000004    0.0000009    -0.0000002   -0.0000018    -0.0013433    0.0004804 
   0.029692500     0.9944040   -0.0552521    -0.0000004    0.0000016    -0.0000008   -0.0000001    -0.0013369    0.0004850 
   0.029942000     0.9943178   -0.0556507     0.0000004    0.0000010     0.0000013    0.0000001    -0.0013141    0.0004729 
   0.030191500     0.9943812   -0.0557876     0.0000010   -0.0000004     0.0000003   -0.0000003    -0.0012992    0.0004709 
   0.030441000     0.9943347   -0.0563621    -0.0000006    0.0000013    -0.0000004   -0.0000001    -0.0012916    0.0004798 
   0.030690500     0.9943563   -0.0567058    -0.0000002   -0.0000003     0.0000018   -0.0000004    -0.0012803    0.0004519 
   0.030940000     0.9943074   -0.0572328     0.0000004   -0.0000001     0.0000004   -0.0000003    -0.0012605    0.0004749 
   0.031189500     0.9943065   -0.0576017     0.0000006    0.0000009    -0.0000012    0.0000002    -0.0012492    0.0004713 
   0.031439000     0.9942219   -0.0580410     0.0000008    0.0000004     0.0000002    0.0000001    -0.0012340    0.0004724 
   0.031688500     0.9942126   -0.0586913    -0.0000003    0.0000005     0.0000007   -0.0000011    -0.0012345    0.0004682 
   0.031938000     0.9941629   -0.0591496    -0.0000006    0.0000015     0.0000003   -0.0000009    -0.0011979    0.0004688 
   0.032187500     0.9941204   -0.0593462    -0.0000004    0.0000005     0.0000003    0.0000007    -0.0011890    0.0004654 
   0.032437000     0.9940526   -0.0598853     0.0000003    0.0000002     0.0000008    0.0000006    -0.0011686    0.0004792 
   0.032686500     0.9941029   -0.0600748    -0.0000001    0.0000004     0.0000002   -0.0000003    -0.0011372    0.0004275 
   0.032936000     0.9940479   -0.0608214     0.0000008    0.0000013    -0.0000008    0.0000001    -0.0011331    0.0004896 
   0.033185500     0.9939583   -0.0610839     0.0000018    0.0000000     0.0000005    0.0000006    -0.0011003    0.0004295 
   0.033435000     0.9939364   -0.0616066    -0.0000007    0.0000003     0.0000002    0.0000006    -0.0010997    0.0005054 
   0.033684500     0.9939007   -0.0622063    -0.0000008   -0.0000003     0.0000010    0.0000005    -0.0010738    0.0005080 
   0.033934000     0.9938194   -0.0626877    -0.0000004   -0.0000005    -0.0000001   -0.0000001    -0.0010525    0.0005160 
   0.034183500     0.9938496   -0.0631851    -0.0000001   -0.0000003    -0.0000007    0.0000004    -0.0010416    0.0005152 
   0.034433000     0.9938030   -0.0635765     0.0000007    0.0000017    -0.0000001    0.0000000    -0.0010237    0.0005329 
   0.034682500     0.9938787   -0.0640559    -0.0000005   -0.0000005     0.0000000    0.0000001    -0.0010075    0.0005319 
   0.034932000     0.9938066   -0.0644676     0.0000000    0.0000007     0.0000003   -0.0000012    -0.0009901    0.0005375 
   0.035181500     0.9937646   -0.0648173     0.0000005    0.0000005    -0.0000001   -0.0000010    -0.0009730    0.0005395 
   0.035431000     0.9938245   -0.0652037    -0.0000005    0.0000012     0.0000000    0.0000003    -0.0009571    0.0005426 
   0.035680500     0.9937400   -0.0656605    -0.0000003   -0.0000010    -0.0000002   -0.0000001    -0.0009365    0.0005598 
   0.035930000     0.9936844   -0.0661074    -0.0000001   -0.0000010    -0.0000008    0.0000006    -0.0009227    0.0005584 
   0.036179500     0.9935216   -0.0666803    -0.0000003    0.0000001    -0.0000007    0.0000000    -0.0008999    0.0005607 
   0.036429000     0.9934953   -0.0670939     0.0000005    0.0000007    -0.0000003    0.0000002    -0.0008840    0.0005701 
   0.036678500     0.9934837   -0.0676322    -0.0000003   -0.0000012    -0.0000012    0.0000010    -0.0008795    0.0005786 
   0.036928000     0.9934006   -0.0681054     0.0000002   -0.0000001     0.0000014   -0.0000003    -0.0008440    0.0005855 
   0.037177500     0.9934364   -0.0685544    -0.0000005   -0.0000001    -0.0000017    0.0000009    -0.0008214    0.0005974 
   0.037427000     0.9934677   -0.0688688     0.0000016    0.0000011    -0.0000001    0.0000003    -0.0007991    0.0006105 
   0.037676500     0.9934781   -0.0692725    -0.0000013   -0.0000002     0.0000007    0.0000007    -0.0007723    0.0006294 
   0.037926000     0.9934826   -0.0697086    -0.0000001    0.0000004     0.0000007   -0.0000015    -0.0007416    0.0006400 
   0.038175500     0.9934072   -0.0701631    -0.0000006    0.0000004     0.0000007    0.0000003    -0.0007300    0.0006504 
   0.038425000     0.9933911   -0.0705299    -0.0000001    0.0000002     0.0000004    0.0000003    -0.0007124    0.0006559 
   0.038674500     0.9933664   -0.0709617     0.0000006   -0.0000001     0.0000000    0.0000009    -0.0006944    0.0006886 
   0.038924000     0.9932358   -0.0716515     0.0000017    0.0000003    -0.0000007    0.0000005    -0.0006842    0.0007038 
   0.039173500     0.9932488   -0.0720714     0.0000004   -0.0000009    -0.0000007   -0.0000003    -0.0006599    0.0007161 
   0.039423000     0.9932694   -0.0725527     0.0000008    0.0000001    -0.0000004    0.0000006    -0.0006342    0.0007382 
   0.039672500     0.9932714   -0.0725656     0.0000005   -0.0000010    -0.0000002    0.0000002    -0.0005703    0.0006936 
   0.039922000     0.9934072   -0.0730488     0.0000003    0.0000003    -0.0000004    0.0000002    -0.0006136    0.0006833 
   0.040171500     0.9934734   -0.0735342     0.0000000    0.0000008     0.0000002    0.0000011    -0.0005902    0.0007091 
