! MS46122B
! 1746301/73750021
! 8/7/2023 2:48:18 PM
! C:\USERS\SPEGWAL\DOWNLOADS\SAURABH\REACH\NODES\FRONT END\MEASUREMENTS\MEASURED S-PARAMETER_07-08-2023\MS-3\P2_J4\J4_ON.S2P
! CHANNEL.1
! TR.MEASUREMENT
! CORRECTED.DATA
# GHZ S RI R 50.0
! FREQ.GHZ         S11RE         S11IM         S21RE         S21IM         S12RE         S12IM         S22RE         S22IM         
!; PortSelection: Port_12
   0.001000000    -0.0018457    0.0023391     0.9996302   -0.0031822     0.9998076   -0.0051198    -0.0004218    0.0028897 
   0.001249500    -0.0018303    0.0025639     0.9999394   -0.0030900     0.9994348   -0.0044449    -0.0008416    0.0028381 
   0.001499000    -0.0019996    0.0027951     0.9998237   -0.0031590     0.9994202   -0.0048113    -0.0010057    0.0029342 
   0.001748500    -0.0019899    0.0030179     0.9997245   -0.0033031     0.9993734   -0.0052559    -0.0010193    0.0029958 
   0.001998000    -0.0018105    0.0031783     0.9996637   -0.0035540     0.9991365   -0.0055250    -0.0009692    0.0030599 
   0.002247500    -0.0014603    0.0028594     0.9995328   -0.0038136     0.9991340   -0.0059980    -0.0006449    0.0027249 
   0.002497000    -0.0012247    0.0028954     0.9994248   -0.0038734     0.9990318   -0.0062606    -0.0004909    0.0026904 
   0.002746500    -0.0009727    0.0029079     0.9993501   -0.0040611     0.9989697   -0.0065009    -0.0003164    0.0026739 
   0.002996000    -0.0007415    0.0028743     0.9992129   -0.0041148     0.9988840   -0.0067264    -0.0001500    0.0026207 
   0.003245500    -0.0004941    0.0027872     0.9991186   -0.0041563     0.9987894   -0.0069709     0.0000139    0.0025544 
   0.003495000    -0.0002814    0.0027082     0.9989417   -0.0042596     0.9987203   -0.0071514     0.0001491    0.0024681 
   0.003744500    -0.0000715    0.0025901     0.9989459   -0.0043735     0.9986862   -0.0074225     0.0002846    0.0023652 
   0.003994000     0.0001136    0.0024469     0.9988139   -0.0044862     0.9985670   -0.0076508     0.0004362    0.0022250 
   0.004243500     0.0002826    0.0022784     0.9986129   -0.0047121     0.9984056   -0.0078718     0.0007941    0.0018634 
   0.004493000     0.0004332    0.0021328     0.9985827   -0.0048302     0.9983423   -0.0080080     0.0008935    0.0017692 
   0.004742500     0.0005480    0.0019788     0.9985173   -0.0050739     0.9983674   -0.0081468     0.0009694    0.0016803 
   0.004992000     0.0006546    0.0018119     0.9985348   -0.0052717     0.9981822   -0.0081957     0.0010230    0.0016015 
   0.005241500     0.0007441    0.0016626     0.9985797   -0.0055090     0.9981593   -0.0082885     0.0010711    0.0015117 
   0.005491000     0.0008035    0.0015488     0.9985422   -0.0056933     0.9980370   -0.0084665     0.0011044    0.0014176 
   0.005740500     0.0008478    0.0014251     0.9984673   -0.0058247     0.9979100   -0.0086947     0.0011350    0.0013286 
   0.005990000     0.0008783    0.0013253     0.9984747   -0.0060947     0.9978092   -0.0088375     0.0011665    0.0012573 
   0.006239500     0.0009125    0.0012188     0.9984280   -0.0063498     0.9977961   -0.0090115     0.0011960    0.0011932 
   0.006489000     0.0009286    0.0011351     0.9984171   -0.0065279     0.9977561   -0.0092895     0.0011990    0.0011418 
   0.006738500     0.0009485    0.0010746     0.9984550   -0.0068426     0.9977164   -0.0094838     0.0012014    0.0010837 
   0.006988000     0.0009554    0.0009977     0.9984660   -0.0070407     0.9976483   -0.0097252     0.0011963    0.0010565 
   0.007237500     0.0009440    0.0009318     0.9984377   -0.0071490     0.9977058   -0.0099150     0.0011906    0.0010009 
   0.007487000     0.0009496    0.0008788     0.9984389   -0.0074610     0.9976650   -0.0101310     0.0011876    0.0009566 
   0.007736500     0.0009326    0.0008278     0.9984229   -0.0076688     0.9976402   -0.0103105     0.0011816    0.0009149 
   0.007986000     0.0009351    0.0007798     0.9983578   -0.0079432     0.9976923   -0.0105252     0.0011814    0.0008760 
   0.008235500     0.0009107    0.0007444     0.9983895   -0.0081597     0.9976068   -0.0107214     0.0011742    0.0008454 
   0.008485000     0.0009199    0.0007061     0.9983535   -0.0084974     0.9975640   -0.0109868     0.0011663    0.0008145 
   0.008734500     0.0009008    0.0006680     0.9983884   -0.0086824     0.9976737   -0.0111936     0.0011562    0.0007849 
   0.008984000     0.0008801    0.0006352     0.9983950   -0.0089282     0.9976723   -0.0114302     0.0011508    0.0007527 
   0.009233500     0.0008700    0.0005952     0.9985060   -0.0092836     0.9976505   -0.0115473     0.0011289    0.0007228 
   0.009483000     0.0008624    0.0005487     0.9983998   -0.0095039     0.9975303   -0.0117889     0.0011353    0.0006939 
   0.009732500     0.0008431    0.0005371     0.9984564   -0.0096844     0.9975554   -0.0121338     0.0011342    0.0006705 
   0.009982000     0.0008279    0.0004992     0.9982920   -0.0099598     0.9975392   -0.0122584     0.0011194    0.0006456 
   0.010231500     0.0008247    0.0004837     0.9984111   -0.0102723     0.9975123   -0.0126351     0.0011065    0.0006308 
   0.010481000     0.0008036    0.0004635     0.9983561   -0.0104333     0.9975328   -0.0128249     0.0011009    0.0006028 
   0.010730500     0.0007981    0.0004411     0.9983866   -0.0106895     0.9975539   -0.0130740     0.0010917    0.0005870 
   0.010980000     0.0007703    0.0004303     0.9983802   -0.0107083     0.9975206   -0.0131674     0.0010810    0.0005622 
   0.011229500     0.0007663    0.0003935     0.9983214   -0.0110504     0.9975042   -0.0134805     0.0010775    0.0005390 
   0.011479000     0.0007426    0.0003662     0.9982516   -0.0113048     0.9974682   -0.0136773     0.0010464    0.0005182 
   0.011728500     0.0007242    0.0003449     0.9984682   -0.0116334     0.9975175   -0.0138728     0.0010518    0.0004920 
   0.011978000     0.0007030    0.0003257     0.9984687   -0.0117596     0.9974975   -0.0140814     0.0010278    0.0004707 
   0.012227500     0.0006763    0.0003285     0.9983603   -0.0119838     0.9974738   -0.0143064     0.0010236    0.0004569 
   0.012477000     0.0006712    0.0002986     0.9983205   -0.0121708     0.9973109   -0.0145697     0.0010076    0.0004393 
   0.012726500     0.0006604    0.0002950     0.9983766   -0.0123752     0.9973379   -0.0148679     0.0010108    0.0004238 
   0.012976000     0.0006517    0.0002827     0.9982361   -0.0126511     0.9975350   -0.0151464     0.0010073    0.0004120 
   0.013225500     0.0006162    0.0002647     0.9982889   -0.0126847     0.9972787   -0.0152598     0.0009996    0.0003712 
   0.013475000     0.0005954    0.0002537     0.9982642   -0.0131171     0.9973810   -0.0154721     0.0009821    0.0003558 
   0.013724500     0.0005732    0.0002460     0.9983562   -0.0134107     0.9973610   -0.0155906     0.0009740    0.0003343 
   0.013974000     0.0005601    0.0002271     0.9983582   -0.0137146     0.9974346   -0.0159414     0.0009738    0.0003286 
   0.014223500     0.0005543    0.0002064     0.9983175   -0.0139834     0.9972200   -0.0162048     0.0009484    0.0003089 
   0.014473000     0.0005224    0.0001963     0.9982958   -0.0141629     0.9971820   -0.0164278     0.0009618    0.0002971 
   0.014722500     0.0004983    0.0001842     0.9982663   -0.0142076     0.9973283   -0.0164750     0.0009161    0.0002804 
   0.014972000     0.0004893    0.0001856     0.9981646   -0.0145306     0.9973128   -0.0170062     0.0009197    0.0002608 
   0.015221500     0.0004658    0.0001754     0.9983825   -0.0146570     0.9972579   -0.0171147     0.0009059    0.0002380 
   0.015471000     0.0004402    0.0001620     0.9982552   -0.0149058     0.9972548   -0.0172538     0.0009056    0.0002210 
   0.015720500     0.0004193    0.0001620     0.9982607   -0.0151919     0.9972755   -0.0175969     0.0009060    0.0002079 
   0.015970000     0.0003930    0.0001490     0.9981396   -0.0153243     0.9971853   -0.0176395     0.0008915    0.0001701 
   0.016219500     0.0003787    0.0001525     0.9981335   -0.0156635     0.9971936   -0.0178823     0.0008817    0.0001802 
   0.016469000     0.0003553    0.0001461     0.9982780   -0.0157821     0.9972657   -0.0180897     0.0008659    0.0001421 
   0.016718500     0.0003395    0.0001457     0.9981909   -0.0162479     0.9971623   -0.0183589     0.0008714    0.0001394 
   0.016968000     0.0003105    0.0001314     0.9982420   -0.0164934     0.9971845   -0.0185131     0.0008539    0.0001099 
   0.017217500     0.0002768    0.0001277     0.9982445   -0.0165441     0.9970839   -0.0186287     0.0008367    0.0000870 
   0.017467000     0.0002534    0.0001319     0.9981764   -0.0168103     0.9971817   -0.0189676     0.0008320    0.0000771 
   0.017716500     0.0002327    0.0001241     0.9981204   -0.0170166     0.9970982   -0.0192931     0.0008141    0.0000642 
   0.017966000     0.0002134    0.0001250     0.9981964   -0.0172647     0.9972262   -0.0194362     0.0007991    0.0000556 
   0.018215500     0.0001865    0.0001195     0.9981064   -0.0172494     0.9970465   -0.0196079     0.0007786    0.0000318 
   0.018465000     0.0001818    0.0001097     0.9980463   -0.0176166     0.9970108   -0.0200363     0.0007781    0.0000181 
   0.018714500     0.0001557    0.0001188     0.9980507   -0.0180493     0.9969337   -0.0201377     0.0007829   -0.0000141 
   0.018964000     0.0001247    0.0001151     0.9980943   -0.0181202     0.9969237   -0.0203353     0.0007779   -0.0000331 
   0.019213500     0.0000962    0.0001229     0.9981732   -0.0182959     0.9970082   -0.0205537     0.0007681   -0.0000354 
   0.019463000     0.0000898    0.0001127     0.9980966   -0.0186196     0.9969907   -0.0208144     0.0007665   -0.0000434 
   0.019712500     0.0000698    0.0001257     0.9981070   -0.0187655     0.9969824   -0.0209777     0.0007626   -0.0000659 
   0.019962000     0.0000558    0.0001181     0.9981617   -0.0192032     0.9969355   -0.0213677     0.0007775   -0.0000753 
   0.020211500     0.0000329    0.0001281     0.9981126   -0.0193720     0.9970094   -0.0215039     0.0007390   -0.0000955 
   0.020461000     0.0000116    0.0001327     0.9980535   -0.0195396     0.9969526   -0.0215966     0.0007394   -0.0001049 
   0.020710500    -0.0000075    0.0001444     0.9981370   -0.0197775     0.9968525   -0.0218100     0.0007203   -0.0001410 
   0.020960000    -0.0000360    0.0001437     0.9981439   -0.0200963     0.9968379   -0.0221117     0.0007180   -0.0001373 
   0.021209500    -0.0000548    0.0001547     0.9982097   -0.0202398     0.9968720   -0.0223029     0.0007190   -0.0001537 
   0.021459000    -0.0000718    0.0001608     0.9981142   -0.0204755     0.9968939   -0.0225503     0.0007117   -0.0001688 
   0.021708500    -0.0001097    0.0001544     0.9981084   -0.0205793     0.9967350   -0.0227547     0.0006948   -0.0001903 
   0.021958000    -0.0001241    0.0001692     0.9980753   -0.0208636     0.9968241   -0.0229353     0.0006891   -0.0002187 
   0.022207500    -0.0001537    0.0001655     0.9981067   -0.0210102     0.9967523   -0.0232472     0.0006894   -0.0002219 
   0.022457000    -0.0001599    0.0001826     0.9980459   -0.0213017     0.9969961   -0.0236761     0.0006914   -0.0002152 
   0.022706500    -0.0001755    0.0001839     0.9979784   -0.0214015     0.9970073   -0.0238116     0.0006741   -0.0002276 
   0.022956000    -0.0001936    0.0001955     0.9980420   -0.0215289     0.9970779   -0.0241199     0.0006837   -0.0002398 
   0.023205500    -0.0002068    0.0001929     0.9980017   -0.0217232     0.9970801   -0.0243369     0.0006730   -0.0002571 
   0.023455000    -0.0002206    0.0002125     0.9979755   -0.0220181     0.9969843   -0.0245554     0.0006758   -0.0002860 
   0.023704500    -0.0002402    0.0002246     0.9979544   -0.0222574     0.9969983   -0.0246954     0.0006731   -0.0002861 
   0.023954000    -0.0002571    0.0002390     0.9979441   -0.0224251     0.9969481   -0.0248805     0.0006730   -0.0003013 
   0.024203500    -0.0002667    0.0002472     0.9979360   -0.0227989     0.9969866   -0.0250528     0.0006741   -0.0003005 
   0.024453000    -0.0002831    0.0002564     0.9980627   -0.0229029     0.9969637   -0.0253350     0.0006628   -0.0003048 
   0.024702500    -0.0002976    0.0002533     0.9979255   -0.0231817     0.9969173   -0.0254447     0.0006395   -0.0003302 
   0.024952000    -0.0003037    0.0002690     0.9978285   -0.0234700     0.9969574   -0.0257640     0.0006414   -0.0003396 
   0.025201500    -0.0003238    0.0003455     0.9983110   -0.0233582     0.9975181   -0.0255673     0.0005830   -0.0003295 
   0.025451000    -0.0003327    0.0002899     0.9977643   -0.0239883     0.9968668   -0.0262161     0.0006564   -0.0003649 
   0.025700500    -0.0003377    0.0003073     0.9977857   -0.0241474     0.9968664   -0.0264514     0.0006633   -0.0003657 
   0.025950000    -0.0003565    0.0003157     0.9978395   -0.0243817     0.9968314   -0.0266164     0.0006561   -0.0003750 
   0.026199500    -0.0003576    0.0003286     0.9977911   -0.0246862     0.9967588   -0.0268033     0.0006456   -0.0004056 
   0.026449000    -0.0003611    0.0003371     0.9978451   -0.0249224     0.9968360   -0.0269177     0.0006384   -0.0004091 
   0.026698500    -0.0003802    0.0003591     0.9979069   -0.0251158     0.9968832   -0.0271867     0.0006434   -0.0004117 
   0.026948000    -0.0003763    0.0003537     0.9977561   -0.0253425     0.9967088   -0.0273902     0.0006467   -0.0004219 
   0.027197500    -0.0003907    0.0003680     0.9978098   -0.0256356     0.9966721   -0.0276403     0.0006542   -0.0004025 
   0.027447000    -0.0004067    0.0003800     0.9978027   -0.0258747     0.9966923   -0.0278457     0.0006536   -0.0004266 
   0.027696500    -0.0004077    0.0003970     0.9977785   -0.0260790     0.9966608   -0.0281278     0.0006647   -0.0004369 
   0.027946000    -0.0004156    0.0004081     0.9977650   -0.0263923     0.9965922   -0.0283385     0.0006688   -0.0004550 
   0.028195500    -0.0004162    0.0004112     0.9978477   -0.0264854     0.9965650   -0.0285437     0.0006612   -0.0004593 
   0.028445000    -0.0004186    0.0004252     0.9977362   -0.0267559     0.9966639   -0.0286761     0.0006652   -0.0004677 
   0.028694500    -0.0004234    0.0004325     0.9977651   -0.0269919     0.9966540   -0.0289708     0.0006784   -0.0004615 
   0.028944000    -0.0004236    0.0004556     0.9978470   -0.0271648     0.9965966   -0.0291298     0.0006934   -0.0004658 
   0.029193500    -0.0004305    0.0004628     0.9978930   -0.0274127     0.9966388   -0.0294054     0.0006985   -0.0004477 
   0.029443000    -0.0004294    0.0004577     0.9978315   -0.0275563     0.9966279   -0.0296903     0.0006995   -0.0004646 
   0.029692500    -0.0004288    0.0004762     0.9977395   -0.0277354     0.9965796   -0.0299605     0.0006970   -0.0004794 
   0.029942000    -0.0004306    0.0004891     0.9977193   -0.0279473     0.9965213   -0.0302081     0.0006983   -0.0004851 
   0.030191500    -0.0004375    0.0005032     0.9977462   -0.0281107     0.9965225   -0.0304117     0.0007055   -0.0004838 
   0.030441000    -0.0004277    0.0005119     0.9976914   -0.0283200     0.9965750   -0.0306866     0.0007053   -0.0004749 
   0.030690500    -0.0004355    0.0005123     0.9976702   -0.0285218     0.9965467   -0.0309562     0.0007302   -0.0004832 
   0.030940000    -0.0004324    0.0005286     0.9977901   -0.0287883     0.9965547   -0.0311197     0.0007349   -0.0004889 
   0.031189500    -0.0004234    0.0005429     0.9976718   -0.0289533     0.9966480   -0.0312961     0.0007302   -0.0004796 
   0.031439000    -0.0004191    0.0005404     0.9975952   -0.0292149     0.9966202   -0.0315554     0.0007455   -0.0004860 
   0.031688500    -0.0004113    0.0005621     0.9976239   -0.0294521     0.9966089   -0.0317071     0.0007473   -0.0004733 
   0.031938000    -0.0004168    0.0005654     0.9975388   -0.0297352     0.9965166   -0.0319343     0.0007630   -0.0004686 
   0.032187500    -0.0003989    0.0005701     0.9975199   -0.0298633     0.9964053   -0.0322722     0.0007829   -0.0004765 
   0.032437000    -0.0003875    0.0005823     0.9975190   -0.0301003     0.9964042   -0.0324215     0.0007853   -0.0004770 
   0.032686500    -0.0003948    0.0006534     0.9975291   -0.0305992     0.9960225   -0.0315950     0.0007948   -0.0005002 
   0.032936000    -0.0003685    0.0006176     0.9975101   -0.0305706     0.9963456   -0.0327653     0.0007787   -0.0004701 
   0.033185500    -0.0003619    0.0006696     0.9974737   -0.0311872     0.9959035   -0.0320696     0.0008357   -0.0005272 
   0.033435000    -0.0003545    0.0006308     0.9974219   -0.0311227     0.9963515   -0.0331700     0.0007879   -0.0004401 
   0.033684500    -0.0003418    0.0006283     0.9974573   -0.0313069     0.9962631   -0.0334017     0.0008119   -0.0004403 
   0.033934000    -0.0003533    0.0006418     0.9974417   -0.0315852     0.9962621   -0.0335542     0.0008283   -0.0004369 
   0.034183500    -0.0003180    0.0006446     0.9974270   -0.0317786     0.9962901   -0.0338257     0.0008405   -0.0004268 
   0.034433000    -0.0003122    0.0006739     0.9974664   -0.0320330     0.9962639   -0.0340214     0.0008320   -0.0004408 
   0.034682500    -0.0002936    0.0006790     0.9974501   -0.0322375     0.9962915   -0.0342228     0.0008466   -0.0004194 
   0.034932000    -0.0002844    0.0006978     0.9974822   -0.0324309     0.9962676   -0.0344161     0.0008587   -0.0004207 
   0.035181500    -0.0002659    0.0006838     0.9973990   -0.0326900     0.9962843   -0.0345695     0.0008788   -0.0004230 
   0.035431000    -0.0002609    0.0006840     0.9973800   -0.0329332     0.9963005   -0.0347303     0.0008854   -0.0004229 
   0.035680500    -0.0002431    0.0006854     0.9973335   -0.0331957     0.9962178   -0.0350958     0.0009098   -0.0004240 
   0.035930000    -0.0002535    0.0006881     0.9973428   -0.0334951     0.9961941   -0.0353330     0.0009339   -0.0004210 
   0.036179500    -0.0002264    0.0007021     0.9973198   -0.0336757     0.9961650   -0.0355294     0.0009340   -0.0004191 
   0.036429000    -0.0002065    0.0007074     0.9973317   -0.0338865     0.9961502   -0.0357856     0.0009377   -0.0003889 
   0.036678500    -0.0001849    0.0007125     0.9974068   -0.0340115     0.9961469   -0.0359702     0.0009516   -0.0003623 
   0.036928000    -0.0001620    0.0007175     0.9973695   -0.0343447     0.9961474   -0.0362017     0.0009680   -0.0003533 
   0.037177500    -0.0001409    0.0007332     0.9974207   -0.0344677     0.9961610   -0.0363729     0.0009710   -0.0003278 
   0.037427000    -0.0001256    0.0007391     0.9974223   -0.0347672     0.9961649   -0.0365399     0.0009781   -0.0003199 
   0.037676500    -0.0001163    0.0007266     0.9973712   -0.0349917     0.9961561   -0.0368691     0.0009770   -0.0003092 
   0.037926000    -0.0001001    0.0007145     0.9973648   -0.0351411     0.9961786   -0.0370251     0.0009953   -0.0003004 
   0.038175500    -0.0000718    0.0007332     0.9972764   -0.0354216     0.9961133   -0.0373077     0.0010258   -0.0003154 
   0.038425000    -0.0000625    0.0007274     0.9972187   -0.0356064     0.9961176   -0.0374834     0.0010404   -0.0002925 
   0.038674500    -0.0000266    0.0007491     0.9973100   -0.0357704     0.9960689   -0.0377732     0.0010468   -0.0002577 
   0.038924000    -0.0000076    0.0007200     0.9973387   -0.0360695     0.9960862   -0.0379487     0.0010576   -0.0002457 
   0.039173500     0.0000100    0.0007120     0.9973162   -0.0362340     0.9961014   -0.0381058     0.0010512   -0.0002332 
   0.039423000     0.0000285    0.0007262     0.9974235   -0.0365245     0.9960062   -0.0382764     0.0010832   -0.0002270 
   0.039672500     0.0000499    0.0007936     0.9973403   -0.0369099     0.9955251   -0.0375821     0.0011429   -0.0001950 
   0.039922000     0.0000465    0.0007272     0.9977245   -0.0366671     0.9968536   -0.0385894     0.0011351   -0.0002092 
   0.040171500     0.0000995    0.0007300     0.9977045   -0.0369227     0.9967875   -0.0387973     0.0011373   -0.0001868 
