! MS46122B
! 1746301/73750021
! 8/7/2023 2:49:02 PM
! C:\USERS\SPEGWAL\DOWNLOADS\SAURABH\REACH\NODES\FRONT END\MEASUREMENTS\MEASURED S-PARAMETER_07-08-2023\MS-3\P2_J4\J4_OFF.S2P
! CHANNEL.1
! TR.MEASUREMENT
! CORRECTED.DATA
# GHZ S RI R 50.0
! FREQ.GHZ         S11RE         S11IM         S21RE         S21IM         S12RE         S12IM         S22RE         S22IM         
!; PortSelection: Port_12
   0.001000000     1.0037890   -0.0067346     0.0000038   -0.0000028     0.0000016   -0.0000024    -0.0036908    0.0029285 
   0.001249500     1.0025290   -0.0060318     0.0000002    0.0000010     0.0000002    0.0000003    -0.0042992    0.0030080 
   0.001499000     1.0022850   -0.0059668    -0.0000016    0.0000011    -0.0000012   -0.0000004    -0.0045345    0.0032460 
   0.001748500     1.0022270   -0.0059884    -0.0000009    0.0000006     0.0000004    0.0000000    -0.0044906    0.0034612 
   0.001998000     1.0022580   -0.0060258    -0.0000004    0.0000000     0.0000002    0.0000001    -0.0043377    0.0035904 
   0.002247500     1.0026530   -0.0066147     0.0000005    0.0000005    -0.0000005   -0.0000002    -0.0039617    0.0034000 
   0.002497000     1.0026180   -0.0066874    -0.0000002    0.0000000    -0.0000002   -0.0000001    -0.0036968    0.0034408 
   0.002746500     1.0026870   -0.0067145     0.0000014   -0.0000002     0.0000008    0.0000009    -0.0034282    0.0034506 
   0.002996000     1.0028660   -0.0066698    -0.0000004   -0.0000008    -0.0000015    0.0000011    -0.0031370    0.0033233 
   0.003245500     1.0028360   -0.0068072    -0.0000004   -0.0000007    -0.0000015    0.0000000    -0.0029055    0.0032505 
   0.003495000     1.0027970   -0.0068251    -0.0000002   -0.0000007     0.0000008    0.0000002    -0.0026614    0.0031404 
   0.003744500     1.0029250   -0.0070115    -0.0000003    0.0000006    -0.0000007    0.0000004    -0.0024572    0.0029648 
   0.003994000     1.0030000   -0.0071396     0.0000003    0.0000005     0.0000003   -0.0000008    -0.0022649    0.0027861 
   0.004243500     1.0029340   -0.0072218    -0.0000009   -0.0000005    -0.0000006    0.0000005    -0.0018511    0.0025064 
   0.004493000     1.0030540   -0.0074377     0.0000001   -0.0000002     0.0000010   -0.0000006    -0.0017160    0.0023874 
   0.004742500     1.0030970   -0.0075319    -0.0000014    0.0000001     0.0000017   -0.0000003    -0.0016143    0.0022772 
   0.004992000     1.0031780   -0.0077647    -0.0000005    0.0000001    -0.0000011    0.0000006    -0.0015205    0.0021386 
   0.005241500     1.0032700   -0.0079872     0.0000001   -0.0000007     0.0000010   -0.0000003    -0.0014399    0.0020121 
   0.005491000     1.0033170   -0.0081882     0.0000006   -0.0000005     0.0000000    0.0000002    -0.0014043    0.0018963 
   0.005740500     1.0033580   -0.0084364     0.0000007   -0.0000004     0.0000006    0.0000000    -0.0013787    0.0018049 
   0.005990000     1.0033550   -0.0087259     0.0000013    0.0000007     0.0000007    0.0000002    -0.0013487    0.0017013 
   0.006239500     1.0033960   -0.0089262    -0.0000003    0.0000000     0.0000007   -0.0000001    -0.0013599    0.0016099 
   0.006489000     1.0035520   -0.0093115     0.0000001   -0.0000001    -0.0000002    0.0000002    -0.0013528    0.0015322 
   0.006738500     1.0035990   -0.0095038     0.0000010    0.0000001    -0.0000023   -0.0000008    -0.0013550    0.0014649 
   0.006988000     1.0035950   -0.0096779     0.0000000    0.0000009     0.0000006    0.0000001    -0.0013661    0.0014127 
   0.007237500     1.0035090   -0.0097825     0.0000008    0.0000003    -0.0000005   -0.0000001    -0.0013722    0.0013673 
   0.007487000     1.0032300   -0.0098080    -0.0000006   -0.0000002     0.0000004   -0.0000003    -0.0013950    0.0013395 
   0.007736500     1.0028840   -0.0097893    -0.0000006   -0.0000001     0.0000005    0.0000007    -0.0014015    0.0012992 
   0.007986000     1.0022770   -0.0096020    -0.0000008    0.0000011     0.0000007   -0.0000001    -0.0014069    0.0012628 
   0.008235500     1.0015300   -0.0096203    -0.0000005    0.0000005    -0.0000005   -0.0000006    -0.0014179    0.0012164 
   0.008485000     1.0008530   -0.0094260     0.0000002    0.0000007     0.0000007    0.0000011    -0.0014339    0.0011923 
   0.008734500     1.0001200   -0.0092371    -0.0000012    0.0000008    -0.0000004    0.0000014    -0.0014537    0.0011489 
   0.008984000     0.9994423   -0.0091127    -0.0000003    0.0000000     0.0000000   -0.0000006    -0.0014517    0.0011227 
   0.009233500     0.9972199   -0.0079141    -0.0000008   -0.0000012     0.0000010   -0.0000010    -0.0014757    0.0010960 
   0.009483000     0.9972442   -0.0080697     0.0000010    0.0000002     0.0000006    0.0000003    -0.0014982    0.0010731 
   0.009732500     0.9972829   -0.0083305     0.0000006   -0.0000014    -0.0000002   -0.0000003    -0.0014987    0.0010531 
   0.009982000     0.9972926   -0.0083990    -0.0000006    0.0000004    -0.0000008    0.0000002    -0.0015035    0.0010456 
   0.010231500     0.9971687   -0.0085844    -0.0000008    0.0000002    -0.0000002    0.0000009    -0.0015188    0.0010409 
   0.010481000     0.9971275   -0.0087483     0.0000007   -0.0000001     0.0000005   -0.0000002    -0.0015289    0.0010264 
   0.010730500     0.9970929   -0.0090641    -0.0000004   -0.0000003     0.0000000   -0.0000001    -0.0015299    0.0010241 
   0.010980000     0.9971126   -0.0092815    -0.0000010   -0.0000004     0.0000009   -0.0000007    -0.0015455    0.0010068 
   0.011229500     0.9970633   -0.0093769    -0.0000001    0.0000001     0.0000003   -0.0000006    -0.0015361    0.0009980 
   0.011479000     0.9970236   -0.0096205     0.0000007    0.0000002    -0.0000008    0.0000009    -0.0015488    0.0009847 
   0.011728500     0.9971159   -0.0096982     0.0000002    0.0000010    -0.0000014   -0.0000013    -0.0015639    0.0009626 
   0.011978000     0.9970341   -0.0098578     0.0000009    0.0000014     0.0000006    0.0000005    -0.0015669    0.0009670 
   0.012227500     0.9970921   -0.0100832     0.0000001   -0.0000004    -0.0000021   -0.0000005    -0.0015886    0.0009421 
   0.012477000     0.9970446   -0.0103144     0.0000003    0.0000017     0.0000012   -0.0000013    -0.0016016    0.0009271 
   0.012726500     0.9970919   -0.0104103    -0.0000001    0.0000001     0.0000004    0.0000004    -0.0016032    0.0009132 
   0.012976000     0.9970337   -0.0105666     0.0000007    0.0000001    -0.0000012   -0.0000001    -0.0015942    0.0008916 
   0.013225500     0.9969814   -0.0108560    -0.0000004   -0.0000010     0.0000012    0.0000002    -0.0016092    0.0008842 
   0.013475000     0.9970455   -0.0110053     0.0000011   -0.0000008    -0.0000003   -0.0000001    -0.0016194    0.0008670 
   0.013724500     0.9969132   -0.0110997     0.0000002    0.0000002    -0.0000004   -0.0000010    -0.0016220    0.0008634 
   0.013974000     0.9969510   -0.0113559     0.0000005    0.0000004     0.0000007   -0.0000008    -0.0016279    0.0008520 
   0.014223500     0.9968893   -0.0115609    -0.0000004   -0.0000001     0.0000007    0.0000012    -0.0016358    0.0008517 
   0.014473000     0.9968016   -0.0117059    -0.0000004    0.0000009     0.0000000    0.0000003    -0.0016475    0.0008598 
   0.014722500     0.9967284   -0.0118707    -0.0000011    0.0000007     0.0000009    0.0000002    -0.0016364    0.0008433 
   0.014972000     0.9968104   -0.0121240     0.0000008    0.0000003    -0.0000024   -0.0000014    -0.0016381    0.0008197 
   0.015221500     0.9968007   -0.0122067    -0.0000002   -0.0000002     0.0000009   -0.0000004    -0.0016438    0.0008229 
   0.015471000     0.9967923   -0.0123287    -0.0000001    0.0000011    -0.0000005    0.0000007    -0.0016516    0.0008255 
   0.015720500     0.9966685   -0.0125232     0.0000006   -0.0000005    -0.0000007   -0.0000012    -0.0016658    0.0008227 
   0.015970000     0.9966571   -0.0126513    -0.0000007    0.0000001     0.0000012    0.0000006    -0.0016643    0.0008039 
   0.016219500     0.9965515   -0.0129550    -0.0000011    0.0000004    -0.0000007    0.0000003    -0.0016758    0.0007996 
   0.016469000     0.9965783   -0.0130105    -0.0000006   -0.0000011    -0.0000003    0.0000017    -0.0016577    0.0007937 
   0.016718500     0.9966142   -0.0132498     0.0000012    0.0000008    -0.0000013    0.0000006    -0.0016732    0.0007823 
   0.016968000     0.9967129   -0.0134772     0.0000005   -0.0000001     0.0000014   -0.0000004    -0.0016727    0.0007551 
   0.017217500     0.9966010   -0.0135809     0.0000007    0.0000003    -0.0000005    0.0000005    -0.0016780    0.0007624 
   0.017467000     0.9965613   -0.0137721    -0.0000007   -0.0000005    -0.0000009   -0.0000003    -0.0016700    0.0007600 
   0.017716500     0.9966444   -0.0139375     0.0000002   -0.0000002     0.0000002    0.0000008    -0.0016791    0.0007543 
   0.017966000     0.9965832   -0.0141823     0.0000002   -0.0000005     0.0000000    0.0000007    -0.0016820    0.0007392 
   0.018215500     0.9966828   -0.0144471     0.0000000    0.0000010    -0.0000009   -0.0000002    -0.0016676    0.0007242 
   0.018465000     0.9966218   -0.0144697     0.0000002    0.0000004     0.0000000   -0.0000005    -0.0016644    0.0007123 
   0.018714500     0.9965535   -0.0146378    -0.0000006    0.0000007    -0.0000014    0.0000002    -0.0016703    0.0007149 
   0.018964000     0.9965075   -0.0148576     0.0000002    0.0000009    -0.0000008   -0.0000016    -0.0016617    0.0007092 
   0.019213500     0.9965445   -0.0150867    -0.0000006   -0.0000003     0.0000016    0.0000003    -0.0016503    0.0006937 
   0.019463000     0.9963802   -0.0152812    -0.0000008    0.0000008     0.0000019    0.0000014    -0.0016627    0.0006697 
   0.019712500     0.9964355   -0.0153909    -0.0000003    0.0000003     0.0000002    0.0000000    -0.0016487    0.0006763 
   0.019962000     0.9963580   -0.0154778    -0.0000006    0.0000002    -0.0000007   -0.0000006    -0.0016503    0.0006750 
   0.020211500     0.9963523   -0.0156856     0.0000003    0.0000021     0.0000004    0.0000004    -0.0016407    0.0006690 
   0.020461000     0.9963571   -0.0158087    -0.0000006    0.0000003    -0.0000001   -0.0000003    -0.0016437    0.0006519 
   0.020710500     0.9963740   -0.0160043     0.0000018   -0.0000008    -0.0000005   -0.0000001    -0.0016474    0.0006472 
   0.020960000     0.9963529   -0.0162163     0.0000007   -0.0000006     0.0000007    0.0000004    -0.0016379    0.0006409 
   0.021209500     0.9962136   -0.0164016    -0.0000001   -0.0000010    -0.0000002   -0.0000006    -0.0016372    0.0006142 
   0.021459000     0.9962341   -0.0165153     0.0000004    0.0000010     0.0000006    0.0000010    -0.0016284    0.0006210 
   0.021708500     0.9962082   -0.0167784     0.0000007   -0.0000003     0.0000005    0.0000007    -0.0016181    0.0006064 
   0.021958000     0.9962913   -0.0169837     0.0000003    0.0000002    -0.0000008    0.0000009    -0.0016162    0.0006087 
   0.022207500     0.9963249   -0.0171708     0.0000009   -0.0000004     0.0000000    0.0000005    -0.0016065    0.0005899 
   0.022457000     0.9963630   -0.0173375     0.0000003    0.0000007     0.0000004   -0.0000003    -0.0016414    0.0006156 
   0.022706500     0.9963250   -0.0174980     0.0000012    0.0000001     0.0000014   -0.0000002    -0.0016231    0.0006030 
   0.022956000     0.9962069   -0.0176894    -0.0000001   -0.0000001     0.0000007    0.0000010    -0.0016108    0.0005968 
   0.023205500     0.9963114   -0.0178647    -0.0000007   -0.0000011    -0.0000007    0.0000004    -0.0016010    0.0006129 
   0.023455000     0.9961752   -0.0179389    -0.0000012    0.0000001     0.0000014    0.0000003    -0.0016018    0.0005834 
   0.023704500     0.9961691   -0.0180976    -0.0000004    0.0000003    -0.0000001    0.0000005    -0.0015832    0.0005881 
   0.023954000     0.9960515   -0.0182393     0.0000010    0.0000015     0.0000010    0.0000010    -0.0015756    0.0005743 
   0.024203500     0.9960863   -0.0186701     0.0000001   -0.0000001    -0.0000013    0.0000003    -0.0015618    0.0005719 
   0.024453000     0.9961039   -0.0187473     0.0000003   -0.0000005    -0.0000002    0.0000008    -0.0015504    0.0005625 
   0.024702500     0.9960523   -0.0188843    -0.0000006    0.0000015    -0.0000006    0.0000003    -0.0015427    0.0005562 
   0.024952000     0.9960471   -0.0191060     0.0000005   -0.0000003    -0.0000003   -0.0000009    -0.0015325    0.0005569 
   0.025201500     0.9964899   -0.0190306     0.0000002   -0.0000003     0.0000003    0.0000008    -0.0015676    0.0005694 
   0.025451000     0.9961125   -0.0192984    -0.0000002    0.0000007    -0.0000006   -0.0000002    -0.0015105    0.0005487 
   0.025700500     0.9960771   -0.0195792     0.0000002   -0.0000008     0.0000000   -0.0000003    -0.0015157    0.0005301 
   0.025950000     0.9960704   -0.0197775     0.0000003   -0.0000002     0.0000003    0.0000004    -0.0014937    0.0005338 
   0.026199500     0.9959993   -0.0198967    -0.0000006    0.0000002     0.0000009   -0.0000009    -0.0014930    0.0005225 
   0.026449000     0.9959937   -0.0200549     0.0000000   -0.0000006     0.0000012   -0.0000008    -0.0014791    0.0005265 
   0.026698500     0.9960048   -0.0202013     0.0000012    0.0000007     0.0000001   -0.0000008    -0.0014721    0.0005158 
   0.026948000     0.9958830   -0.0203740     0.0000010    0.0000007     0.0000003   -0.0000008    -0.0014645    0.0005114 
   0.027197500     0.9959527   -0.0205969    -0.0000005    0.0000009     0.0000009    0.0000004    -0.0014421    0.0005082 
   0.027447000     0.9959507   -0.0206761    -0.0000011   -0.0000008     0.0000007   -0.0000009    -0.0014252    0.0005081 
   0.027696500     0.9958989   -0.0208751    -0.0000001   -0.0000001     0.0000003   -0.0000001    -0.0014213    0.0005061 
   0.027946000     0.9959916   -0.0210876    -0.0000005   -0.0000009     0.0000007    0.0000005    -0.0013992    0.0005029 
   0.028195500     0.9958572   -0.0211392     0.0000004   -0.0000001    -0.0000004   -0.0000011    -0.0013975    0.0004875 
   0.028445000     0.9959121   -0.0212847    -0.0000004    0.0000011     0.0000006    0.0000008    -0.0013689    0.0004970 
   0.028694500     0.9957252   -0.0214392    -0.0000007   -0.0000004    -0.0000009   -0.0000002    -0.0013584    0.0004856 
   0.028944000     0.9956495   -0.0216672    -0.0000001    0.0000001    -0.0000014   -0.0000004    -0.0013425    0.0005007 
   0.029193500     0.9957487   -0.0217606    -0.0000008   -0.0000001    -0.0000004    0.0000006    -0.0013235    0.0004974 
   0.029443000     0.9956301   -0.0220336     0.0000006    0.0000014    -0.0000002    0.0000001    -0.0013099    0.0004889 
   0.029692500     0.9956569   -0.0224158     0.0000003   -0.0000009     0.0000005   -0.0000009    -0.0012942    0.0005052 
   0.029942000     0.9955891   -0.0226255     0.0000001   -0.0000001    -0.0000001    0.0000008    -0.0012749    0.0004960 
   0.030191500     0.9956286   -0.0225784     0.0000007    0.0000001    -0.0000002   -0.0000003    -0.0012566    0.0004845 
   0.030441000     0.9955743   -0.0228414    -0.0000004    0.0000016    -0.0000016   -0.0000003    -0.0012486    0.0004902 
   0.030690500     0.9956148   -0.0228053    -0.0000011    0.0000007     0.0000008    0.0000007    -0.0012286    0.0004832 
   0.030940000     0.9956162   -0.0230552    -0.0000007    0.0000002    -0.0000007    0.0000002    -0.0012207    0.0004941 
   0.031189500     0.9956373   -0.0231538    -0.0000007   -0.0000010     0.0000007    0.0000005    -0.0012043    0.0004992 
   0.031439000     0.9956365   -0.0233770     0.0000001    0.0000011    -0.0000010    0.0000005    -0.0011916    0.0004948 
   0.031688500     0.9955799   -0.0235410    -0.0000007    0.0000001     0.0000003   -0.0000006    -0.0011848    0.0004957 
   0.031938000     0.9956046   -0.0237785     0.0000015   -0.0000008     0.0000007   -0.0000008    -0.0011644    0.0005028 
   0.032187500     0.9956358   -0.0238024     0.0000009    0.0000006     0.0000008    0.0000001    -0.0011565    0.0004951 
   0.032437000     0.9955660   -0.0241121     0.0000003    0.0000006     0.0000004   -0.0000012    -0.0011302    0.0005048 
   0.032686500     0.9956183   -0.0240358     0.0000001   -0.0000002     0.0000007    0.0000004    -0.0010979    0.0004537 
   0.032936000     0.9955903   -0.0244708    -0.0000007    0.0000000     0.0000009    0.0000004    -0.0010888    0.0005280 
   0.033185500     0.9955659   -0.0244150     0.0000009    0.0000003    -0.0000002    0.0000001    -0.0010557    0.0004650 
   0.033435000     0.9955483   -0.0247737    -0.0000011    0.0000001     0.0000001    0.0000002    -0.0010553    0.0005277 
   0.033684500     0.9954757   -0.0250567    -0.0000001   -0.0000010     0.0000004   -0.0000003    -0.0010269    0.0005439 
   0.033934000     0.9954394   -0.0252219    -0.0000013   -0.0000009    -0.0000004    0.0000002    -0.0010048    0.0005452 
   0.034183500     0.9955553   -0.0253373     0.0000002    0.0000002     0.0000000   -0.0000008    -0.0009901    0.0005515 
   0.034433000     0.9954976   -0.0254524    -0.0000002    0.0000012     0.0000004    0.0000007    -0.0009895    0.0005719 
   0.034682500     0.9954600   -0.0257250    -0.0000001   -0.0000006     0.0000006   -0.0000003    -0.0009680    0.0005821 
   0.034932000     0.9954939   -0.0258406    -0.0000003    0.0000000    -0.0000016   -0.0000007    -0.0009497    0.0005748 
   0.035181500     0.9955178   -0.0259964     0.0000005   -0.0000012    -0.0000001    0.0000009    -0.0009352    0.0005870 
   0.035431000     0.9955816   -0.0261621     0.0000008   -0.0000011    -0.0000007   -0.0000010    -0.0009189    0.0005948 
   0.035680500     0.9954796   -0.0262440     0.0000000   -0.0000006     0.0000006    0.0000003    -0.0008852    0.0006136 
   0.035930000     0.9954530   -0.0264503     0.0000010    0.0000014     0.0000005    0.0000002    -0.0008864    0.0006099 
   0.036179500     0.9954464   -0.0266753     0.0000004   -0.0000003     0.0000014    0.0000000    -0.0008627    0.0006101 
   0.036429000     0.9954872   -0.0268280    -0.0000009   -0.0000008     0.0000012    0.0000002    -0.0008529    0.0006294 
   0.036678500     0.9954343   -0.0270800    -0.0000003    0.0000007    -0.0000013    0.0000000    -0.0008409    0.0006405 
   0.036928000     0.9953237   -0.0273156    -0.0000010    0.0000014    -0.0000007   -0.0000006    -0.0008061    0.0006397 
   0.037177500     0.9953781   -0.0275855    -0.0000004   -0.0000009     0.0000000   -0.0000001    -0.0007908    0.0006641 
   0.037427000     0.9954014   -0.0276100    -0.0000003   -0.0000010     0.0000001    0.0000003    -0.0007609    0.0006834 
   0.037676500     0.9953672   -0.0277655     0.0000003    0.0000008     0.0000016   -0.0000002    -0.0007397    0.0006855 
   0.037926000     0.9953944   -0.0280018     0.0000009    0.0000016     0.0000009   -0.0000008    -0.0007159    0.0007096 
   0.038175500     0.9954073   -0.0281777    -0.0000017    0.0000000     0.0000006   -0.0000008    -0.0006951    0.0007209 
   0.038425000     0.9954283   -0.0282842     0.0000001   -0.0000003    -0.0000005    0.0000000    -0.0006765    0.0007248 
   0.038674500     0.9954663   -0.0284085    -0.0000016   -0.0000001    -0.0000007    0.0000019    -0.0006612    0.0007639 
   0.038924000     0.9953878   -0.0286223     0.0000009    0.0000010     0.0000004    0.0000004    -0.0006512    0.0007800 
   0.039173500     0.9954011   -0.0287926     0.0000009    0.0000004     0.0000011    0.0000008    -0.0006289    0.0007948 
   0.039423000     0.9953756   -0.0290198    -0.0000003    0.0000010    -0.0000004   -0.0000004    -0.0006026    0.0008117 
   0.039672500     0.9954672   -0.0288964    -0.0000006    0.0000001    -0.0000005    0.0000014    -0.0005450    0.0007695 
   0.039922000     0.9956295   -0.0291168     0.0000008   -0.0000004     0.0000004   -0.0000013    -0.0005979    0.0007622 
   0.040171500     0.9956871   -0.0292514     0.0000008    0.0000014     0.0000001    0.0000006    -0.0005743    0.0007958 
