! COPPER MOUNTAIN TECHNOLOGIES, PLANAR TR1300/1, 00071119, 20.2.2/1.0
! Date: 7/24/2023 9:05:01 AM
! Data: Format [Calibration Info]
! Freq          	S11: Re/Im F1                  
# HZ S RI R 50
5.00000000E+07	 5.50258614E-03	-7.92983849E-03
5.00122080E+07	 5.50067512E-03	-7.93013931E-03
5.00244160E+07	 5.50113889E-03	-7.93602051E-03
5.00366241E+07	 5.49175892E-03	-7.93515101E-03
5.00488321E+07	 5.49308888E-03	-7.93960038E-03
5.00610401E+07	 5.49068518E-03	-7.94295051E-03
5.00732481E+07	 5.49075801E-03	-7.94210075E-03
5.00854562E+07	 5.49283439E-03	-7.94604750E-03
5.00976642E+07	 5.48644178E-03	-7.95066506E-03
5.01098722E+07	 5.48558489E-03	-7.94869309E-03
5.01220802E+07	 5.48409447E-03	-7.95383632E-03
5.01342883E+07	 5.47944713E-03	-7.95707640E-03
5.01464963E+07	 5.47834134E-03	-7.95803189E-03
5.01587043E+07	 5.47473963E-03	-7.95800244E-03
5.01709123E+07	 5.47732651E-03	-7.96319243E-03
5.01831204E+07	 5.47553554E-03	-7.96654674E-03
5.01953284E+07	 5.47663612E-03	-7.96816694E-03
5.02075364E+07	 5.47005214E-03	-7.97243793E-03
5.02197444E+07	 5.46421673E-03	-7.97814843E-03
5.02319525E+07	 5.46567882E-03	-7.97839632E-03
5.02441605E+07	 5.46106843E-03	-7.97484547E-03
5.02563685E+07	 5.46175108E-03	-7.98310819E-03
5.02685765E+07	 5.46246008E-03	-7.98451030E-03
5.02807846E+07	 5.46057134E-03	-7.98673118E-03
5.02929926E+07	 5.46121562E-03	-7.99181285E-03
5.03052006E+07	 5.45326146E-03	-7.98962654E-03
5.03174086E+07	 5.45131808E-03	-7.99522476E-03
5.03296167E+07	 5.45194683E-03	-7.99224451E-03
5.03418247E+07	 5.44711233E-03	-7.99879951E-03
5.03540327E+07	 5.44861720E-03	-8.00226932E-03
5.03662407E+07	 5.44580429E-03	-8.00102600E-03
5.03784488E+07	 5.44498240E-03	-8.00557286E-03
5.03906568E+07	 5.43929672E-03	-8.00851474E-03
5.04028648E+07	 5.43974605E-03	-8.00935752E-03
5.04150728E+07	 5.44091721E-03	-8.01286206E-03
5.04272809E+07	 5.43426749E-03	-8.01722175E-03
5.04394889E+07	 5.43279940E-03	-8.02142757E-03
5.04516969E+07	 5.42980460E-03	-8.02156873E-03
5.04639049E+07	 5.42891106E-03	-8.02339479E-03
5.04761130E+07	 5.42986019E-03	-8.02978012E-03
5.04883210E+07	 5.42812528E-03	-8.02805768E-03
5.05005290E+07	 5.42707792E-03	-8.03272407E-03
5.05127370E+07	 5.42540022E-03	-8.03379413E-03
5.05249451E+07	 5.42158480E-03	-8.04039470E-03
5.05371531E+07	 5.42147603E-03	-8.03458875E-03
5.05493611E+07	 5.42075364E-03	-8.04153703E-03
5.05615691E+07	 5.41799497E-03	-8.04295771E-03
5.05737772E+07	 5.41547125E-03	-8.04691051E-03
5.05859852E+07	 5.41109792E-03	-8.04905557E-03
5.05981932E+07	 5.41217437E-03	-8.05450556E-03
5.06104012E+07	 5.40948251E-03	-8.05171129E-03
5.06226093E+07	 5.40607116E-03	-8.05623470E-03
5.06348173E+07	 5.40471466E-03	-8.05509615E-03
5.06470253E+07	 5.40367724E-03	-8.05604852E-03
5.06592333E+07	 5.39986333E-03	-8.05753202E-03
5.06714414E+07	 5.39744027E-03	-8.06780961E-03
5.06836494E+07	 5.39841480E-03	-8.06794310E-03
5.06958574E+07	 5.39166518E-03	-8.07255633E-03
5.07080654E+07	 5.39297625E-03	-8.07267175E-03
5.07202735E+07	 5.39210160E-03	-8.07831021E-03
5.07324815E+07	 5.38895941E-03	-8.07512167E-03
5.07446895E+07	 5.38898688E-03	-8.08247982E-03
5.07568975E+07	 5.38716965E-03	-8.08455248E-03
5.07691056E+07	 5.38173834E-03	-8.08896092E-03
5.07813136E+07	 5.38274586E-03	-8.08701973E-03
5.07935216E+07	 5.37957390E-03	-8.09102117E-03
5.08057296E+07	 5.37805694E-03	-8.09581573E-03
5.08179377E+07	 5.37450057E-03	-8.09371912E-03
5.08301457E+07	 5.37389720E-03	-8.10372759E-03
5.08423537E+07	 5.37310417E-03	-8.10027969E-03
5.08545617E+07	 5.36824063E-03	-8.10592758E-03
5.08667698E+07	 5.36614056E-03	-8.10572016E-03
5.08789778E+07	 5.36512421E-03	-8.10905228E-03
5.08911858E+07	 5.36209810E-03	-8.11135329E-03
5.09033938E+07	 5.36316862E-03	-8.11558302E-03
5.09156019E+07	 5.36532628E-03	-8.12001346E-03
5.09278099E+07	 5.35499545E-03	-8.11655885E-03
5.09400179E+07	 5.35613477E-03	-8.12041521E-03
5.09522259E+07	 5.35553068E-03	-8.12387877E-03
5.09644340E+07	 5.35289282E-03	-8.12161484E-03
5.09766420E+07	 5.35185091E-03	-8.12701201E-03
5.09888500E+07	 5.34922211E-03	-8.13350469E-03
5.10010580E+07	 5.34788690E-03	-8.13713247E-03
5.10132661E+07	 5.34255645E-03	-8.13491217E-03
5.10254741E+07	 5.34181385E-03	-8.13911271E-03
5.10376821E+07	 5.34358816E-03	-8.14116492E-03
5.10498901E+07	 5.33963895E-03	-8.14535536E-03
5.10620982E+07	 5.34256441E-03	-8.14687562E-03
5.10743062E+07	 5.33934206E-03	-8.15147608E-03
5.10865142E+07	 5.33396913E-03	-8.14597065E-03
5.10987222E+07	 5.33749746E-03	-8.15079154E-03
5.11109303E+07	 5.33608014E-03	-8.15256580E-03
5.11231383E+07	 5.32944403E-03	-8.15435637E-03
5.11353463E+07	 5.32622342E-03	-8.16042894E-03
5.11475543E+07	 5.33014196E-03	-8.15879796E-03
5.11597624E+07	 5.32714298E-03	-8.16775892E-03
5.11719704E+07	 5.32548993E-03	-8.16696765E-03
5.11841784E+07	 5.32502658E-03	-8.17305167E-03
5.11963864E+07	 5.32634618E-03	-8.17506966E-03
5.12085944E+07	 5.32093496E-03	-8.17623006E-03
5.12208025E+07	 5.32335724E-03	-8.17966627E-03
5.12330105E+07	 5.31668018E-03	-8.17753205E-03
5.12452185E+07	 5.31966767E-03	-8.18436019E-03
5.12574265E+07	 5.31597406E-03	-8.19039038E-03
5.12696346E+07	 5.31527540E-03	-8.18983961E-03
5.12818426E+07	 5.31255719E-03	-8.18786864E-03
5.12940506E+07	 5.31036837E-03	-8.20006494E-03
5.13062586E+07	 5.31355347E-03	-8.19976561E-03
5.13184667E+07	 5.30874309E-03	-8.19399445E-03
5.13306747E+07	 5.30448924E-03	-8.20045305E-03
5.13428827E+07	 5.30706971E-03	-8.20333026E-03
5.13550907E+07	 5.30499119E-03	-8.20667816E-03
5.13672988E+07	 5.30682858E-03	-8.20741910E-03
5.13795068E+07	 5.29901765E-03	-8.21513631E-03
5.13917148E+07	 5.29758595E-03	-8.20986191E-03
5.14039228E+07	 5.30059126E-03	-8.21799226E-03
5.14161309E+07	 5.29635444E-03	-8.21869937E-03
5.14283389E+07	 5.29375850E-03	-8.22395517E-03
5.14405469E+07	 5.29409563E-03	-8.22309018E-03
5.14527549E+07	 5.29313394E-03	-8.22992344E-03
5.14649630E+07	 5.29041190E-03	-8.23002368E-03
5.14771710E+07	 5.28760675E-03	-8.22853756E-03
5.14893790E+07	 5.28635735E-03	-8.23273238E-03
5.15015870E+07	 5.28305166E-03	-8.24479309E-03
5.15137951E+07	 5.28598108E-03	-8.24085388E-03
5.15260031E+07	 5.28532494E-03	-8.24239039E-03
5.15382111E+07	 5.28351192E-03	-8.24785071E-03
5.15504191E+07	 5.27851177E-03	-8.24755562E-03
5.15626272E+07	 5.27704142E-03	-8.24915195E-03
5.15748352E+07	 5.27870960E-03	-8.25162107E-03
5.15870432E+07	 5.27477560E-03	-8.25182413E-03
5.15992512E+07	 5.26678371E-03	-8.25755390E-03
5.16114593E+07	 5.27298286E-03	-8.26165821E-03
5.16236673E+07	 5.27277383E-03	-8.26462738E-03
5.16358753E+07	 5.26913784E-03	-8.26472464E-03
5.16480833E+07	 5.26885574E-03	-8.26823213E-03
5.16602914E+07	 5.26249119E-03	-8.27072068E-03
5.16724994E+07	 5.26221049E-03	-8.27486105E-03
5.16847074E+07	 5.26475074E-03	-8.27689018E-03
5.16969154E+07	 5.26342443E-03	-8.27919053E-03
5.17091235E+07	 5.26135540E-03	-8.27733254E-03
5.17213315E+07	 5.25932403E-03	-8.28414316E-03
5.17335395E+07	 5.26180626E-03	-8.28363701E-03
5.17457475E+07	 5.25494254E-03	-8.28436904E-03
5.17579556E+07	 5.25394894E-03	-8.29190393E-03
5.17701636E+07	 5.24963163E-03	-8.29278291E-03
5.17823716E+07	 5.25109288E-03	-8.29627146E-03
5.17945796E+07	 5.24928708E-03	-8.29527280E-03
5.18067877E+07	 5.24571117E-03	-8.29708110E-03
5.18189957E+07	 5.24876395E-03	-8.30536385E-03
5.18312037E+07	 5.24595545E-03	-8.30700939E-03
5.18434117E+07	 5.24729444E-03	-8.30694851E-03
5.18556198E+07	 5.24256649E-03	-8.30796064E-03
5.18678278E+07	 5.24149923E-03	-8.31275906E-03
5.18800358E+07	 5.23872914E-03	-8.31625467E-03
5.18922438E+07	 5.23525879E-03	-8.31626406E-03
5.19044519E+07	 5.23354723E-03	-8.31715056E-03
5.19166599E+07	 5.23503018E-03	-8.32499652E-03
5.19288679E+07	 5.23131692E-03	-8.32603174E-03
5.19410759E+07	 5.23400387E-03	-8.32546121E-03
5.19532840E+07	 5.22719476E-03	-8.32957717E-03
5.19654920E+07	 5.23256074E-03	-8.33283587E-03
5.19777000E+07	 5.22441036E-03	-8.34227174E-03
5.19899080E+07	 5.22497359E-03	-8.33794324E-03
5.20021161E+07	 5.22693944E-03	-8.34188530E-03
5.20143241E+07	 5.22249017E-03	-8.34338980E-03
5.20265321E+07	 5.22159218E-03	-8.34339077E-03
5.20387401E+07	 5.21540110E-03	-8.34655915E-03
5.20509482E+07	 5.21331957E-03	-8.35313606E-03
5.20631562E+07	 5.21200488E-03	-8.34805198E-03
5.20753642E+07	 5.21154080E-03	-8.35764983E-03
5.20875722E+07	 5.21060075E-03	-8.35419464E-03
5.20997803E+07	 5.20972644E-03	-8.35885101E-03
5.21119883E+07	 5.20445074E-03	-8.36171359E-03
5.21241963E+07	 5.20592576E-03	-8.36528766E-03
5.21364043E+07	 5.20145939E-03	-8.36508805E-03
5.21486124E+07	 5.19631694E-03	-8.37031500E-03
5.21608204E+07	 5.20255189E-03	-8.37179560E-03
5.21730284E+07	 5.19615371E-03	-8.37556025E-03
5.21852364E+07	 5.19328974E-03	-8.37682140E-03
5.21974445E+07	 5.19344421E-03	-8.37709986E-03
5.22096525E+07	 5.19153835E-03	-8.38152237E-03
5.22218605E+07	 5.18655028E-03	-8.38021211E-03
5.22340685E+07	 5.18417698E-03	-8.38236565E-03
5.22462766E+07	 5.18641994E-03	-8.38806047E-03
5.22584846E+07	 5.18398217E-03	-8.39063856E-03
5.22706926E+07	 5.18323489E-03	-8.39165393E-03
5.22829006E+07	 5.17874930E-03	-8.39344333E-03
5.22951087E+07	 5.17770403E-03	-8.39984365E-03
5.23073167E+07	 5.17565501E-03	-8.40312757E-03
5.23195247E+07	 5.17379957E-03	-8.40240952E-03
5.23317327E+07	 5.17647770E-03	-8.40111817E-03
5.23439408E+07	 5.16714711E-03	-8.40424795E-03
5.23561488E+07	 5.17152696E-03	-8.40798229E-03
5.23683568E+07	 5.16603225E-03	-8.41033946E-03
5.23805648E+07	 5.16143373E-03	-8.41536401E-03
5.23927728E+07	 5.16123775E-03	-8.41896270E-03
5.24049809E+07	 5.16442810E-03	-8.42040337E-03
5.24171889E+07	 5.15747103E-03	-8.41760860E-03
5.24293969E+07	 5.15462968E-03	-8.41931119E-03
5.24416049E+07	 5.15416076E-03	-8.42419803E-03
5.24538130E+07	 5.15299347E-03	-8.42490625E-03
5.24660210E+07	 5.15126191E-03	-8.42734506E-03
5.24782290E+07	 5.15206280E-03	-8.43177256E-03
5.24904370E+07	 5.14739031E-03	-8.43872697E-03
5.25026451E+07	 5.14994098E-03	-8.44212455E-03
5.25148531E+07	 5.14230375E-03	-8.44246474E-03
5.25270611E+07	 5.13981441E-03	-8.44489324E-03
5.25392691E+07	 5.13878690E-03	-8.44471566E-03
5.25514772E+07	 5.13785935E-03	-8.44499616E-03
5.25636852E+07	 5.13525873E-03	-8.44869365E-03
5.25758932E+07	 5.13313406E-03	-8.45162931E-03
5.25881012E+07	 5.13222505E-03	-8.44691003E-03
5.26003093E+07	 5.12759235E-03	-8.45729506E-03
5.26125173E+07	 5.12848689E-03	-8.45921119E-03
5.26247253E+07	 5.12657397E-03	-8.45962692E-03
5.26369333E+07	 5.12141063E-03	-8.46421399E-03
5.26491414E+07	 5.12265472E-03	-8.46850857E-03
5.26613494E+07	 5.12168097E-03	-8.46337772E-03
5.26735574E+07	 5.11968295E-03	-8.46536462E-03
5.26857654E+07	 5.11794393E-03	-8.47144568E-03
5.26979735E+07	 5.11641286E-03	-8.47369727E-03
5.27101815E+07	 5.11199412E-03	-8.47609741E-03
5.27223895E+07	 5.10879441E-03	-8.48282910E-03
5.27345975E+07	 5.10793784E-03	-8.47884002E-03
5.27468056E+07	 5.10564040E-03	-8.48394041E-03
5.27590136E+07	 5.10858584E-03	-8.48669686E-03
5.27712216E+07	 5.10341850E-03	-8.48684101E-03
5.27834296E+07	 5.10335285E-03	-8.49539057E-03
5.27956377E+07	 5.10051846E-03	-8.49194398E-03
5.28078457E+07	 5.10200739E-03	-8.49561848E-03
5.28200537E+07	 5.09710569E-03	-8.49691510E-03
5.28322617E+07	 5.09182841E-03	-8.49689931E-03
5.28444698E+07	 5.09261853E-03	-8.50367028E-03
5.28566778E+07	 5.09173534E-03	-8.50254929E-03
5.28688858E+07	 5.09094201E-03	-8.51292694E-03
5.28810938E+07	 5.08285267E-03	-8.51262451E-03
5.28933019E+07	 5.07988108E-03	-8.51124218E-03
5.29055099E+07	 5.08120691E-03	-8.51402414E-03
5.29177179E+07	 5.07863037E-03	-8.52251501E-03
5.29299259E+07	 5.08113222E-03	-8.51642008E-03
5.29421340E+07	 5.07746232E-03	-8.51823268E-03
5.29543420E+07	 5.07184283E-03	-8.51846790E-03
5.29665500E+07	 5.06925392E-03	-8.52705128E-03
5.29787580E+07	 5.06437647E-03	-8.53176577E-03
5.29909661E+07	 5.06688906E-03	-8.53306486E-03
5.30031741E+07	 5.06966024E-03	-8.53087630E-03
5.30153821E+07	 5.06054396E-03	-8.53585109E-03
5.30275901E+07	 5.06189622E-03	-8.53643352E-03
5.30397982E+07	 5.05991665E-03	-8.54158840E-03
5.30520062E+07	 5.05781714E-03	-8.54234004E-03
5.30642142E+07	 5.05864218E-03	-8.54185944E-03
5.30764222E+07	 5.05915489E-03	-8.54585643E-03
5.30886303E+07	 5.05614579E-03	-8.55177086E-03
5.31008383E+07	 5.05132938E-03	-8.55142200E-03
5.31130463E+07	 5.04427767E-03	-8.55595750E-03
5.31252543E+07	 5.04671631E-03	-8.55645391E-03
5.31374624E+07	 5.04458496E-03	-8.56065846E-03
5.31496704E+07	 5.04567613E-03	-8.56508086E-03
5.31618784E+07	 5.04466272E-03	-8.56343027E-03
5.31740864E+07	 5.03357099E-03	-8.56580677E-03
5.31862945E+07	 5.03620798E-03	-8.56795079E-03
5.31985025E+07	 5.03707560E-03	-8.56647958E-03
5.32107105E+07	 5.03241757E-03	-8.57169151E-03
5.32229185E+07	 5.03081445E-03	-8.57571474E-03
5.32351266E+07	 5.03124643E-03	-8.57837410E-03
5.32473346E+07	 5.02691067E-03	-8.58061473E-03
5.32595426E+07	 5.02484564E-03	-8.57838386E-03
5.32717506E+07	 5.02937044E-03	-8.58666212E-03
5.32839587E+07	 5.02277853E-03	-8.58620160E-03
5.32961667E+07	 5.02372531E-03	-8.58424054E-03
5.33083747E+07	 5.02177246E-03	-8.59016827E-03
5.33205827E+07	 5.01925460E-03	-8.59079195E-03
5.33327908E+07	 5.01513377E-03	-8.59415750E-03
5.33449988E+07	 5.01620336E-03	-8.59435982E-03
5.33572068E+07	 5.01482234E-03	-8.59926597E-03
5.33694148E+07	 5.01038573E-03	-8.59811397E-03
5.33816229E+07	 5.01051403E-03	-8.60373688E-03
5.33938309E+07	 5.00843288E-03	-8.60611064E-03
5.34060389E+07	 5.00672331E-03	-8.60735696E-03
5.34182469E+07	 5.00372225E-03	-8.60940269E-03
5.34304550E+07	 4.99919548E-03	-8.61276656E-03
5.34426630E+07	 5.00014464E-03	-8.61576841E-03
5.34548710E+07	 5.00012710E-03	-8.62472653E-03
5.34670790E+07	 4.99733469E-03	-8.62360175E-03
5.34792871E+07	 4.99255788E-03	-8.62125570E-03
5.34914951E+07	 4.99077138E-03	-8.62636408E-03
5.35037031E+07	 4.98640181E-03	-8.62637742E-03
5.35159111E+07	 4.98895153E-03	-8.62829055E-03
5.35281192E+07	 4.98383330E-03	-8.62860821E-03
5.35403272E+07	 4.98343092E-03	-8.62884484E-03
5.35525352E+07	 4.98605654E-03	-8.63368920E-03
5.35647432E+07	 4.98171675E-03	-8.63718660E-03
5.35769512E+07	 4.97842896E-03	-8.64244827E-03
5.35891593E+07	 4.97773102E-03	-8.64153599E-03
5.36013673E+07	 4.97640739E-03	-8.64549450E-03
5.36135753E+07	 4.97527489E-03	-8.64618988E-03
5.36257833E+07	 4.97404440E-03	-8.64878662E-03
5.36379914E+07	 4.97280598E-03	-8.65323996E-03
5.36501994E+07	 4.96609812E-03	-8.65366341E-03
5.36624074E+07	 4.96666927E-03	-8.65250055E-03
5.36746154E+07	 4.96775956E-03	-8.65580494E-03
5.36868235E+07	 4.96359404E-03	-8.65916764E-03
5.36990315E+07	 4.96283523E-03	-8.66665931E-03
5.37112395E+07	 4.95695257E-03	-8.66668122E-03
5.37234475E+07	 4.95632900E-03	-8.66709082E-03
5.37356556E+07	 4.95786063E-03	-8.67315775E-03
5.37478636E+07	 4.95610125E-03	-8.67090501E-03
5.37600716E+07	 4.95490827E-03	-8.67899234E-03
5.37722796E+07	 4.95049051E-03	-8.67585990E-03
5.37844877E+07	 4.94646031E-03	-8.67670725E-03
5.37966957E+07	 4.94854633E-03	-8.68448824E-03
5.38089037E+07	 4.94377604E-03	-8.68285043E-03
5.38211117E+07	 4.94413070E-03	-8.68835942E-03
5.38333198E+07	 4.93880458E-03	-8.68852723E-03
5.38455278E+07	 4.94210376E-03	-8.68920069E-03
5.38577358E+07	 4.93899991E-03	-8.69313992E-03
5.38699438E+07	 4.93227052E-03	-8.69758564E-03
5.38821519E+07	 4.93303440E-03	-8.69589950E-03
5.38943599E+07	 4.93327350E-03	-8.69489069E-03
5.39065679E+07	 4.92918967E-03	-8.70429050E-03
5.39187759E+07	 4.92498126E-03	-8.70723293E-03
5.39309840E+07	 4.92359640E-03	-8.70801797E-03
5.39431920E+07	 4.92565096E-03	-8.70823679E-03
5.39554000E+07	 4.92078966E-03	-8.71220542E-03
5.39676080E+07	 4.92418326E-03	-8.71320655E-03
5.39798161E+07	 4.91640982E-03	-8.71503194E-03
5.39920241E+07	 4.91392361E-03	-8.71546758E-03
5.40042321E+07	 4.91622593E-03	-8.72326081E-03
5.40164401E+07	 4.91238883E-03	-8.72410921E-03
5.40286482E+07	 4.91043225E-03	-8.72643729E-03
5.40408562E+07	 4.91191833E-03	-8.72586527E-03
5.40530642E+07	 4.90591128E-03	-8.73043879E-03
5.40652722E+07	 4.90506276E-03	-8.73326564E-03
5.40774803E+07	 4.90589567E-03	-8.72927712E-03
5.40896883E+07	 4.90471020E-03	-8.73960171E-03
5.41018963E+07	 4.89418248E-03	-8.74112395E-03
5.41141043E+07	 4.89900192E-03	-8.73977144E-03
5.41263124E+07	 4.89413926E-03	-8.74646912E-03
5.41385204E+07	 4.89575202E-03	-8.74671332E-03
5.41507284E+07	 4.88852195E-03	-8.74629739E-03
5.41629364E+07	 4.88524462E-03	-8.75068928E-03
5.41751445E+07	 4.88308490E-03	-8.75428100E-03
5.41873525E+07	 4.88391144E-03	-8.75561498E-03
5.41995605E+07	 4.88739066E-03	-8.75592555E-03
5.42117685E+07	 4.87649198E-03	-8.76012683E-03
5.42239766E+07	 4.88128207E-03	-8.75953380E-03
5.42361846E+07	 4.86954792E-03	-8.76190993E-03
5.42483926E+07	 4.87892869E-03	-8.76608781E-03
5.42606006E+07	 4.87244936E-03	-8.77342287E-03
5.42728087E+07	 4.87207788E-03	-8.76991718E-03
5.42850167E+07	 4.86555497E-03	-8.77658199E-03
5.42972247E+07	 4.86284030E-03	-8.77359373E-03
5.43094327E+07	 4.86438502E-03	-8.77843219E-03
5.43216408E+07	 4.86593147E-03	-8.78083590E-03
5.43338488E+07	 4.86139493E-03	-8.78708640E-03
5.43460568E+07	 4.85746077E-03	-8.78098378E-03
5.43582648E+07	 4.85397984E-03	-8.78470954E-03
5.43704729E+07	 4.85038338E-03	-8.79359046E-03
5.43826809E+07	 4.85045916E-03	-8.79256657E-03
5.43948889E+07	 4.84902259E-03	-8.79786089E-03
5.44070969E+07	 4.84547401E-03	-8.79611524E-03
5.44193050E+07	 4.84495134E-03	-8.79817951E-03
5.44315130E+07	 4.84111324E-03	-8.80037796E-03
5.44437210E+07	 4.84286744E-03	-8.80130733E-03
5.44559290E+07	 4.84109944E-03	-8.80405235E-03
5.44681371E+07	 4.83310719E-03	-8.80748375E-03
5.44803451E+07	 4.83495642E-03	-8.80543342E-03
5.44925531E+07	 4.82739406E-03	-8.81174180E-03
5.45047611E+07	 4.83373045E-03	-8.81250429E-03
5.45169692E+07	 4.82899031E-03	-8.81765492E-03
5.45291772E+07	 4.82512823E-03	-8.82027945E-03
5.45413852E+07	 4.82466510E-03	-8.82230059E-03
5.45535932E+07	 4.82274689E-03	-8.82363224E-03
5.45658013E+07	 4.81450314E-03	-8.83120506E-03
5.45780093E+07	 4.81472706E-03	-8.83083851E-03
5.45902173E+07	 4.81644882E-03	-8.83089512E-03
5.46024253E+07	 4.81766846E-03	-8.83114917E-03
5.46146334E+07	 4.81206460E-03	-8.83607896E-03
5.46268414E+07	 4.80727570E-03	-8.83952800E-03
5.46390494E+07	 4.80373616E-03	-8.84092144E-03
5.46512574E+07	 4.80809185E-03	-8.84169226E-03
5.46634655E+07	 4.80787937E-03	-8.84503655E-03
5.46756735E+07	 4.79831214E-03	-8.84522729E-03
5.46878815E+07	 4.80121622E-03	-8.84964529E-03
5.47000895E+07	 4.79613388E-03	-8.84966164E-03
5.47122976E+07	 4.79927026E-03	-8.85478420E-03
5.47245056E+07	 4.79627774E-03	-8.85867071E-03
5.47367136E+07	 4.79098552E-03	-8.85992284E-03
5.47489216E+07	 4.78935884E-03	-8.85878189E-03
5.47611296E+07	 4.78691356E-03	-8.86059748E-03
5.47733377E+07	 4.78419502E-03	-8.86494700E-03
5.47855457E+07	 4.78468796E-03	-8.86479714E-03
5.47977537E+07	 4.78279634E-03	-8.87186583E-03
5.48099617E+07	 4.78071217E-03	-8.87179903E-03
5.48221698E+07	 4.77400510E-03	-8.87791006E-03
5.48343778E+07	 4.77211426E-03	-8.87044318E-03
5.48465858E+07	 4.77085785E-03	-8.87911383E-03
5.48587938E+07	 4.76922990E-03	-8.88082814E-03
5.48710019E+07	 4.76364884E-03	-8.88559245E-03
5.48832099E+07	 4.76236334E-03	-8.88528067E-03
5.48954179E+07	 4.76105648E-03	-8.88656311E-03
5.49076259E+07	 4.76291014E-03	-8.88989945E-03
5.49198340E+07	 4.76043888E-03	-8.89145590E-03
5.49320420E+07	 4.75552014E-03	-8.89175256E-03
5.49442500E+07	 4.75275781E-03	-8.90055485E-03
5.49564580E+07	 4.74737120E-03	-8.89649290E-03
5.49686661E+07	 4.74505475E-03	-8.90039352E-03
5.49808741E+07	 4.74954516E-03	-8.90506968E-03
5.49930821E+07	 4.75072848E-03	-8.90619089E-03
5.50052901E+07	 4.74269625E-03	-8.90502570E-03
5.50174982E+07	 4.74592609E-03	-8.91356901E-03
5.50297062E+07	 4.74030209E-03	-8.91207069E-03
5.50419142E+07	 4.73888390E-03	-8.91429208E-03
5.50541222E+07	 4.73839491E-03	-8.92273266E-03
5.50663303E+07	 4.73515723E-03	-8.92119011E-03
5.50785383E+07	 4.73681687E-03	-8.92367314E-03
5.50907463E+07	 4.72958224E-03	-8.92408391E-03
5.51029543E+07	 4.72794291E-03	-8.93032088E-03
5.51151624E+07	 4.72655570E-03	-8.93376773E-03
5.51273704E+07	 4.72599730E-03	-8.93221976E-03
