! COPPER MOUNTAIN TECHNOLOGIES, PLANAR TR1300/1, 00071119, 20.2.2/1.0
! Date: 11/21/2023 6:46:11 PM
! Data: Format [Calibration Info]
! Freq          	S11: Re/Im F1                  
# HZ S RI R 50
5.00000000E+07	 5.73951217E-03	-8.43734114E-03
5.00122080E+07	 5.73476705E-03	-8.43968269E-03
5.00244160E+07	 5.73918460E-03	-8.44621891E-03
5.00366241E+07	 5.73003735E-03	-8.44449825E-03
5.00488321E+07	 5.73016991E-03	-8.45182971E-03
5.00610401E+07	 5.72413310E-03	-8.45580660E-03
5.00732481E+07	 5.72519738E-03	-8.45865149E-03
5.00854562E+07	 5.72624953E-03	-8.45913722E-03
5.00976642E+07	 5.71990427E-03	-8.46332671E-03
5.01098722E+07	 5.72185602E-03	-8.46371621E-03
5.01220802E+07	 5.71743534E-03	-8.46411076E-03
5.01342883E+07	 5.71947654E-03	-8.47072094E-03
5.01464963E+07	 5.71537591E-03	-8.47042961E-03
5.01587043E+07	 5.71179726E-03	-8.47184917E-03
5.01709123E+07	 5.70669700E-03	-8.47883651E-03
5.01831204E+07	 5.70444091E-03	-8.47632264E-03
5.01953284E+07	 5.70520904E-03	-8.48186120E-03
5.02075364E+07	 5.70203465E-03	-8.48117132E-03
5.02197444E+07	 5.70071303E-03	-8.48937124E-03
5.02319525E+07	 5.69850781E-03	-8.48999407E-03
5.02441605E+07	 5.69621145E-03	-8.49324696E-03
5.02563685E+07	 5.69600394E-03	-8.49466200E-03
5.02685765E+07	 5.69331243E-03	-8.49698316E-03
5.02807846E+07	 5.68908459E-03	-8.50133286E-03
5.02929926E+07	 5.69038427E-03	-8.50290332E-03
5.03052006E+07	 5.68671473E-03	-8.50331529E-03
5.03174086E+07	 5.68727276E-03	-8.50816433E-03
5.03296167E+07	 5.68296416E-03	-8.50899546E-03
5.03418247E+07	 5.67926971E-03	-8.51299936E-03
5.03540327E+07	 5.68376359E-03	-8.51519016E-03
5.03662407E+07	 5.67244802E-03	-8.52039838E-03
5.03784488E+07	 5.67585712E-03	-8.51909819E-03
5.03906568E+07	 5.67396750E-03	-8.52215298E-03
5.04028648E+07	 5.66902549E-03	-8.52482651E-03
5.04150728E+07	 5.66886677E-03	-8.52516074E-03
5.04272809E+07	 5.66803330E-03	-8.52897950E-03
5.04394889E+07	 5.66655297E-03	-8.53539186E-03
5.04516969E+07	 5.66442436E-03	-8.53503155E-03
5.04639049E+07	 5.66289733E-03	-8.53661133E-03
5.04761130E+07	 5.65967629E-03	-8.53771177E-03
5.04883210E+07	 5.65424882E-03	-8.54022611E-03
5.05005290E+07	 5.65752964E-03	-8.54819931E-03
5.05127370E+07	 5.65371071E-03	-8.54833212E-03
5.05249451E+07	 5.65312771E-03	-8.55047030E-03
5.05371531E+07	 5.65298477E-03	-8.55168839E-03
5.05493611E+07	 5.65018874E-03	-8.55680856E-03
5.05615691E+07	 5.64406168E-03	-8.56139774E-03
5.05737772E+07	 5.64442708E-03	-8.56708495E-03
5.05859852E+07	 5.63961005E-03	-8.56477210E-03
5.05981932E+07	 5.64032851E-03	-8.56557403E-03
5.06104012E+07	 5.63716773E-03	-8.57002211E-03
5.06226093E+07	 5.63855540E-03	-8.56897027E-03
5.06348173E+07	 5.63240510E-03	-8.57163082E-03
5.06470253E+07	 5.63310358E-03	-8.57766596E-03
5.06592333E+07	 5.62610060E-03	-8.58256307E-03
5.06714414E+07	 5.62734189E-03	-8.58190568E-03
5.06836494E+07	 5.62544425E-03	-8.58440674E-03
5.06958574E+07	 5.62278249E-03	-8.58217500E-03
5.07080654E+07	 5.62304815E-03	-8.58864793E-03
5.07202735E+07	 5.62047249E-03	-8.59082260E-03
5.07324815E+07	 5.61414476E-03	-8.59193844E-03
5.07446895E+07	 5.61715659E-03	-8.59506603E-03
5.07568975E+07	 5.61235430E-03	-8.60074451E-03
5.07691056E+07	 5.61097339E-03	-8.60356833E-03
5.07813136E+07	 5.61287799E-03	-8.60053985E-03
5.07935216E+07	 5.60994254E-03	-8.60919352E-03
5.08057296E+07	 5.60028609E-03	-8.60568672E-03
5.08179377E+07	 5.60483921E-03	-8.61357967E-03
5.08301457E+07	 5.59906346E-03	-8.61779032E-03
5.08423537E+07	 5.59324948E-03	-8.61612131E-03
5.08545617E+07	 5.60132507E-03	-8.62134038E-03
5.08667698E+07	 5.59587001E-03	-8.62031938E-03
5.08789778E+07	 5.59672799E-03	-8.62479312E-03
5.08911858E+07	 5.59402896E-03	-8.63033086E-03
5.09033938E+07	 5.58526908E-03	-8.63009536E-03
5.09156019E+07	 5.58897481E-03	-8.63259860E-03
5.09278099E+07	 5.58187264E-03	-8.63591916E-03
5.09400179E+07	 5.58380544E-03	-8.63929951E-03
5.09522259E+07	 5.58348123E-03	-8.63763295E-03
5.09644340E+07	 5.58422035E-03	-8.64138776E-03
5.09766420E+07	 5.58012582E-03	-8.64287132E-03
5.09888500E+07	 5.57494854E-03	-8.64629551E-03
5.10010580E+07	 5.57426465E-03	-8.65253519E-03
5.10132661E+07	 5.57092290E-03	-8.65490986E-03
5.10254741E+07	 5.56802748E-03	-8.65652937E-03
5.10376821E+07	 5.56763352E-03	-8.65636428E-03
5.10498901E+07	 5.56716290E-03	-8.66347504E-03
5.10620982E+07	 5.55948011E-03	-8.66281622E-03
5.10743062E+07	 5.56617155E-03	-8.66699600E-03
5.10865142E+07	 5.56212732E-03	-8.66668687E-03
5.10987222E+07	 5.56177973E-03	-8.67223212E-03
5.11109303E+07	 5.55738007E-03	-8.67549806E-03
5.11231383E+07	 5.55239356E-03	-8.67547262E-03
5.11353463E+07	 5.55886717E-03	-8.67816526E-03
5.11475543E+07	 5.55594431E-03	-8.68082550E-03
5.11597624E+07	 5.55512207E-03	-8.68613505E-03
5.11719704E+07	 5.54771719E-03	-8.68745579E-03
5.11841784E+07	 5.54595630E-03	-8.69155912E-03
5.11963864E+07	 5.54467809E-03	-8.68980363E-03
5.12085944E+07	 5.54647633E-03	-8.69663904E-03
5.12208025E+07	 5.54595874E-03	-8.69605970E-03
5.12330105E+07	 5.54226016E-03	-8.69710933E-03
5.12452185E+07	 5.54223461E-03	-8.70425653E-03
5.12574265E+07	 5.53934526E-03	-8.70470442E-03
5.12696346E+07	 5.53712917E-03	-8.71079466E-03
5.12818426E+07	 5.53388801E-03	-8.71157297E-03
5.12940506E+07	 5.53273546E-03	-8.71503655E-03
5.13062586E+07	 5.53385759E-03	-8.71683364E-03
5.13184667E+07	 5.52890141E-03	-8.72041158E-03
5.13306747E+07	 5.53247706E-03	-8.71883874E-03
5.13428827E+07	 5.52686201E-03	-8.72654045E-03
5.13550907E+07	 5.52821104E-03	-8.72211693E-03
5.13672988E+07	 5.52289686E-03	-8.72877090E-03
5.13795068E+07	 5.52252519E-03	-8.73509675E-03
5.13917148E+07	 5.51920906E-03	-8.72912206E-03
5.14039228E+07	 5.52003985E-03	-8.73569207E-03
5.14161309E+07	 5.51627780E-03	-8.73467546E-03
5.14283389E+07	 5.51683286E-03	-8.74264837E-03
5.14405469E+07	 5.51291265E-03	-8.73995557E-03
5.14527549E+07	 5.51398286E-03	-8.74596462E-03
5.14649630E+07	 5.51387508E-03	-8.75083825E-03
5.14771710E+07	 5.50901619E-03	-8.75187055E-03
5.14893790E+07	 5.50936431E-03	-8.75414823E-03
5.15015870E+07	 5.50412827E-03	-8.75646580E-03
5.15137951E+07	 5.50806576E-03	-8.75930894E-03
5.15260031E+07	 5.50272101E-03	-8.76524153E-03
5.15382111E+07	 5.50326284E-03	-8.76674818E-03
5.15504191E+07	 5.50092927E-03	-8.76676597E-03
5.15626272E+07	 5.49755936E-03	-8.77032376E-03
5.15748352E+07	 5.49360900E-03	-8.77425695E-03
5.15870432E+07	 5.49855507E-03	-8.77551891E-03
5.15992512E+07	 5.49062990E-03	-8.78002021E-03
5.16114593E+07	 5.48989691E-03	-8.78215140E-03
5.16236673E+07	 5.48925082E-03	-8.78350849E-03
5.16358753E+07	 5.48708531E-03	-8.78872183E-03
5.16480833E+07	 5.48285116E-03	-8.79193264E-03
5.16602914E+07	 5.48824039E-03	-8.79243337E-03
5.16724994E+07	 5.48487711E-03	-8.79081831E-03
5.16847074E+07	 5.48258227E-03	-8.79471349E-03
5.16969154E+07	 5.47822687E-03	-8.79260818E-03
5.17091235E+07	 5.47787295E-03	-8.80127373E-03
5.17213315E+07	 5.47534833E-03	-8.80244577E-03
5.17335395E+07	 5.47304250E-03	-8.80855809E-03
5.17457475E+07	 5.47269419E-03	-8.81038721E-03
5.17579556E+07	 5.47224919E-03	-8.81021822E-03
5.17701636E+07	 5.46938390E-03	-8.81032831E-03
5.17823716E+07	 5.46485868E-03	-8.81489579E-03
5.17945796E+07	 5.46848155E-03	-8.82108870E-03
5.18067877E+07	 5.46683794E-03	-8.82194307E-03
5.18189957E+07	 5.46421496E-03	-8.82242052E-03
5.18312037E+07	 5.46478269E-03	-8.82111867E-03
5.18434117E+07	 5.45967284E-03	-8.83227834E-03
5.18556198E+07	 5.45806460E-03	-8.83393721E-03
5.18678278E+07	 5.45594874E-03	-8.83332115E-03
5.18800358E+07	 5.45472598E-03	-8.83436403E-03
5.18922438E+07	 5.45228710E-03	-8.84035883E-03
5.19044519E+07	 5.45730437E-03	-8.84648432E-03
5.19166599E+07	 5.44837258E-03	-8.85284953E-03
5.19288679E+07	 5.44467595E-03	-8.84722160E-03
5.19410759E+07	 5.44765730E-03	-8.84774547E-03
5.19532840E+07	 5.44789436E-03	-8.85074076E-03
5.19654920E+07	 5.44511869E-03	-8.85454287E-03
5.19777000E+07	 5.44015814E-03	-8.85770843E-03
5.19899080E+07	 5.44464791E-03	-8.86102399E-03
5.20021161E+07	 5.43744899E-03	-8.86650815E-03
5.20143241E+07	 5.43537518E-03	-8.86679860E-03
5.20265321E+07	 5.43911513E-03	-8.86651451E-03
5.20387401E+07	 5.42979138E-03	-8.87182615E-03
5.20509482E+07	 5.43324980E-03	-8.87269750E-03
5.20631562E+07	 5.42692427E-03	-8.87493055E-03
5.20753642E+07	 5.42430532E-03	-8.88023571E-03
5.20875722E+07	 5.42013073E-03	-8.88227837E-03
5.20997803E+07	 5.42019169E-03	-8.87849605E-03
5.21119883E+07	 5.42328854E-03	-8.88169799E-03
5.21241963E+07	 5.41785067E-03	-8.88728305E-03
5.21364043E+07	 5.41835574E-03	-8.88677837E-03
5.21486124E+07	 5.41438793E-03	-8.89147458E-03
5.21608204E+07	 5.41773546E-03	-8.89680213E-03
5.21730284E+07	 5.41114152E-03	-8.89649750E-03
5.21852364E+07	 5.40873995E-03	-8.89900731E-03
5.21974445E+07	 5.40909102E-03	-8.89932614E-03
5.22096525E+07	 5.40768043E-03	-8.90469181E-03
5.22218605E+07	 5.40393175E-03	-8.90622189E-03
5.22340685E+07	 5.40200380E-03	-8.90407726E-03
5.22462766E+07	 5.39963115E-03	-8.90617235E-03
5.22584846E+07	 5.39441428E-03	-8.91146107E-03
5.22706926E+07	 5.39422346E-03	-8.91603469E-03
5.22829006E+07	 5.39103938E-03	-8.91763950E-03
5.22951087E+07	 5.39313580E-03	-8.92337428E-03
5.23073167E+07	 5.38595068E-03	-8.92803406E-03
5.23195247E+07	 5.38753396E-03	-8.92516153E-03
5.23317327E+07	 5.38869465E-03	-8.93221640E-03
5.23439408E+07	 5.38729478E-03	-8.93551575E-03
5.23561488E+07	 5.38155924E-03	-8.92822246E-03
5.23683568E+07	 5.37433519E-03	-8.92847489E-03
5.23805648E+07	 5.37479474E-03	-8.94019496E-03
5.23927728E+07	 5.37287788E-03	-8.93702712E-03
5.24049809E+07	 5.37436700E-03	-8.93906765E-03
5.24171889E+07	 5.36726809E-03	-8.94498158E-03
5.24293969E+07	 5.37038204E-03	-8.94670721E-03
5.24416049E+07	 5.36663261E-03	-8.94554274E-03
5.24538130E+07	 5.36784124E-03	-8.95273695E-03
5.24660210E+07	 5.36893308E-03	-8.95701599E-03
5.24782290E+07	 5.35813250E-03	-8.95602600E-03
5.24904370E+07	 5.35752034E-03	-8.95663214E-03
5.25026451E+07	 5.35333937E-03	-8.96367482E-03
5.25148531E+07	 5.35350639E-03	-8.96466145E-03
5.25270611E+07	 5.35551268E-03	-8.96566083E-03
5.25392691E+07	 5.34964223E-03	-8.96939937E-03
5.25514772E+07	 5.34536045E-03	-8.97319110E-03
5.25636852E+07	 5.34507701E-03	-8.96827893E-03
5.25758932E+07	 5.34371540E-03	-8.97833131E-03
5.25881012E+07	 5.34021238E-03	-8.98104066E-03
5.26003093E+07	 5.34388067E-03	-8.98016305E-03
5.26125173E+07	 5.33542989E-03	-8.98445268E-03
5.26247253E+07	 5.33629070E-03	-8.98635952E-03
5.26369333E+07	 5.33013693E-03	-8.99107359E-03
5.26491414E+07	 5.33203357E-03	-8.99396023E-03
5.26613494E+07	 5.33005766E-03	-8.99358612E-03
5.26735574E+07	 5.32835097E-03	-8.99651114E-03
5.26857654E+07	 5.32729203E-03	-8.99667974E-03
5.26979735E+07	 5.32044827E-03	-9.00068048E-03
5.27101815E+07	 5.31590849E-03	-8.99995213E-03
5.27223895E+07	 5.31684133E-03	-9.00568871E-03
5.27345975E+07	 5.31617540E-03	-9.00471200E-03
5.27468056E+07	 5.31163089E-03	-9.01287331E-03
5.27590136E+07	 5.31178085E-03	-9.01292805E-03
5.27712216E+07	 5.31182268E-03	-9.01166728E-03
5.27834296E+07	 5.31151719E-03	-9.01689080E-03
5.27956377E+07	 5.30788844E-03	-9.02051155E-03
5.28078457E+07	 5.30563322E-03	-9.01868659E-03
5.28200537E+07	 5.30340669E-03	-9.02139430E-03
5.28322617E+07	 5.30470463E-03	-9.02814759E-03
5.28444698E+07	 5.30181426E-03	-9.03042130E-03
5.28566778E+07	 5.29949371E-03	-9.02792482E-03
5.28688858E+07	 5.29455120E-03	-9.03270995E-03
5.28810938E+07	 5.29301054E-03	-9.03556317E-03
5.28933019E+07	 5.29321250E-03	-9.04199260E-03
5.29055099E+07	 5.29210549E-03	-9.04191627E-03
5.29177179E+07	 5.28621808E-03	-9.04289661E-03
5.29299259E+07	 5.28699548E-03	-9.04437622E-03
5.29421340E+07	 5.28354437E-03	-9.05034915E-03
5.29543420E+07	 5.27885977E-03	-9.04912476E-03
5.29665500E+07	 5.27964220E-03	-9.05602826E-03
5.29787580E+07	 5.27980462E-03	-9.05560517E-03
5.29909661E+07	 5.27510891E-03	-9.05406500E-03
5.30031741E+07	 5.26991363E-03	-9.06008726E-03
5.30153821E+07	 5.26712049E-03	-9.06099207E-03
5.30275901E+07	 5.26651147E-03	-9.06186561E-03
5.30397982E+07	 5.26894214E-03	-9.06782382E-03
5.30520062E+07	 5.26125284E-03	-9.07257204E-03
5.30642142E+07	 5.26518474E-03	-9.07002234E-03
5.30764222E+07	 5.26210335E-03	-9.07347788E-03
5.30886303E+07	 5.26023357E-03	-9.07768907E-03
5.31008383E+07	 5.25533896E-03	-9.07926555E-03
5.31130463E+07	 5.25537526E-03	-9.07915638E-03
5.31252543E+07	 5.25422233E-03	-9.08656629E-03
5.31374624E+07	 5.25344415E-03	-9.08928595E-03
5.31496704E+07	 5.24712921E-03	-9.08840133E-03
5.31618784E+07	 5.24316761E-03	-9.08956088E-03
5.31740864E+07	 5.24451839E-03	-9.09313946E-03
5.31862945E+07	 5.24251795E-03	-9.09473970E-03
5.31985025E+07	 5.23796731E-03	-9.09871039E-03
5.32107105E+07	 5.24135215E-03	-9.09949517E-03
5.32229185E+07	 5.23856629E-03	-9.10036204E-03
5.32351266E+07	 5.23082021E-03	-9.10719077E-03
5.32473346E+07	 5.23360774E-03	-9.10369616E-03
5.32595426E+07	 5.23258948E-03	-9.11040958E-03
5.32717506E+07	 5.22833637E-03	-9.11181080E-03
5.32839587E+07	 5.22769839E-03	-9.11633508E-03
5.32961667E+07	 5.22021503E-03	-9.12062731E-03
5.33083747E+07	 5.22708684E-03	-9.11960175E-03
5.33205827E+07	 5.22194132E-03	-9.12390868E-03
5.33327908E+07	 5.22146507E-03	-9.12225746E-03
5.33449988E+07	 5.21831097E-03	-9.13106265E-03
5.33572068E+07	 5.21554496E-03	-9.12683411E-03
5.33694148E+07	 5.21288499E-03	-9.12973321E-03
5.33816229E+07	 5.21260597E-03	-9.13527396E-03
5.33938309E+07	 5.21329101E-03	-9.13830425E-03
5.34060389E+07	 5.20900439E-03	-9.13634750E-03
5.34182469E+07	 5.20294965E-03	-9.13789031E-03
5.34304550E+07	 5.20794080E-03	-9.14172672E-03
5.34426630E+07	 5.20286938E-03	-9.14250053E-03
5.34548710E+07	 5.19800813E-03	-9.14574767E-03
5.34670790E+07	 5.19773647E-03	-9.14854666E-03
5.34792871E+07	 5.19524821E-03	-9.15104045E-03
5.34914951E+07	 5.19764714E-03	-9.15490747E-03
5.35037031E+07	 5.19368254E-03	-9.15270625E-03
5.35159111E+07	 5.19275830E-03	-9.16034051E-03
5.35281192E+07	 5.18680984E-03	-9.15450710E-03
5.35403272E+07	 5.18749028E-03	-9.16470053E-03
5.35525352E+07	 5.18464164E-03	-9.16381873E-03
5.35647432E+07	 5.18297157E-03	-9.16933982E-03
5.35769512E+07	 5.17989361E-03	-9.17259625E-03
5.35891593E+07	 5.17784714E-03	-9.17217956E-03
5.36013673E+07	 5.17816708E-03	-9.17574495E-03
5.36135753E+07	 5.16971285E-03	-9.18320487E-03
5.36257833E+07	 5.16734413E-03	-9.18235232E-03
5.36379914E+07	 5.17283108E-03	-9.18346779E-03
5.36501994E+07	 5.17007464E-03	-9.18956244E-03
5.36624074E+07	 5.16740555E-03	-9.18679446E-03
5.36746154E+07	 5.16554224E-03	-9.19012192E-03
5.36868235E+07	 5.15790707E-03	-9.19021681E-03
5.36990315E+07	 5.16069301E-03	-9.19573333E-03
5.37112395E+07	 5.16470086E-03	-9.19794349E-03
5.37234475E+07	 5.15825397E-03	-9.19849576E-03
5.37356556E+07	 5.15464573E-03	-9.20085687E-03
5.37478636E+07	 5.14919555E-03	-9.20257135E-03
5.37600716E+07	 5.15069568E-03	-9.20755265E-03
5.37722796E+07	 5.15166786E-03	-9.21030118E-03
5.37844877E+07	 5.14950924E-03	-9.20767202E-03
5.37966957E+07	 5.14498747E-03	-9.20924963E-03
5.38089037E+07	 5.14741598E-03	-9.21326901E-03
5.38211117E+07	 5.14109708E-03	-9.21930396E-03
5.38333198E+07	 5.13950234E-03	-9.22111255E-03
5.38455278E+07	 5.13718955E-03	-9.21746048E-03
5.38577358E+07	 5.13382649E-03	-9.22046813E-03
5.38699438E+07	 5.13351064E-03	-9.22235503E-03
5.38821519E+07	 5.13480966E-03	-9.22897469E-03
5.38943599E+07	 5.12565529E-03	-9.23318429E-03
5.39065679E+07	 5.12890090E-03	-9.23208707E-03
5.39187759E+07	 5.12741632E-03	-9.23647358E-03
5.39309840E+07	 5.12257079E-03	-9.23672543E-03
5.39431920E+07	 5.12372261E-03	-9.24145298E-03
5.39554000E+07	 5.11992788E-03	-9.23983676E-03
5.39676080E+07	 5.11826846E-03	-9.24777731E-03
5.39798161E+07	 5.11702511E-03	-9.24676787E-03
5.39920241E+07	 5.11387094E-03	-9.25284290E-03
5.40042321E+07	 5.11053843E-03	-9.25389277E-03
5.40164401E+07	 5.10838203E-03	-9.25542535E-03
5.40286482E+07	 5.10635891E-03	-9.26190304E-03
5.40408562E+07	 5.10067452E-03	-9.25804842E-03
5.40530642E+07	 5.10050115E-03	-9.26394666E-03
5.40652722E+07	 5.09844307E-03	-9.26556553E-03
5.40774803E+07	 5.09797722E-03	-9.26455888E-03
5.40896883E+07	 5.09497878E-03	-9.26431846E-03
5.41018963E+07	 5.09233300E-03	-9.26901981E-03
5.41141043E+07	 5.09045037E-03	-9.27208205E-03
5.41263124E+07	 5.08608822E-03	-9.27631945E-03
5.41385204E+07	 5.08636023E-03	-9.28150273E-03
5.41507284E+07	 5.08451487E-03	-9.27755203E-03
5.41629364E+07	 5.08313203E-03	-9.28169029E-03
5.41751445E+07	 5.08134942E-03	-9.28590325E-03
5.41873525E+07	 5.08287358E-03	-9.28727427E-03
5.41995605E+07	 5.07629209E-03	-9.28794747E-03
5.42117685E+07	 5.07405005E-03	-9.29188173E-03
5.42239766E+07	 5.07426676E-03	-9.29531892E-03
5.42361846E+07	 5.06681132E-03	-9.29589392E-03
5.42483926E+07	 5.06860025E-03	-9.30214439E-03
5.42606006E+07	 5.06499223E-03	-9.29858674E-03
5.42728087E+07	 5.06207238E-03	-9.30353838E-03
5.42850167E+07	 5.05906733E-03	-9.30853213E-03
5.42972247E+07	 5.06077402E-03	-9.31096895E-03
5.43094327E+07	 5.05396027E-03	-9.31022496E-03
5.43216408E+07	 5.05289028E-03	-9.31348952E-03
5.43338488E+07	 5.05068897E-03	-9.31395536E-03
5.43460568E+07	 5.05127465E-03	-9.31780516E-03
5.43582648E+07	 5.04487802E-03	-9.32113758E-03
5.43704729E+07	 5.04420902E-03	-9.32681638E-03
5.43826809E+07	 5.04378672E-03	-9.32431426E-03
5.43948889E+07	 5.04063515E-03	-9.32682298E-03
5.44070969E+07	 5.03663903E-03	-9.33034465E-03
5.44193050E+07	 5.03776025E-03	-9.33212476E-03
5.44315130E+07	 5.03148272E-03	-9.33253171E-03
5.44437210E+07	 5.03109758E-03	-9.33675436E-03
5.44559290E+07	 5.02977566E-03	-9.34133485E-03
5.44681371E+07	 5.02614557E-03	-9.34009556E-03
5.44803451E+07	 5.02712842E-03	-9.34704963E-03
5.44925531E+07	 5.02133617E-03	-9.34562750E-03
5.45047611E+07	 5.02426083E-03	-9.35217562E-03
5.45169692E+07	 5.01942700E-03	-9.35486460E-03
5.45291772E+07	 5.01710553E-03	-9.35720819E-03
5.45413852E+07	 5.01527961E-03	-9.35855305E-03
5.45535932E+07	 5.01327801E-03	-9.36106651E-03
5.45658013E+07	 5.01088949E-03	-9.36256668E-03
5.45780093E+07	 5.00781489E-03	-9.36208547E-03
5.45902173E+07	 5.00772702E-03	-9.36863239E-03
5.46024253E+07	 5.00169587E-03	-9.36623050E-03
5.46146334E+07	 4.99882661E-03	-9.37148039E-03
5.46268414E+07	 5.00162905E-03	-9.36623798E-03
5.46390494E+07	 4.99734453E-03	-9.37371652E-03
5.46512574E+07	 4.99581815E-03	-9.37710091E-03
5.46634655E+07	 4.99440673E-03	-9.37672297E-03
5.46756735E+07	 4.98915787E-03	-9.37980543E-03
5.46878815E+07	 4.98950270E-03	-9.38350082E-03
5.47000895E+07	 4.98355193E-03	-9.38684920E-03
5.47122976E+07	 4.98360933E-03	-9.38654273E-03
5.47245056E+07	 4.98122688E-03	-9.39293450E-03
5.47367136E+07	 4.97782310E-03	-9.39660086E-03
5.47489216E+07	 4.97529209E-03	-9.39519418E-03
5.47611296E+07	 4.97106493E-03	-9.39628323E-03
5.47733377E+07	 4.97176205E-03	-9.39751747E-03
5.47855457E+07	 4.97065768E-03	-9.40056399E-03
5.47977537E+07	 4.97099081E-03	-9.40569887E-03
5.48099617E+07	 4.96243486E-03	-9.40895835E-03
5.48221698E+07	 4.96459190E-03	-9.40627613E-03
5.48343778E+07	 4.96341091E-03	-9.41430609E-03
5.48465858E+07	 4.95812342E-03	-9.41548491E-03
5.48587938E+07	 4.95580624E-03	-9.41893552E-03
5.48710019E+07	 4.95352474E-03	-9.42049930E-03
5.48832099E+07	 4.95349098E-03	-9.41888122E-03
5.48954179E+07	 4.94663042E-03	-9.42221455E-03
5.49076259E+07	 4.94702560E-03	-9.42695729E-03
5.49198340E+07	 4.94605671E-03	-9.42823784E-03
5.49320420E+07	 4.94716987E-03	-9.43118210E-03
5.49442500E+07	 4.94041070E-03	-9.43221012E-03
5.49564580E+07	 4.93654128E-03	-9.43793838E-03
5.49686661E+07	 4.93242829E-03	-9.43978667E-03
5.49808741E+07	 4.93386926E-03	-9.43633035E-03
5.49930821E+07	 4.93095114E-03	-9.44065718E-03
5.50052901E+07	 4.92871748E-03	-9.44421627E-03
5.50174982E+07	 4.92706990E-03	-9.44914102E-03
5.50297062E+07	 4.92225590E-03	-9.44977913E-03
5.50419142E+07	 4.92242654E-03	-9.45313048E-03
5.50541222E+07	 4.92020301E-03	-9.45471069E-03
5.50663303E+07	 4.91738387E-03	-9.46257651E-03
5.50785383E+07	 4.91677135E-03	-9.45524236E-03
5.50907463E+07	 4.91804117E-03	-9.46397873E-03
5.51029543E+07	 4.91606192E-03	-9.46661583E-03
5.51151624E+07	 4.91290262E-03	-9.46946383E-03
5.51273704E+07	 4.90689406E-03	-9.47285333E-03
