! COPPER MOUNTAIN TECHNOLOGIES, PLANAR TR1300/1, 00071119, 20.2.2/1.0
! Date: 11/21/2023 7:11:57 PM
! Data: Format [Calibration Info]
! Freq          	S11: Re/Im F1                  
# HZ S RI R 50
5.00000000E+07	 2.27114745E-03	-4.23579518E-03
5.00122080E+07	 2.26889049E-03	-4.23499235E-03
5.00244160E+07	 2.27501932E-03	-4.23619543E-03
5.00366241E+07	 2.26222003E-03	-4.23948460E-03
5.00488321E+07	 2.26372047E-03	-4.24508674E-03
5.00610401E+07	 2.25843573E-03	-4.24476290E-03
5.00732481E+07	 2.26023652E-03	-4.24584331E-03
5.00854562E+07	 2.26341110E-03	-4.24603849E-03
5.00976642E+07	 2.26105667E-03	-4.25054583E-03
5.01098722E+07	 2.26092460E-03	-4.25581855E-03
5.01220802E+07	 2.25871689E-03	-4.25301129E-03
5.01342883E+07	 2.26145778E-03	-4.25632831E-03
5.01464963E+07	 2.25550919E-03	-4.25624787E-03
5.01587043E+07	 2.25695315E-03	-4.25583001E-03
5.01709123E+07	 2.25223531E-03	-4.25859433E-03
5.01831204E+07	 2.25372695E-03	-4.25845482E-03
5.01953284E+07	 2.25360481E-03	-4.26029570E-03
5.02075364E+07	 2.25057263E-03	-4.26073410E-03
5.02197444E+07	 2.25390305E-03	-4.26396244E-03
5.02319525E+07	 2.25034801E-03	-4.26832621E-03
5.02441605E+07	 2.25002438E-03	-4.27119864E-03
5.02563685E+07	 2.24653266E-03	-4.27196160E-03
5.02685765E+07	 2.24750372E-03	-4.27097767E-03
5.02807846E+07	 2.24334620E-03	-4.27335822E-03
5.02929926E+07	 2.24613602E-03	-4.27424726E-03
5.03052006E+07	 2.24543667E-03	-4.27730805E-03
5.03174086E+07	 2.24177245E-03	-4.27482998E-03
5.03296167E+07	 2.24381191E-03	-4.27594084E-03
5.03418247E+07	 2.23780820E-03	-4.28250996E-03
5.03540327E+07	 2.23996261E-03	-4.28057163E-03
5.03662407E+07	 2.23616202E-03	-4.28519607E-03
5.03784488E+07	 2.23802361E-03	-4.28380471E-03
5.03906568E+07	 2.23695468E-03	-4.28532539E-03
5.04028648E+07	 2.23311162E-03	-4.29037691E-03
5.04150728E+07	 2.23556011E-03	-4.28655160E-03
5.04272809E+07	 2.23328387E-03	-4.29662548E-03
5.04394889E+07	 2.23215437E-03	-4.29610162E-03
5.04516969E+07	 2.22985799E-03	-4.29338436E-03
5.04639049E+07	 2.22852254E-03	-4.29729341E-03
5.04761130E+07	 2.22993583E-03	-4.29399603E-03
5.04883210E+07	 2.23016608E-03	-4.29657418E-03
5.05005290E+07	 2.23140090E-03	-4.30461837E-03
5.05127370E+07	 2.22311223E-03	-4.30044564E-03
5.05249451E+07	 2.22509104E-03	-4.30428239E-03
5.05371531E+07	 2.22680173E-03	-4.30755937E-03
5.05493611E+07	 2.22476667E-03	-4.31121103E-03
5.05615691E+07	 2.22398650E-03	-4.30765454E-03
5.05737772E+07	 2.22341703E-03	-4.31506481E-03
5.05859852E+07	 2.21893102E-03	-4.30917756E-03
5.05981932E+07	 2.21786556E-03	-4.31131551E-03
5.06104012E+07	 2.21738906E-03	-4.31322191E-03
5.06226093E+07	 2.22043234E-03	-4.31407077E-03
5.06348173E+07	 2.21709052E-03	-4.31431046E-03
5.06470253E+07	 2.21597408E-03	-4.32101540E-03
5.06592333E+07	 2.21305076E-03	-4.32035981E-03
5.06714414E+07	 2.21314370E-03	-4.32714962E-03
5.06836494E+07	 2.20974320E-03	-4.32497485E-03
5.06958574E+07	 2.20889500E-03	-4.32376983E-03
5.07080654E+07	 2.21028659E-03	-4.32775889E-03
5.07202735E+07	 2.20896753E-03	-4.32523487E-03
5.07324815E+07	 2.20562301E-03	-4.33099902E-03
5.07446895E+07	 2.20869151E-03	-4.33108835E-03
5.07568975E+07	 2.20642080E-03	-4.33609965E-03
5.07691056E+07	 2.20876478E-03	-4.33690893E-03
5.07813136E+07	 2.20516075E-03	-4.33321248E-03
5.07935216E+07	 2.20605549E-03	-4.33698426E-03
5.08057296E+07	 2.19797020E-03	-4.33525010E-03
5.08179377E+07	 2.20261796E-03	-4.34071343E-03
5.08301457E+07	 2.19682974E-03	-4.34508253E-03
5.08423537E+07	 2.19850053E-03	-4.34122007E-03
5.08545617E+07	 2.20143003E-03	-4.34537726E-03
5.08667698E+07	 2.19609968E-03	-4.34093313E-03
5.08789778E+07	 2.19726820E-03	-4.35111181E-03
5.08911858E+07	 2.19588632E-03	-4.35642695E-03
5.09033938E+07	 2.18984761E-03	-4.35530499E-03
5.09156019E+07	 2.19338594E-03	-4.35516919E-03
5.09278099E+07	 2.18628424E-03	-4.35897470E-03
5.09400179E+07	 2.19092504E-03	-4.35729641E-03
5.09522259E+07	 2.18872892E-03	-4.35415621E-03
5.09644340E+07	 2.19116675E-03	-4.36159734E-03
5.09766420E+07	 2.19005609E-03	-4.35946867E-03
5.09888500E+07	 2.18874892E-03	-4.36241459E-03
5.10010580E+07	 2.18841214E-03	-4.36766048E-03
5.10132661E+07	 2.18403179E-03	-4.36744461E-03
5.10254741E+07	 2.18496108E-03	-4.36914214E-03
5.10376821E+07	 2.18719484E-03	-4.37124949E-03
5.10498901E+07	 2.18371701E-03	-4.37787583E-03
5.10620982E+07	 2.18305036E-03	-4.37202955E-03
5.10743062E+07	 2.18293000E-03	-4.37951841E-03
5.10865142E+07	 2.18209449E-03	-4.37028404E-03
5.10987222E+07	 2.18040326E-03	-4.37610414E-03
5.11109303E+07	 2.17711893E-03	-4.37973765E-03
5.11231383E+07	 2.17452049E-03	-4.37938831E-03
5.11353463E+07	 2.18085064E-03	-4.38086263E-03
5.11475543E+07	 2.17930838E-03	-4.38252422E-03
5.11597624E+07	 2.18045072E-03	-4.38715606E-03
5.11719704E+07	 2.17674350E-03	-4.38768633E-03
5.11841784E+07	 2.17731159E-03	-4.39035329E-03
5.11963864E+07	 2.17130282E-03	-4.39026288E-03
5.12085944E+07	 2.17116323E-03	-4.38874707E-03
5.12208025E+07	 2.17660798E-03	-4.39286154E-03
5.12330105E+07	 2.17656390E-03	-4.39251668E-03
5.12452185E+07	 2.17463421E-03	-4.39825767E-03
5.12574265E+07	 2.16878582E-03	-4.39701220E-03
5.12696346E+07	 2.17096523E-03	-4.39997868E-03
5.12818426E+07	 2.16807285E-03	-4.40472827E-03
5.12940506E+07	 2.17246759E-03	-4.40525814E-03
5.13062586E+07	 2.16903743E-03	-4.40713230E-03
5.13184667E+07	 2.17019574E-03	-4.40751215E-03
5.13306747E+07	 2.16687604E-03	-4.40490731E-03
5.13428827E+07	 2.16501404E-03	-4.41106109E-03
5.13550907E+07	 2.16718618E-03	-4.40771047E-03
5.13672988E+07	 2.16543824E-03	-4.41399321E-03
5.13795068E+07	 2.16954802E-03	-4.41442345E-03
5.13917148E+07	 2.16531694E-03	-4.41083160E-03
5.14039228E+07	 2.16464911E-03	-4.41699016E-03
5.14161309E+07	 2.16115660E-03	-4.41883358E-03
5.14283389E+07	 2.17089185E-03	-4.41998611E-03
5.14405469E+07	 2.16081162E-03	-4.41969608E-03
5.14527549E+07	 2.16300148E-03	-4.42488908E-03
5.14649630E+07	 2.16140886E-03	-4.42635611E-03
5.14771710E+07	 2.15770154E-03	-4.42709369E-03
5.14893790E+07	 2.16246035E-03	-4.43134995E-03
5.15015870E+07	 2.15789413E-03	-4.43086205E-03
5.15137951E+07	 2.16459654E-03	-4.43255247E-03
5.15260031E+07	 2.16116694E-03	-4.43599831E-03
5.15382111E+07	 2.16218568E-03	-4.43729072E-03
5.15504191E+07	 2.16065372E-03	-4.44066503E-03
5.15626272E+07	 2.15325470E-03	-4.43470990E-03
5.15748352E+07	 2.15747134E-03	-4.43931214E-03
5.15870432E+07	 2.15595190E-03	-4.44243977E-03
5.15992512E+07	 2.15469731E-03	-4.44605706E-03
5.16114593E+07	 2.15089903E-03	-4.45034651E-03
5.16236673E+07	 2.15568185E-03	-4.45105200E-03
5.16358753E+07	 2.15308264E-03	-4.44703583E-03
5.16480833E+07	 2.15081087E-03	-4.45129157E-03
5.16602914E+07	 2.15527085E-03	-4.45302661E-03
5.16724994E+07	 2.15456383E-03	-4.44868250E-03
5.16847074E+07	 2.14985734E-03	-4.45252962E-03
5.16969154E+07	 2.14914477E-03	-4.45410310E-03
5.17091235E+07	 2.14929106E-03	-4.45763424E-03
5.17213315E+07	 2.14587884E-03	-4.45933576E-03
5.17335395E+07	 2.15009359E-03	-4.46199969E-03
5.17457475E+07	 2.14894349E-03	-4.46294841E-03
5.17579556E+07	 2.14758835E-03	-4.46062372E-03
5.17701636E+07	 2.14722589E-03	-4.46575403E-03
5.17823716E+07	 2.14623698E-03	-4.46601469E-03
5.17945796E+07	 2.14634484E-03	-4.47351352E-03
5.18067877E+07	 2.14529192E-03	-4.47370434E-03
5.18189957E+07	 2.14192484E-03	-4.47178187E-03
5.18312037E+07	 2.14338331E-03	-4.47112136E-03
5.18434117E+07	 2.14235692E-03	-4.47856385E-03
5.18556198E+07	 2.14320653E-03	-4.47553578E-03
5.18678278E+07	 2.13953524E-03	-4.47899939E-03
5.18800358E+07	 2.14195350E-03	-4.48051293E-03
5.18922438E+07	 2.13861398E-03	-4.48040191E-03
5.19044519E+07	 2.14212059E-03	-4.48303906E-03
5.19166599E+07	 2.14084703E-03	-4.48788145E-03
5.19288679E+07	 2.13394539E-03	-4.48710915E-03
5.19410759E+07	 2.13672552E-03	-4.48755430E-03
5.19532840E+07	 2.14032449E-03	-4.49078016E-03
5.19654920E+07	 2.13482889E-03	-4.49157804E-03
5.19777000E+07	 2.13606343E-03	-4.49436088E-03
5.19899080E+07	 2.13709877E-03	-4.49934412E-03
5.20021161E+07	 2.13495708E-03	-4.50095469E-03
5.20143241E+07	 2.13345204E-03	-4.50038705E-03
5.20265321E+07	 2.13289932E-03	-4.49827147E-03
5.20387401E+07	 2.13093753E-03	-4.50322247E-03
5.20509482E+07	 2.12880268E-03	-4.50296352E-03
5.20631562E+07	 2.12697004E-03	-4.50175899E-03
5.20753642E+07	 2.12590753E-03	-4.50881265E-03
5.20875722E+07	 2.12257315E-03	-4.50949768E-03
5.20997803E+07	 2.12223038E-03	-4.50672639E-03
5.21119883E+07	 2.12501833E-03	-4.50706544E-03
5.21241963E+07	 2.12547517E-03	-4.51483594E-03
5.21364043E+07	 2.12470277E-03	-4.50830364E-03
5.21486124E+07	 2.12490315E-03	-4.51559702E-03
5.21608204E+07	 2.12308131E-03	-4.51446968E-03
5.21730284E+07	 2.12214146E-03	-4.51627160E-03
5.21852364E+07	 2.12235427E-03	-4.51805639E-03
5.21974445E+07	 2.12124890E-03	-4.51866877E-03
5.22096525E+07	 2.11979947E-03	-4.52629234E-03
5.22218605E+07	 2.11900812E-03	-4.52166313E-03
5.22340685E+07	 2.11963806E-03	-4.52230293E-03
5.22462766E+07	 2.11609714E-03	-4.52512454E-03
5.22584846E+07	 2.11041948E-03	-4.52671364E-03
5.22706926E+07	 2.11314279E-03	-4.53071954E-03
5.22829006E+07	 2.10898767E-03	-4.52894319E-03
5.22951087E+07	 2.11607218E-03	-4.53261617E-03
5.23073167E+07	 2.10770312E-03	-4.53229960E-03
5.23195247E+07	 2.11307896E-03	-4.53066738E-03
5.23317327E+07	 2.11175711E-03	-4.53684927E-03
5.23439408E+07	 2.11214151E-03	-4.54331581E-03
5.23561488E+07	 2.10498491E-03	-4.53627144E-03
5.23683568E+07	 2.09997606E-03	-4.53880529E-03
5.23805648E+07	 2.10233073E-03	-4.54136439E-03
5.23927728E+07	 2.10334716E-03	-4.54131275E-03
5.24049809E+07	 2.10385213E-03	-4.54200319E-03
5.24171889E+07	 2.09841219E-03	-4.54479437E-03
5.24293969E+07	 2.10435073E-03	-4.54552818E-03
5.24416049E+07	 2.09899116E-03	-4.54621077E-03
5.24538130E+07	 2.10208139E-03	-4.55314734E-03
5.24660210E+07	 2.10140274E-03	-4.55157785E-03
5.24782290E+07	 2.09716371E-03	-4.55261069E-03
5.24904370E+07	 2.09799276E-03	-4.55334118E-03
5.25026451E+07	 2.09688110E-03	-4.56200381E-03
5.25148531E+07	 2.09000682E-03	-4.55789704E-03
5.25270611E+07	 2.09227810E-03	-4.55325501E-03
5.25392691E+07	 2.09355717E-03	-4.56402854E-03
5.25514772E+07	 2.09101185E-03	-4.56473176E-03
5.25636852E+07	 2.08879890E-03	-4.56191570E-03
5.25758932E+07	 2.08625316E-03	-4.56861045E-03
5.25881012E+07	 2.08706338E-03	-4.56558427E-03
5.26003093E+07	 2.08601056E-03	-4.56950303E-03
5.26125173E+07	 2.08360893E-03	-4.57330865E-03
5.26247253E+07	 2.08329278E-03	-4.57254610E-03
5.26369333E+07	 2.08125262E-03	-4.57513005E-03
5.26491414E+07	 2.07914845E-03	-4.57497272E-03
5.26613494E+07	 2.08290458E-03	-4.57666944E-03
5.26735574E+07	 2.07905879E-03	-4.57794345E-03
5.26857654E+07	 2.07862866E-03	-4.58166150E-03
5.26979735E+07	 2.07698138E-03	-4.58139279E-03
5.27101815E+07	 2.07188414E-03	-4.57981654E-03
5.27223895E+07	 2.07424421E-03	-4.58188061E-03
5.27345975E+07	 2.07580949E-03	-4.58588857E-03
5.27468056E+07	 2.07144972E-03	-4.58798547E-03
5.27590136E+07	 2.06880999E-03	-4.58789319E-03
5.27712216E+07	 2.07154060E-03	-4.58345980E-03
5.27834296E+07	 2.07597631E-03	-4.59220367E-03
5.27956377E+07	 2.07093270E-03	-4.58822698E-03
5.28078457E+07	 2.06996899E-03	-4.58877693E-03
5.28200537E+07	 2.06889143E-03	-4.59425167E-03
5.28322617E+07	 2.06950990E-03	-4.59492929E-03
5.28444698E+07	 2.06414212E-03	-4.59655043E-03
5.28566778E+07	 2.06749731E-03	-4.59749688E-03
5.28688858E+07	 2.06538312E-03	-4.60012854E-03
5.28810938E+07	 2.06262500E-03	-4.59822796E-03
5.28933019E+07	 2.06493560E-03	-4.60608539E-03
5.29055099E+07	 2.06648821E-03	-4.60291557E-03
5.29177179E+07	 2.05495771E-03	-4.60550930E-03
5.29299259E+07	 2.06018518E-03	-4.60839785E-03
5.29421340E+07	 2.06145611E-03	-4.61062455E-03
5.29543420E+07	 2.05850473E-03	-4.60948089E-03
5.29665500E+07	 2.05458817E-03	-4.60843900E-03
5.29787580E+07	 2.05585861E-03	-4.61518044E-03
5.29909661E+07	 2.05269688E-03	-4.61599036E-03
5.30031741E+07	 2.05205052E-03	-4.61852828E-03
5.30153821E+07	 2.05184062E-03	-4.61366381E-03
5.30275901E+07	 2.05169295E-03	-4.61690934E-03
5.30397982E+07	 2.05014310E-03	-4.62037030E-03
5.30520062E+07	 2.04712005E-03	-4.62175524E-03
5.30642142E+07	 2.05271472E-03	-4.62195585E-03
5.30764222E+07	 2.04878947E-03	-4.62539881E-03
5.30886303E+07	 2.04840969E-03	-4.62702068E-03
5.31008383E+07	 2.04757699E-03	-4.62890633E-03
5.31130463E+07	 2.04504980E-03	-4.62709708E-03
5.31252543E+07	 2.04491910E-03	-4.63266936E-03
5.31374624E+07	 2.04295383E-03	-4.63682828E-03
5.31496704E+07	 2.04164576E-03	-4.63349369E-03
5.31618784E+07	 2.04178580E-03	-4.63395224E-03
5.31740864E+07	 2.04090521E-03	-4.63618254E-03
5.31862945E+07	 2.04127706E-03	-4.63808373E-03
5.31985025E+07	 2.03973960E-03	-4.63900830E-03
5.32107105E+07	 2.04142897E-03	-4.63973648E-03
5.32229185E+07	 2.04009647E-03	-4.63769515E-03
5.32351266E+07	 2.03409371E-03	-4.64453783E-03
5.32473346E+07	 2.03349968E-03	-4.64395472E-03
5.32595426E+07	 2.03587336E-03	-4.64603101E-03
5.32717506E+07	 2.03386921E-03	-4.64980286E-03
5.32839587E+07	 2.03603167E-03	-4.64783424E-03
5.32961667E+07	 2.03182501E-03	-4.65251421E-03
5.33083747E+07	 2.03271764E-03	-4.65508502E-03
5.33205827E+07	 2.02618055E-03	-4.65562827E-03
5.33327908E+07	 2.03012625E-03	-4.65361993E-03
5.33449988E+07	 2.02973454E-03	-4.65789191E-03
5.33572068E+07	 2.02694924E-03	-4.65907982E-03
5.33694148E+07	 2.02595428E-03	-4.66025460E-03
5.33816229E+07	 2.02720924E-03	-4.65944448E-03
5.33938309E+07	 2.02424067E-03	-4.66720096E-03
5.34060389E+07	 2.02359127E-03	-4.66001617E-03
5.34182469E+07	 2.01912103E-03	-4.66474033E-03
5.34304550E+07	 2.02706895E-03	-4.66600852E-03
5.34426630E+07	 2.02159571E-03	-4.66357159E-03
5.34548710E+07	 2.01768785E-03	-4.66528473E-03
5.34670790E+07	 2.01821589E-03	-4.66867502E-03
5.34792871E+07	 2.01554991E-03	-4.66966194E-03
5.34914951E+07	 2.01759112E-03	-4.67534933E-03
5.35037031E+07	 2.01822704E-03	-4.67107612E-03
5.35159111E+07	 2.01680415E-03	-4.67658253E-03
5.35281192E+07	 2.01547222E-03	-4.67491685E-03
5.35403272E+07	 2.01750139E-03	-4.67861396E-03
5.35525352E+07	 2.01382363E-03	-4.67622899E-03
5.35647432E+07	 2.01061133E-03	-4.68034048E-03
5.35769512E+07	 2.01062028E-03	-4.68461762E-03
5.35891593E+07	 2.01074555E-03	-4.68179393E-03
5.36013673E+07	 2.01065420E-03	-4.68204386E-03
5.36135753E+07	 2.00388109E-03	-4.68528400E-03
5.36257833E+07	 2.00406520E-03	-4.68693706E-03
5.36379914E+07	 2.00809242E-03	-4.69236729E-03
5.36501994E+07	 2.00775945E-03	-4.69269597E-03
5.36624074E+07	 2.00559669E-03	-4.69223186E-03
5.36746154E+07	 2.00669189E-03	-4.69587728E-03
5.36868235E+07	 2.00381687E-03	-4.69154477E-03
5.36990315E+07	 2.00298427E-03	-4.69481412E-03
5.37112395E+07	 2.00614726E-03	-4.70005603E-03
5.37234475E+07	 2.00308784E-03	-4.69647957E-03
5.37356556E+07	 1.99781657E-03	-4.69976088E-03
5.37478636E+07	 1.99761498E-03	-4.70155342E-03
5.37600716E+07	 1.99855620E-03	-4.70402097E-03
5.37722796E+07	 1.99986718E-03	-4.70752728E-03
5.37844877E+07	 1.99848101E-03	-4.70786441E-03
5.37966957E+07	 1.99085369E-03	-4.70698260E-03
5.38089037E+07	 1.99857640E-03	-4.70437453E-03
5.38211117E+07	 1.98891062E-03	-4.71361597E-03
5.38333198E+07	 1.99196746E-03	-4.71114644E-03
5.38455278E+07	 1.99017941E-03	-4.71246957E-03
5.38577358E+07	 1.98664755E-03	-4.71291672E-03
5.38699438E+07	 1.98697441E-03	-4.71668220E-03
5.38821519E+07	 1.99059080E-03	-4.71913010E-03
5.38943599E+07	 1.98751917E-03	-4.71972651E-03
5.39065679E+07	 1.98941835E-03	-4.71900593E-03
5.39187759E+07	 1.98231741E-03	-4.71960804E-03
5.39309840E+07	 1.98250260E-03	-4.72187763E-03
5.39431920E+07	 1.98821074E-03	-4.72883793E-03
5.39554000E+07	 1.98178400E-03	-4.72528948E-03
5.39676080E+07	 1.98423920E-03	-4.72832483E-03
5.39798161E+07	 1.98086379E-03	-4.72969219E-03
5.39920241E+07	 1.97932876E-03	-4.73018254E-03
5.40042321E+07	 1.98297153E-03	-4.73174830E-03
5.40164401E+07	 1.97633122E-03	-4.73252628E-03
5.40286482E+07	 1.97852494E-03	-4.73801490E-03
5.40408562E+07	 1.97115277E-03	-4.73851804E-03
5.40530642E+07	 1.97522288E-03	-4.74111794E-03
5.40652722E+07	 1.97349290E-03	-4.74222952E-03
5.40774803E+07	 1.97418366E-03	-4.73673662E-03
5.40896883E+07	 1.97669507E-03	-4.74227504E-03
5.41018963E+07	 1.97319743E-03	-4.74374552E-03
5.41141043E+07	 1.96719440E-03	-4.74364315E-03
5.41263124E+07	 1.96862904E-03	-4.74429567E-03
5.41385204E+07	 1.96500727E-03	-4.75093725E-03
5.41507284E+07	 1.96852551E-03	-4.74835554E-03
5.41629364E+07	 1.96319769E-03	-4.75028913E-03
5.41751445E+07	 1.96180732E-03	-4.74997802E-03
5.41873525E+07	 1.96401310E-03	-4.75204121E-03
5.41995605E+07	 1.96326850E-03	-4.75205805E-03
5.42117685E+07	 1.95790863E-03	-4.75940100E-03
5.42239766E+07	 1.96049778E-03	-4.76013887E-03
5.42361846E+07	 1.95729286E-03	-4.76170638E-03
5.42483926E+07	 1.95823911E-03	-4.76295061E-03
5.42606006E+07	 1.95314951E-03	-4.75951710E-03
5.42728087E+07	 1.95284031E-03	-4.76381077E-03
5.42850167E+07	 1.95369212E-03	-4.76582875E-03
5.42972247E+07	 1.95259961E-03	-4.76734637E-03
5.43094327E+07	 1.95171803E-03	-4.76740087E-03
5.43216408E+07	 1.95081548E-03	-4.76777742E-03
5.43338488E+07	 1.94791172E-03	-4.77027879E-03
5.43460568E+07	 1.94736725E-03	-4.77226145E-03
5.43582648E+07	 1.94065858E-03	-4.77467029E-03
5.43704729E+07	 1.94361670E-03	-4.77658240E-03
5.43826809E+07	 1.94563797E-03	-4.77971324E-03
5.43948889E+07	 1.94054435E-03	-4.77889041E-03
5.44070969E+07	 1.94482030E-03	-4.78377201E-03
5.44193050E+07	 1.94177675E-03	-4.78175652E-03
5.44315130E+07	 1.93668213E-03	-4.77734588E-03
5.44437210E+07	 1.94002110E-03	-4.78523386E-03
5.44559290E+07	 1.94386327E-03	-4.78782008E-03
5.44681371E+07	 1.93504549E-03	-4.78601255E-03
5.44803451E+07	 1.93692158E-03	-4.78830724E-03
5.44925531E+07	 1.93601187E-03	-4.78846703E-03
5.45047611E+07	 1.93768938E-03	-4.79075237E-03
5.45169692E+07	 1.93000384E-03	-4.79262098E-03
5.45291772E+07	 1.93017292E-03	-4.79649358E-03
5.45413852E+07	 1.92981725E-03	-4.80046373E-03
5.45535932E+07	 1.93056206E-03	-4.79663081E-03
5.45658013E+07	 1.92803388E-03	-4.80001175E-03
5.45780093E+07	 1.92773776E-03	-4.80025103E-03
5.45902173E+07	 1.92840923E-03	-4.79983330E-03
5.46024253E+07	 1.92640336E-03	-4.79966134E-03
5.46146334E+07	 1.91927280E-03	-4.80302375E-03
5.46268414E+07	 1.92182418E-03	-4.79798130E-03
5.46390494E+07	 1.92215501E-03	-4.80834791E-03
5.46512574E+07	 1.91884946E-03	-4.80939196E-03
5.46634655E+07	 1.91817337E-03	-4.81009009E-03
5.46756735E+07	 1.92154364E-03	-4.81113894E-03
5.46878815E+07	 1.91686507E-03	-4.80847293E-03
5.47000895E+07	 1.91244302E-03	-4.81597930E-03
5.47122976E+07	 1.91570530E-03	-4.81382482E-03
5.47245056E+07	 1.91402831E-03	-4.81952442E-03
5.47367136E+07	 1.91475196E-03	-4.81928276E-03
5.47489216E+07	 1.90883949E-03	-4.82053354E-03
5.47611296E+07	 1.90390740E-03	-4.81975963E-03
5.47733377E+07	 1.91241827E-03	-4.81905699E-03
5.47855457E+07	 1.90911528E-03	-4.82572219E-03
5.47977537E+07	 1.90836134E-03	-4.82476869E-03
5.48099617E+07	 1.90327913E-03	-4.82759214E-03
5.48221698E+07	 1.90295912E-03	-4.82822666E-03
5.48343778E+07	 1.90305258E-03	-4.82976335E-03
5.48465858E+07	 1.90383944E-03	-4.83270672E-03
5.48587938E+07	 1.90300815E-03	-4.83416975E-03
5.48710019E+07	 1.89859359E-03	-4.83649478E-03
5.48832099E+07	 1.90243944E-03	-4.83616781E-03
5.48954179E+07	 1.89703230E-03	-4.83324340E-03
5.49076259E+07	 1.89342599E-03	-4.84099941E-03
5.49198340E+07	 1.89457014E-03	-4.83680464E-03
5.49320420E+07	 1.89589950E-03	-4.84505793E-03
5.49442500E+07	 1.89633092E-03	-4.84446094E-03
5.49564580E+07	 1.89088557E-03	-4.84806151E-03
5.49686661E+07	 1.88779925E-03	-4.84555143E-03
5.49808741E+07	 1.89068077E-03	-4.84390438E-03
5.49930821E+07	 1.88894981E-03	-4.84753384E-03
5.50052901E+07	 1.88656490E-03	-4.85054629E-03
5.50174982E+07	 1.88665926E-03	-4.85049634E-03
5.50297062E+07	 1.88625139E-03	-4.85386740E-03
5.50419142E+07	 1.88592965E-03	-4.86012088E-03
5.50541222E+07	 1.88306243E-03	-4.85428922E-03
5.50663303E+07	 1.88256543E-03	-4.86154677E-03
5.50785383E+07	 1.88151948E-03	-4.85815726E-03
5.50907463E+07	 1.88296618E-03	-4.86464951E-03
5.51029543E+07	 1.88388083E-03	-4.86321276E-03
5.51151624E+07	 1.87914045E-03	-4.86259481E-03
5.51273704E+07	 1.87600409E-03	-4.86985185E-03
