! COPPER MOUNTAIN TECHNOLOGIES, PLANAR TR1300/1, 00071119, 20.2.2/1.0
! Date: 7/24/2023 9:30:11 AM
! Data: Format [Calibration Info]
! Freq          	S11: Re/Im F1                  
# HZ S RI R 50
5.00000000E+07	 2.50351859E-03	-4.40097545E-03
5.00122080E+07	 2.50240266E-03	-4.40297971E-03
5.00244160E+07	 2.50165884E-03	-4.40540383E-03
5.00366241E+07	 2.49710072E-03	-4.40525660E-03
5.00488321E+07	 2.50079829E-03	-4.40970034E-03
5.00610401E+07	 2.49527039E-03	-4.40931445E-03
5.00732481E+07	 2.49675047E-03	-4.40590591E-03
5.00854562E+07	 2.49524768E-03	-4.41185339E-03
5.00976642E+07	 2.48993547E-03	-4.41384996E-03
5.01098722E+07	 2.49077958E-03	-4.41502372E-03
5.01220802E+07	 2.49174298E-03	-4.42205315E-03
5.01342883E+07	 2.48685646E-03	-4.41906459E-03
5.01464963E+07	 2.48464380E-03	-4.41726171E-03
5.01587043E+07	 2.48901082E-03	-4.42025486E-03
5.01709123E+07	 2.48721590E-03	-4.42541637E-03
5.01831204E+07	 2.48625306E-03	-4.42421843E-03
5.01953284E+07	 2.49244064E-03	-4.42869981E-03
5.02075364E+07	 2.48044351E-03	-4.42846086E-03
5.02197444E+07	 2.47901365E-03	-4.43310629E-03
5.02319525E+07	 2.48200333E-03	-4.43229279E-03
5.02441605E+07	 2.47633877E-03	-4.42965933E-03
5.02563685E+07	 2.48167839E-03	-4.43598141E-03
5.02685765E+07	 2.47803208E-03	-4.43661712E-03
5.02807846E+07	 2.47855582E-03	-4.43710573E-03
5.02929926E+07	 2.48125264E-03	-4.44084691E-03
5.03052006E+07	 2.47653478E-03	-4.44171118E-03
5.03174086E+07	 2.47342413E-03	-4.44223090E-03
5.03296167E+07	 2.47304110E-03	-4.44110961E-03
5.03418247E+07	 2.47425986E-03	-4.44513109E-03
5.03540327E+07	 2.46633474E-03	-4.44389025E-03
5.03662407E+07	 2.47019939E-03	-4.44359636E-03
5.03784488E+07	 2.46354488E-03	-4.45267227E-03
5.03906568E+07	 2.46670750E-03	-4.45634377E-03
5.04028648E+07	 2.46825887E-03	-4.45526884E-03
5.04150728E+07	 2.46561402E-03	-4.45400368E-03
5.04272809E+07	 2.46021687E-03	-4.45848533E-03
5.04394889E+07	 2.46380594E-03	-4.46168931E-03
5.04516969E+07	 2.45912946E-03	-4.46502259E-03
5.04639049E+07	 2.45792101E-03	-4.46015471E-03
5.04761130E+07	 2.45893624E-03	-4.46711377E-03
5.04883210E+07	 2.46010439E-03	-4.46434837E-03
5.05005290E+07	 2.45781215E-03	-4.46787315E-03
5.05127370E+07	 2.45853339E-03	-4.46875738E-03
5.05249451E+07	 2.45496908E-03	-4.46952515E-03
5.05371531E+07	 2.45518109E-03	-4.46679527E-03
5.05493611E+07	 2.45450820E-03	-4.47025122E-03
5.05615691E+07	 2.45385446E-03	-4.47448056E-03
5.05737772E+07	 2.45288045E-03	-4.47437860E-03
5.05859852E+07	 2.45386745E-03	-4.48036232E-03
5.05981932E+07	 2.45119287E-03	-4.47826013E-03
5.06104012E+07	 2.44649237E-03	-4.47993489E-03
5.06226093E+07	 2.44963840E-03	-4.48056622E-03
5.06348173E+07	 2.44275311E-03	-4.48176078E-03
5.06470253E+07	 2.44908811E-03	-4.48208674E-03
5.06592333E+07	 2.44367999E-03	-4.48336185E-03
5.06714414E+07	 2.43987795E-03	-4.48897081E-03
5.06836494E+07	 2.44185615E-03	-4.48752213E-03
5.06958574E+07	 2.43993707E-03	-4.49326308E-03
5.07080654E+07	 2.43968116E-03	-4.49417375E-03
5.07202735E+07	 2.43908125E-03	-4.49421723E-03
5.07324815E+07	 2.43794240E-03	-4.49464342E-03
5.07446895E+07	 2.43720524E-03	-4.50527782E-03
5.07568975E+07	 2.44351576E-03	-4.50162409E-03
5.07691056E+07	 2.43018109E-03	-4.50388655E-03
5.07813136E+07	 2.43537377E-03	-4.50200594E-03
5.07935216E+07	 2.42843525E-03	-4.50445185E-03
5.08057296E+07	 2.42970979E-03	-4.50531188E-03
5.08179377E+07	 2.42845905E-03	-4.50321998E-03
5.08301457E+07	 2.42798053E-03	-4.51496590E-03
5.08423537E+07	 2.42909532E-03	-4.51025544E-03
5.08545617E+07	 2.42592690E-03	-4.51297005E-03
5.08667698E+07	 2.42280706E-03	-4.51152036E-03
5.08789778E+07	 2.42109998E-03	-4.51227994E-03
5.08911858E+07	 2.42064984E-03	-4.51711398E-03
5.09033938E+07	 2.42279863E-03	-4.52012875E-03
5.09156019E+07	 2.42362831E-03	-4.51967496E-03
5.09278099E+07	 2.41681055E-03	-4.52137748E-03
5.09400179E+07	 2.41964885E-03	-4.52528737E-03
5.09522259E+07	 2.42226714E-03	-4.52907952E-03
5.09644340E+07	 2.41314806E-03	-4.52556567E-03
5.09766420E+07	 2.41706380E-03	-4.53012049E-03
5.09888500E+07	 2.41184767E-03	-4.53224017E-03
5.10010580E+07	 2.41443332E-03	-4.53041124E-03
5.10132661E+07	 2.41261676E-03	-4.53347007E-03
5.10254741E+07	 2.40788566E-03	-4.53768082E-03
5.10376821E+07	 2.41279821E-03	-4.53639035E-03
5.10498901E+07	 2.41110218E-03	-4.54115207E-03
5.10620982E+07	 2.41510632E-03	-4.54087053E-03
5.10743062E+07	 2.41476646E-03	-4.54705866E-03
5.10865142E+07	 2.40877405E-03	-4.53868708E-03
5.10987222E+07	 2.41331722E-03	-4.54611719E-03
5.11109303E+07	 2.40627453E-03	-4.54628958E-03
5.11231383E+07	 2.40855489E-03	-4.54915043E-03
5.11353463E+07	 2.40401914E-03	-4.55173952E-03
5.11475543E+07	 2.40442953E-03	-4.54993741E-03
5.11597624E+07	 2.40739061E-03	-4.55261214E-03
5.11719704E+07	 2.40680408E-03	-4.55681085E-03
5.11841784E+07	 2.40277111E-03	-4.55875484E-03
5.11963864E+07	 2.40362528E-03	-4.55941317E-03
5.12085944E+07	 2.40030583E-03	-4.55995222E-03
5.12208025E+07	 2.40462863E-03	-4.56220419E-03
5.12330105E+07	 2.39786009E-03	-4.56169496E-03
5.12452185E+07	 2.40178936E-03	-4.56162580E-03
5.12574265E+07	 2.39977535E-03	-4.56526575E-03
5.12696346E+07	 2.39976173E-03	-4.56780930E-03
5.12818426E+07	 2.39792315E-03	-4.56862980E-03
5.12940506E+07	 2.40156103E-03	-4.57352517E-03
5.13062586E+07	 2.39776918E-03	-4.57637736E-03
5.13184667E+07	 2.39513954E-03	-4.57385796E-03
5.13306747E+07	 2.39675186E-03	-4.57440413E-03
5.13428827E+07	 2.39804320E-03	-4.57625146E-03
5.13550907E+07	 2.39521563E-03	-4.58032292E-03
5.13672988E+07	 2.39715835E-03	-4.58088551E-03
5.13795068E+07	 2.39142203E-03	-4.58604263E-03
5.13917148E+07	 2.39269594E-03	-4.58356942E-03
5.14039228E+07	 2.39542898E-03	-4.58841362E-03
5.14161309E+07	 2.38834730E-03	-4.58461980E-03
5.14283389E+07	 2.39019277E-03	-4.58915959E-03
5.14405469E+07	 2.39136929E-03	-4.58988494E-03
5.14527549E+07	 2.39157993E-03	-4.59693549E-03
5.14649630E+07	 2.38670740E-03	-4.59287520E-03
5.14771710E+07	 2.39053650E-03	-4.59368555E-03
5.14893790E+07	 2.38354996E-03	-4.59458746E-03
5.15015870E+07	 2.38424982E-03	-4.60712205E-03
5.15137951E+07	 2.38816837E-03	-4.60076716E-03
5.15260031E+07	 2.38984271E-03	-4.60285150E-03
5.15382111E+07	 2.38515324E-03	-4.60626203E-03
5.15504191E+07	 2.38688280E-03	-4.60642964E-03
5.15626272E+07	 2.38556242E-03	-4.60651561E-03
5.15748352E+07	 2.38327588E-03	-4.60748086E-03
5.15870432E+07	 2.38648609E-03	-4.61103736E-03
5.15992512E+07	 2.38117591E-03	-4.61073606E-03
5.16114593E+07	 2.38347599E-03	-4.61611635E-03
5.16236673E+07	 2.38422351E-03	-4.61616804E-03
5.16358753E+07	 2.37879375E-03	-4.61849810E-03
5.16480833E+07	 2.38220854E-03	-4.61717915E-03
5.16602914E+07	 2.37704600E-03	-4.62070812E-03
5.16724994E+07	 2.37947956E-03	-4.62153933E-03
5.16847074E+07	 2.37867218E-03	-4.62540484E-03
5.16969154E+07	 2.37672108E-03	-4.62613880E-03
5.17091235E+07	 2.37586610E-03	-4.62445580E-03
5.17213315E+07	 2.37485789E-03	-4.62747657E-03
5.17335395E+07	 2.37802189E-03	-4.63228061E-03
5.17457475E+07	 2.36999312E-03	-4.62901087E-03
5.17579556E+07	 2.37140375E-03	-4.63269845E-03
5.17701636E+07	 2.37089329E-03	-4.63368011E-03
5.17823716E+07	 2.37331748E-03	-4.63604140E-03
5.17945796E+07	 2.37418242E-03	-4.63922113E-03
5.18067877E+07	 2.36759053E-03	-4.64113740E-03
5.18189957E+07	 2.37355077E-03	-4.64536524E-03
5.18312037E+07	 2.36959960E-03	-4.64534868E-03
5.18434117E+07	 2.37199724E-03	-4.64472720E-03
5.18556198E+07	 2.37102618E-03	-4.64748075E-03
5.18678278E+07	 2.37167403E-03	-4.64826155E-03
5.18800358E+07	 2.36774249E-03	-4.65431161E-03
5.18922438E+07	 2.36332255E-03	-4.65197985E-03
5.19044519E+07	 2.36125236E-03	-4.65145289E-03
5.19166599E+07	 2.36897727E-03	-4.65606927E-03
5.19288679E+07	 2.36235906E-03	-4.66209636E-03
5.19410759E+07	 2.36640123E-03	-4.65746609E-03
5.19532840E+07	 2.36163691E-03	-4.65691386E-03
5.19654920E+07	 2.36413864E-03	-4.66126671E-03
5.19777000E+07	 2.36093269E-03	-4.67080938E-03
5.19899080E+07	 2.35992072E-03	-4.66302194E-03
5.20021161E+07	 2.36309740E-03	-4.66519032E-03
5.20143241E+07	 2.36060698E-03	-4.66600885E-03
5.20265321E+07	 2.36038398E-03	-4.66884653E-03
5.20387401E+07	 2.35611734E-03	-4.67030815E-03
5.20509482E+07	 2.35330207E-03	-4.67589477E-03
5.20631562E+07	 2.35416603E-03	-4.67303532E-03
5.20753642E+07	 2.35091496E-03	-4.67782727E-03
5.20875722E+07	 2.35488955E-03	-4.67012806E-03
5.20997803E+07	 2.35213886E-03	-4.67850918E-03
5.21119883E+07	 2.34765009E-03	-4.67902025E-03
5.21241963E+07	 2.35154652E-03	-4.68015019E-03
5.21364043E+07	 2.34817670E-03	-4.68343794E-03
5.21486124E+07	 2.34994379E-03	-4.68540428E-03
5.21608204E+07	 2.34476978E-03	-4.68719943E-03
5.21730284E+07	 2.34266227E-03	-4.68477255E-03
5.21852364E+07	 2.34452923E-03	-4.68970649E-03
5.21974445E+07	 2.34474041E-03	-4.68789628E-03
5.22096525E+07	 2.33999111E-03	-4.69484649E-03
5.22218605E+07	 2.34155613E-03	-4.69523508E-03
5.22340685E+07	 2.33667943E-03	-4.69433723E-03
5.22462766E+07	 2.33830985E-03	-4.69894640E-03
5.22584846E+07	 2.33755891E-03	-4.69737611E-03
5.22706926E+07	 2.33927961E-03	-4.69774046E-03
5.22829006E+07	 2.33678102E-03	-4.70405925E-03
5.22951087E+07	 2.33396250E-03	-4.70240509E-03
5.23073167E+07	 2.33186507E-03	-4.71035864E-03
5.23195247E+07	 2.33382346E-03	-4.70838154E-03
5.23317327E+07	 2.33608048E-03	-4.70302655E-03
5.23439408E+07	 2.33141295E-03	-4.70674231E-03
5.23561488E+07	 2.33314356E-03	-4.70883121E-03
5.23683568E+07	 2.32906780E-03	-4.71209052E-03
5.23805648E+07	 2.32404184E-03	-4.71081779E-03
5.23927728E+07	 2.33045899E-03	-4.71417845E-03
5.24049809E+07	 2.32550615E-03	-4.71659156E-03
5.24171889E+07	 2.32412383E-03	-4.71566530E-03
5.24293969E+07	 2.31954796E-03	-4.71436348E-03
5.24416049E+07	 2.32284374E-03	-4.72512519E-03
5.24538130E+07	 2.32268524E-03	-4.71968870E-03
5.24660210E+07	 2.31814993E-03	-4.72217623E-03
5.24782290E+07	 2.32122023E-03	-4.72555301E-03
5.24904370E+07	 2.32098696E-03	-4.72353962E-03
5.25026451E+07	 2.32031330E-03	-4.73196386E-03
5.25148531E+07	 2.31502437E-03	-4.73132758E-03
5.25270611E+07	 2.31530990E-03	-4.73236873E-03
5.25392691E+07	 2.31353273E-03	-4.73201270E-03
5.25514772E+07	 2.31277291E-03	-4.73164822E-03
5.25636852E+07	 2.31223438E-03	-4.73597051E-03
5.25758932E+07	 2.31483893E-03	-4.73457202E-03
5.25881012E+07	 2.31031890E-03	-4.73384788E-03
5.26003093E+07	 2.31003408E-03	-4.74286640E-03
5.26125173E+07	 2.30876762E-03	-4.74004347E-03
5.26247253E+07	 2.30713883E-03	-4.74080683E-03
5.26369333E+07	 2.30599271E-03	-4.74690776E-03
5.26491414E+07	 2.30952315E-03	-4.74763336E-03
5.26613494E+07	 2.30413667E-03	-4.74674542E-03
5.26735574E+07	 2.30575001E-03	-4.74554043E-03
5.26857654E+07	 2.30569589E-03	-4.74494864E-03
5.26979735E+07	 2.30354596E-03	-4.74876280E-03
5.27101815E+07	 2.30227376E-03	-4.75447026E-03
5.27223895E+07	 2.29900370E-03	-4.75334229E-03
5.27345975E+07	 2.29666475E-03	-4.75859815E-03
5.27468056E+07	 2.29776640E-03	-4.75514746E-03
5.27590136E+07	 2.29631242E-03	-4.75830880E-03
5.27712216E+07	 2.29145877E-03	-4.75920121E-03
5.27834296E+07	 2.29523750E-03	-4.76457625E-03
5.27956377E+07	 2.28985499E-03	-4.76024237E-03
5.28078457E+07	 2.29624465E-03	-4.76616325E-03
5.28200537E+07	 2.29116398E-03	-4.76305469E-03
5.28322617E+07	 2.29000920E-03	-4.76274773E-03
5.28444698E+07	 2.29395089E-03	-4.77209556E-03
5.28566778E+07	 2.28977793E-03	-4.76730639E-03
5.28688858E+07	 2.28950562E-03	-4.77717917E-03
5.28810938E+07	 2.28473017E-03	-4.77800602E-03
5.28933019E+07	 2.28332472E-03	-4.77871166E-03
5.29055099E+07	 2.28390186E-03	-4.77576336E-03
5.29177179E+07	 2.28131797E-03	-4.78544178E-03
5.29299259E+07	 2.28296535E-03	-4.77602464E-03
5.29421340E+07	 2.28107132E-03	-4.77904123E-03
5.29543420E+07	 2.27610011E-03	-4.77939166E-03
5.29665500E+07	 2.28131835E-03	-4.78791585E-03
5.29787580E+07	 2.27358665E-03	-4.78734604E-03
5.29909661E+07	 2.27450900E-03	-4.78488127E-03
5.30031741E+07	 2.27653518E-03	-4.78535069E-03
5.30153821E+07	 2.27313561E-03	-4.79158828E-03
5.30275901E+07	 2.27517511E-03	-4.79071173E-03
5.30397982E+07	 2.27264413E-03	-4.79491164E-03
5.30520062E+07	 2.27092062E-03	-4.79442340E-03
5.30642142E+07	 2.27417197E-03	-4.79522200E-03
5.30764222E+07	 2.27117375E-03	-4.79675987E-03
5.30886303E+07	 2.27104998E-03	-4.79667454E-03
5.31008383E+07	 2.27010166E-03	-4.80227572E-03
5.31130463E+07	 2.26214881E-03	-4.79862802E-03
5.31252543E+07	 2.26605101E-03	-4.80286467E-03
5.31374624E+07	 2.26185014E-03	-4.80336522E-03
5.31496704E+07	 2.26500273E-03	-4.81136200E-03
5.31618784E+07	 2.26345945E-03	-4.80950451E-03
5.31740864E+07	 2.25801609E-03	-4.80872609E-03
5.31862945E+07	 2.26077804E-03	-4.80899075E-03
5.31985025E+07	 2.26278558E-03	-4.81135682E-03
5.32107105E+07	 2.25971409E-03	-4.81114157E-03
5.32229185E+07	 2.25625273E-03	-4.81583870E-03
5.32351266E+07	 2.26160412E-03	-4.81589403E-03
5.32473346E+07	 2.25200412E-03	-4.82127954E-03
5.32595426E+07	 2.25462157E-03	-4.81833220E-03
5.32717506E+07	 2.25752447E-03	-4.81914312E-03
5.32839587E+07	 2.25478005E-03	-4.81888527E-03
5.32961667E+07	 2.25128186E-03	-4.81917943E-03
5.33083747E+07	 2.25258735E-03	-4.82472020E-03
5.33205827E+07	 2.25249589E-03	-4.82558109E-03
5.33327908E+07	 2.24682845E-03	-4.82797958E-03
5.33449988E+07	 2.24889771E-03	-4.82484400E-03
5.33572068E+07	 2.24526995E-03	-4.83344785E-03
5.33694148E+07	 2.24920833E-03	-4.82898499E-03
5.33816229E+07	 2.24881769E-03	-4.83615134E-03
5.33938309E+07	 2.24562453E-03	-4.83126303E-03
5.34060389E+07	 2.24340977E-03	-4.83524887E-03
5.34182469E+07	 2.24293516E-03	-4.83497300E-03
5.34304550E+07	 2.24493688E-03	-4.83923719E-03
5.34426630E+07	 2.23806051E-03	-4.84341791E-03
5.34548710E+07	 2.24550250E-03	-4.84234705E-03
5.34670790E+07	 2.23912454E-03	-4.84392531E-03
5.34792871E+07	 2.23350198E-03	-4.84343129E-03
5.34914951E+07	 2.23410452E-03	-4.84760305E-03
5.35037031E+07	 2.23465074E-03	-4.84887156E-03
5.35159111E+07	 2.23709890E-03	-4.85030023E-03
5.35281192E+07	 2.23518743E-03	-4.84742065E-03
5.35403272E+07	 2.23294472E-03	-4.85220362E-03
5.35525352E+07	 2.23631265E-03	-4.84932478E-03
5.35647432E+07	 2.23384558E-03	-4.85543244E-03
5.35769512E+07	 2.23257375E-03	-4.85668200E-03
5.35891593E+07	 2.22754213E-03	-4.85870281E-03
5.36013673E+07	 2.23137438E-03	-4.86145878E-03
5.36135753E+07	 2.23317465E-03	-4.86296454E-03
5.36257833E+07	 2.22513061E-03	-4.86136928E-03
5.36379914E+07	 2.23101944E-03	-4.86413749E-03
5.36501994E+07	 2.22753472E-03	-4.86313283E-03
5.36624074E+07	 2.22605135E-03	-4.86653540E-03
5.36746154E+07	 2.22505644E-03	-4.86745808E-03
5.36868235E+07	 2.22269870E-03	-4.86936063E-03
5.36990315E+07	 2.22238152E-03	-4.87351124E-03
5.37112395E+07	 2.22231871E-03	-4.87514872E-03
5.37234475E+07	 2.21698253E-03	-4.87212273E-03
5.37356556E+07	 2.21693649E-03	-4.87692425E-03
5.37478636E+07	 2.21913517E-03	-4.87633978E-03
5.37600716E+07	 2.21905185E-03	-4.88218143E-03
5.37722796E+07	 2.21714899E-03	-4.88232254E-03
5.37844877E+07	 2.21537567E-03	-4.88073620E-03
5.37966957E+07	 2.21785206E-03	-4.88170698E-03
5.38089037E+07	 2.21086662E-03	-4.88320347E-03
5.38211117E+07	 2.21807906E-03	-4.88702129E-03
5.38333198E+07	 2.21125451E-03	-4.88785320E-03
5.38455278E+07	 2.21012615E-03	-4.88491419E-03
5.38577358E+07	 2.20815182E-03	-4.88607813E-03
5.38699438E+07	 2.20770435E-03	-4.88839233E-03
5.38821519E+07	 2.20449265E-03	-4.89305895E-03
5.38943599E+07	 2.20452669E-03	-4.88942379E-03
5.39065679E+07	 2.20645628E-03	-4.89689284E-03
5.39187759E+07	 2.20506637E-03	-4.89796067E-03
5.39309840E+07	 2.20248898E-03	-4.89984160E-03
5.39431920E+07	 2.20224412E-03	-4.90101821E-03
5.39554000E+07	 2.20368925E-03	-4.90603665E-03
5.39676080E+07	 2.19909063E-03	-4.90279856E-03
5.39798161E+07	 2.19835957E-03	-4.90754693E-03
5.39920241E+07	 2.20125595E-03	-4.90524907E-03
5.40042321E+07	 2.19567847E-03	-4.90775336E-03
5.40164401E+07	 2.19353700E-03	-4.90883495E-03
5.40286482E+07	 2.19491985E-03	-4.90994851E-03
5.40408562E+07	 2.19315007E-03	-4.90992867E-03
5.40530642E+07	 2.18808778E-03	-4.91482934E-03
5.40652722E+07	 2.19000190E-03	-4.91984364E-03
5.40774803E+07	 2.19640354E-03	-4.91903719E-03
5.40896883E+07	 2.19194684E-03	-4.92145467E-03
5.41018963E+07	 2.18946874E-03	-4.91836396E-03
5.41141043E+07	 2.19089178E-03	-4.92030986E-03
5.41263124E+07	 2.18463477E-03	-4.92483082E-03
5.41385204E+07	 2.19160812E-03	-4.92355998E-03
5.41507284E+07	 2.18357302E-03	-4.92520453E-03
5.41629364E+07	 2.17657942E-03	-4.92592682E-03
5.41751445E+07	 2.18211580E-03	-4.93022073E-03
5.41873525E+07	 2.18476755E-03	-4.92940816E-03
5.41995605E+07	 2.18187626E-03	-4.92660697E-03
5.42117685E+07	 2.17924410E-03	-4.93239958E-03
5.42239766E+07	 2.18012365E-03	-4.93258713E-03
5.42361846E+07	 2.17108527E-03	-4.92781990E-03
5.42483926E+07	 2.17757642E-03	-4.93452899E-03
5.42606006E+07	 2.17096931E-03	-4.93772078E-03
5.42728087E+07	 2.17109560E-03	-4.93710010E-03
5.42850167E+07	 2.17100913E-03	-4.94346671E-03
5.42972247E+07	 2.17349983E-03	-4.94122539E-03
5.43094327E+07	 2.16813853E-03	-4.94772274E-03
5.43216408E+07	 2.17067329E-03	-4.94482722E-03
5.43338488E+07	 2.16754822E-03	-4.95165753E-03
5.43460568E+07	 2.16947561E-03	-4.94716178E-03
5.43582648E+07	 2.16122360E-03	-4.94810226E-03
5.43704729E+07	 2.16314500E-03	-4.95504108E-03
5.43826809E+07	 2.16262027E-03	-4.95604312E-03
5.43948889E+07	 2.15709313E-03	-4.95468902E-03
5.44070969E+07	 2.15950054E-03	-4.95577070E-03
5.44193050E+07	 2.15768883E-03	-4.95705833E-03
5.44315130E+07	 2.15789430E-03	-4.95821937E-03
5.44437210E+07	 2.15830222E-03	-4.96067305E-03
5.44559290E+07	 2.15747068E-03	-4.96361218E-03
5.44681371E+07	 2.15387374E-03	-4.96346915E-03
5.44803451E+07	 2.15208539E-03	-4.96244050E-03
5.44925531E+07	 2.14877434E-03	-4.96899125E-03
5.45047611E+07	 2.14867314E-03	-4.96616013E-03
5.45169692E+07	 2.14990181E-03	-4.96790961E-03
5.45291772E+07	 2.15073258E-03	-4.97437210E-03
5.45413852E+07	 2.15019601E-03	-4.97340453E-03
5.45535932E+07	 2.14571234E-03	-4.97519894E-03
5.45658013E+07	 2.13779386E-03	-4.97545460E-03
5.45780093E+07	 2.14261143E-03	-4.98062792E-03
5.45902173E+07	 2.14562247E-03	-4.97783904E-03
5.46024253E+07	 2.14261845E-03	-4.97958810E-03
5.46146334E+07	 2.13912262E-03	-4.98166820E-03
5.46268414E+07	 2.13839684E-03	-4.98269652E-03
5.46390494E+07	 2.13653831E-03	-4.98448871E-03
5.46512574E+07	 2.13860728E-03	-4.98846214E-03
5.46634655E+07	 2.13563090E-03	-4.98719150E-03
5.46756735E+07	 2.13385301E-03	-4.98618791E-03
5.46878815E+07	 2.13521934E-03	-4.99142767E-03
5.47000895E+07	 2.13211295E-03	-4.99070443E-03
5.47122976E+07	 2.13573250E-03	-4.99143870E-03
5.47245056E+07	 2.13255420E-03	-4.99333164E-03
5.47367136E+07	 2.12371754E-03	-5.00067821E-03
5.47489216E+07	 2.12783945E-03	-4.99402213E-03
5.47611296E+07	 2.12759132E-03	-5.00013664E-03
5.47733377E+07	 2.12457454E-03	-5.00214113E-03
5.47855457E+07	 2.12550876E-03	-4.99892600E-03
5.47977537E+07	 2.12141014E-03	-5.00786883E-03
5.48099617E+07	 2.12636708E-03	-5.00540047E-03
5.48221698E+07	 2.12058230E-03	-5.00686390E-03
5.48343778E+07	 2.12003362E-03	-5.00722159E-03
5.48465858E+07	 2.11862057E-03	-5.00901559E-03
5.48587938E+07	 2.11865294E-03	-5.00899195E-03
5.48710019E+07	 2.11102298E-03	-5.01228647E-03
5.48832099E+07	 2.11616416E-03	-5.01260835E-03
5.48954179E+07	 2.11068248E-03	-5.01132003E-03
5.49076259E+07	 2.11080754E-03	-5.01655221E-03
5.49198340E+07	 2.11225823E-03	-5.01871635E-03
5.49320420E+07	 2.10936896E-03	-5.01793150E-03
5.49442500E+07	 2.10733371E-03	-5.02353751E-03
5.49564580E+07	 2.10729110E-03	-5.01709316E-03
5.49686661E+07	 2.10556013E-03	-5.02289470E-03
5.49808741E+07	 2.10945035E-03	-5.02822087E-03
5.49930821E+07	 2.10401986E-03	-5.02748222E-03
5.50052901E+07	 2.09955717E-03	-5.02820937E-03
5.50174982E+07	 2.10429929E-03	-5.03106482E-03
5.50297062E+07	 2.10007975E-03	-5.03414639E-03
5.50419142E+07	 2.09641293E-03	-5.03049127E-03
5.50541222E+07	 2.10236910E-03	-5.03569202E-03
5.50663303E+07	 2.09943602E-03	-5.03549894E-03
5.50785383E+07	 2.09847405E-03	-5.03521971E-03
5.50907463E+07	 2.09491551E-03	-5.03912936E-03
5.51029543E+07	 2.09388413E-03	-5.04378297E-03
5.51151624E+07	 2.09343637E-03	-5.04304346E-03
5.51273704E+07	 2.09591142E-03	-5.04567641E-03
