! COPPER MOUNTAIN TECHNOLOGIES, PLANAR TR1300/1, 00071119, 20.2.2/1.0
! Date: 7/24/2023 9:18:45 AM
! Data: Format [Calibration Info]
! Freq          	S11: Re/Im F1                  
# HZ S RI R 50
5.00000000E+07	-1.82571651E-01	 1.90880085E-01
5.00122080E+07	-1.82253526E-01	 1.91179892E-01
5.00244160E+07	-1.81937322E-01	 1.91476381E-01
5.00366241E+07	-1.81626432E-01	 1.91773476E-01
5.00488321E+07	-1.81311014E-01	 1.92063871E-01
5.00610401E+07	-1.80996337E-01	 1.92355464E-01
5.00732481E+07	-1.80678040E-01	 1.92654681E-01
5.00854562E+07	-1.80350321E-01	 1.92947347E-01
5.00976642E+07	-1.80045624E-01	 1.93237396E-01
5.01098722E+07	-1.79718340E-01	 1.93529382E-01
5.01220802E+07	-1.79393884E-01	 1.93816025E-01
5.01342883E+07	-1.79083111E-01	 1.94108534E-01
5.01464963E+07	-1.78762429E-01	 1.94401027E-01
5.01587043E+07	-1.78443036E-01	 1.94690407E-01
5.01709123E+07	-1.78116503E-01	 1.94978036E-01
5.01831204E+07	-1.77795999E-01	 1.95265653E-01
5.01953284E+07	-1.77472225E-01	 1.95553452E-01
5.02075364E+07	-1.77148369E-01	 1.95834457E-01
5.02197444E+07	-1.76830326E-01	 1.96127978E-01
5.02319525E+07	-1.76503313E-01	 1.96409687E-01
5.02441605E+07	-1.76183753E-01	 1.96706168E-01
5.02563685E+07	-1.75858641E-01	 1.96980709E-01
5.02685765E+07	-1.75532465E-01	 1.97263739E-01
5.02807846E+07	-1.75204577E-01	 1.97553476E-01
5.02929926E+07	-1.74874963E-01	 1.97836541E-01
5.03052006E+07	-1.74560066E-01	 1.98118211E-01
5.03174086E+07	-1.74228239E-01	 1.98402672E-01
5.03296167E+07	-1.73897763E-01	 1.98687275E-01
5.03418247E+07	-1.73570351E-01	 1.98966332E-01
5.03540327E+07	-1.73244872E-01	 1.99250896E-01
5.03662407E+07	-1.72910200E-01	 1.99524724E-01
5.03784488E+07	-1.72583443E-01	 1.99802372E-01
5.03906568E+07	-1.72250962E-01	 2.00081266E-01
5.04028648E+07	-1.71922966E-01	 2.00358760E-01
5.04150728E+07	-1.71593767E-01	 2.00640720E-01
5.04272809E+07	-1.71264484E-01	 2.00913612E-01
5.04394889E+07	-1.70928964E-01	 2.01189627E-01
5.04516969E+07	-1.70604213E-01	 2.01467503E-01
5.04639049E+07	-1.70266342E-01	 2.01744192E-01
5.04761130E+07	-1.69932974E-01	 2.02020566E-01
5.04883210E+07	-1.69600102E-01	 2.02297068E-01
5.05005290E+07	-1.69261066E-01	 2.02564374E-01
5.05127370E+07	-1.68930985E-01	 2.02840895E-01
5.05249451E+07	-1.68600183E-01	 2.03114374E-01
5.05371531E+07	-1.68260052E-01	 2.03387799E-01
5.05493611E+07	-1.67925160E-01	 2.03655847E-01
5.05615691E+07	-1.67587390E-01	 2.03929757E-01
5.05737772E+07	-1.67254095E-01	 2.04198780E-01
5.05859852E+07	-1.66916265E-01	 2.04468012E-01
5.05981932E+07	-1.66577032E-01	 2.04740112E-01
5.06104012E+07	-1.66247176E-01	 2.05008856E-01
5.06226093E+07	-1.65901297E-01	 2.05273651E-01
5.06348173E+07	-1.65560761E-01	 2.05538916E-01
5.06470253E+07	-1.65224794E-01	 2.05814433E-01
5.06592333E+07	-1.64888760E-01	 2.06075954E-01
5.06714414E+07	-1.64545471E-01	 2.06341131E-01
5.06836494E+07	-1.64207548E-01	 2.06608920E-01
5.06958574E+07	-1.63863196E-01	 2.06873370E-01
5.07080654E+07	-1.63523571E-01	 2.07140525E-01
5.07202735E+07	-1.63182017E-01	 2.07398064E-01
5.07324815E+07	-1.62832863E-01	 2.07672137E-01
5.07446895E+07	-1.62492965E-01	 2.07928825E-01
5.07568975E+07	-1.62157393E-01	 2.08185157E-01
5.07691056E+07	-1.61816139E-01	 2.08444469E-01
5.07813136E+07	-1.61463630E-01	 2.08706592E-01
5.07935216E+07	-1.61121686E-01	 2.08972477E-01
5.08057296E+07	-1.60782842E-01	 2.09226752E-01
5.08179377E+07	-1.60435317E-01	 2.09489836E-01
5.08301457E+07	-1.60083288E-01	 2.09747839E-01
5.08423537E+07	-1.59736626E-01	 2.10008509E-01
5.08545617E+07	-1.59396097E-01	 2.10266267E-01
5.08667698E+07	-1.59047065E-01	 2.10523226E-01
5.08789778E+07	-1.58698778E-01	 2.10778994E-01
5.08911858E+07	-1.58354177E-01	 2.11033644E-01
5.09033938E+07	-1.58002921E-01	 2.11291652E-01
5.09156019E+07	-1.57650603E-01	 2.11548043E-01
5.09278099E+07	-1.57301827E-01	 2.11799556E-01
5.09400179E+07	-1.56955952E-01	 2.12052758E-01
5.09522259E+07	-1.56603087E-01	 2.12304194E-01
5.09644340E+07	-1.56255147E-01	 2.12558654E-01
5.09766420E+07	-1.55903909E-01	 2.12802381E-01
5.09888500E+07	-1.55556258E-01	 2.13060652E-01
5.10010580E+07	-1.55202777E-01	 2.13304496E-01
5.10132661E+07	-1.54852325E-01	 2.13558961E-01
5.10254741E+07	-1.54500419E-01	 2.13810761E-01
5.10376821E+07	-1.54147302E-01	 2.14052577E-01
5.10498901E+07	-1.53787480E-01	 2.14301921E-01
5.10620982E+07	-1.53437285E-01	 2.14546829E-01
5.10743062E+07	-1.53082629E-01	 2.14796013E-01
5.10865142E+07	-1.52725538E-01	 2.15047130E-01
5.10987222E+07	-1.52368499E-01	 2.15288732E-01
5.11109303E+07	-1.52016899E-01	 2.15535994E-01
5.11231383E+07	-1.51657965E-01	 2.15778131E-01
5.11353463E+07	-1.51306343E-01	 2.16016599E-01
5.11475543E+07	-1.50941365E-01	 2.16268882E-01
5.11597624E+07	-1.50587665E-01	 2.16508230E-01
5.11719704E+07	-1.50234543E-01	 2.16749888E-01
5.11841784E+07	-1.49877282E-01	 2.16989754E-01
5.11963864E+07	-1.49510166E-01	 2.17226925E-01
5.12085944E+07	-1.49158472E-01	 2.17474440E-01
5.12208025E+07	-1.48801103E-01	 2.17711156E-01
5.12330105E+07	-1.48439909E-01	 2.17951352E-01
5.12452185E+07	-1.48078330E-01	 2.18183773E-01
5.12574265E+07	-1.47720876E-01	 2.18426372E-01
5.12696346E+07	-1.47357322E-01	 2.18660737E-01
5.12818426E+07	-1.47001505E-01	 2.18896159E-01
5.12940506E+07	-1.46635162E-01	 2.19136011E-01
5.13062586E+07	-1.46274672E-01	 2.19367450E-01
5.13184667E+07	-1.45914525E-01	 2.19608584E-01
5.13306747E+07	-1.45550638E-01	 2.19838561E-01
5.13428827E+07	-1.45184609E-01	 2.20068240E-01
5.13550907E+07	-1.44821041E-01	 2.20303210E-01
5.13672988E+07	-1.44453810E-01	 2.20539012E-01
5.13795068E+07	-1.44095663E-01	 2.20764444E-01
5.13917148E+07	-1.43732334E-01	 2.20999628E-01
5.14039228E+07	-1.43362522E-01	 2.21228012E-01
5.14161309E+07	-1.43000505E-01	 2.21459783E-01
5.14283389E+07	-1.42634693E-01	 2.21687553E-01
5.14405469E+07	-1.42270147E-01	 2.21915706E-01
5.14527549E+07	-1.41901027E-01	 2.22149397E-01
5.14649630E+07	-1.41536623E-01	 2.22372021E-01
5.14771710E+07	-1.41171069E-01	 2.22598307E-01
5.14893790E+07	-1.40803604E-01	 2.22824137E-01
5.15015870E+07	-1.40434352E-01	 2.23045385E-01
5.15137951E+07	-1.40060903E-01	 2.23276481E-01
5.15260031E+07	-1.39695076E-01	 2.23497825E-01
5.15382111E+07	-1.39324484E-01	 2.23723133E-01
5.15504191E+07	-1.38957049E-01	 2.23950013E-01
5.15626272E+07	-1.38589077E-01	 2.24169043E-01
5.15748352E+07	-1.38212125E-01	 2.24393488E-01
5.15870432E+07	-1.37847362E-01	 2.24612249E-01
5.15992512E+07	-1.37476344E-01	 2.24831216E-01
5.16114593E+07	-1.37104228E-01	 2.25051421E-01
5.16236673E+07	-1.36734812E-01	 2.25275325E-01
5.16358753E+07	-1.36359906E-01	 2.25490657E-01
5.16480833E+07	-1.35988129E-01	 2.25708296E-01
5.16602914E+07	-1.35612840E-01	 2.25925096E-01
5.16724994E+07	-1.35239975E-01	 2.26141220E-01
5.16847074E+07	-1.34866421E-01	 2.26361342E-01
5.16969154E+07	-1.34492798E-01	 2.26576854E-01
5.17091235E+07	-1.34119664E-01	 2.26788217E-01
5.17213315E+07	-1.33747763E-01	 2.27006822E-01
5.17335395E+07	-1.33365129E-01	 2.27215299E-01
5.17457475E+07	-1.32999586E-01	 2.27437198E-01
5.17579556E+07	-1.32619568E-01	 2.27647726E-01
5.17701636E+07	-1.32247088E-01	 2.27859971E-01
5.17823716E+07	-1.31873094E-01	 2.28062181E-01
5.17945796E+07	-1.31495633E-01	 2.28275789E-01
5.18067877E+07	-1.31110329E-01	 2.28487565E-01
5.18189957E+07	-1.30737906E-01	 2.28696851E-01
5.18312037E+07	-1.30360197E-01	 2.28899427E-01
5.18434117E+07	-1.29976829E-01	 2.29108681E-01
5.18556198E+07	-1.29601390E-01	 2.29329506E-01
5.18678278E+07	-1.29223069E-01	 2.29529302E-01
5.18800358E+07	-1.28854838E-01	 2.29732634E-01
5.18922438E+07	-1.28472701E-01	 2.29939811E-01
5.19044519E+07	-1.28091913E-01	 2.30143223E-01
5.19166599E+07	-1.27712395E-01	 2.30344910E-01
5.19288679E+07	-1.27329790E-01	 2.30549866E-01
5.19410759E+07	-1.26949178E-01	 2.30760014E-01
5.19532840E+07	-1.26571287E-01	 2.30958577E-01
5.19654920E+07	-1.26186904E-01	 2.31156341E-01
5.19777000E+07	-1.25802081E-01	 2.31354713E-01
5.19899080E+07	-1.25417226E-01	 2.31565118E-01
5.20021161E+07	-1.25040087E-01	 2.31754201E-01
5.20143241E+07	-1.24653077E-01	 2.31960492E-01
5.20265321E+07	-1.24275364E-01	 2.32156216E-01
5.20387401E+07	-1.23890647E-01	 2.32355701E-01
5.20509482E+07	-1.23507050E-01	 2.32548917E-01
5.20631562E+07	-1.23127612E-01	 2.32752774E-01
5.20753642E+07	-1.22743856E-01	 2.32941784E-01
5.20875722E+07	-1.22358202E-01	 2.33141060E-01
5.20997803E+07	-1.21974380E-01	 2.33331578E-01
5.21119883E+07	-1.21593469E-01	 2.33525749E-01
5.21241963E+07	-1.21209737E-01	 2.33721130E-01
5.21364043E+07	-1.20820534E-01	 2.33915866E-01
5.21486124E+07	-1.20437103E-01	 2.34108400E-01
5.21608204E+07	-1.20045817E-01	 2.34297670E-01
5.21730284E+07	-1.19656710E-01	 2.34488504E-01
5.21852364E+07	-1.19275987E-01	 2.34679376E-01
5.21974445E+07	-1.18892531E-01	 2.34868090E-01
5.22096525E+07	-1.18502058E-01	 2.35059360E-01
5.22218605E+07	-1.18113287E-01	 2.35246140E-01
5.22340685E+07	-1.17730638E-01	 2.35428010E-01
5.22462766E+07	-1.17337714E-01	 2.35616817E-01
5.22584846E+07	-1.16948998E-01	 2.35815077E-01
5.22706926E+07	-1.16559606E-01	 2.35990402E-01
5.22829006E+07	-1.16175373E-01	 2.36172768E-01
5.22951087E+07	-1.15782570E-01	 2.36362289E-01
5.23073167E+07	-1.15391664E-01	 2.36545848E-01
5.23195247E+07	-1.15003360E-01	 2.36731286E-01
5.23317327E+07	-1.14608060E-01	 2.36916137E-01
5.23439408E+07	-1.14224295E-01	 2.37095695E-01
5.23561488E+07	-1.13826122E-01	 2.37276288E-01
5.23683568E+07	-1.13436280E-01	 2.37459358E-01
5.23805648E+07	-1.13051502E-01	 2.37634463E-01
5.23927728E+07	-1.12654319E-01	 2.37814979E-01
5.24049809E+07	-1.12256305E-01	 2.37997122E-01
5.24171889E+07	-1.11871514E-01	 2.38175465E-01
5.24293969E+07	-1.11480903E-01	 2.38355311E-01
5.24416049E+07	-1.11084035E-01	 2.38522447E-01
5.24538130E+07	-1.10687645E-01	 2.38706127E-01
5.24660210E+07	-1.10295072E-01	 2.38877662E-01
5.24782290E+07	-1.09907649E-01	 2.39055691E-01
5.24904370E+07	-1.09507056E-01	 2.39220752E-01
5.25026451E+07	-1.09113664E-01	 2.39394397E-01
5.25148531E+07	-1.08723187E-01	 2.39567678E-01
5.25270611E+07	-1.08324838E-01	 2.39742912E-01
5.25392691E+07	-1.07928057E-01	 2.39912154E-01
5.25514772E+07	-1.07532997E-01	 2.40084464E-01
5.25636852E+07	-1.07136211E-01	 2.40253103E-01
5.25758932E+07	-1.06741516E-01	 2.40421489E-01
5.25881012E+07	-1.06343885E-01	 2.40599837E-01
5.26003093E+07	-1.05952245E-01	 2.40757121E-01
5.26125173E+07	-1.05555425E-01	 2.40930844E-01
5.26247253E+07	-1.05156165E-01	 2.41098135E-01
5.26369333E+07	-1.04760736E-01	 2.41263309E-01
5.26491414E+07	-1.04358547E-01	 2.41422442E-01
5.26613494E+07	-1.03960532E-01	 2.41590603E-01
5.26735574E+07	-1.03561250E-01	 2.41762643E-01
5.26857654E+07	-1.03162406E-01	 2.41921615E-01
5.26979735E+07	-1.02773550E-01	 2.42087686E-01
5.27101815E+07	-1.02361938E-01	 2.42238167E-01
5.27223895E+07	-1.01968674E-01	 2.42406355E-01
5.27345975E+07	-1.01572568E-01	 2.42563411E-01
5.27468056E+07	-1.01175868E-01	 2.42724624E-01
5.27590136E+07	-1.00771016E-01	 2.42890456E-01
5.27712216E+07	-1.00369373E-01	 2.43045991E-01
5.27834296E+07	-9.99687232E-02	 2.43198260E-01
5.27956377E+07	-9.95677395E-02	 2.43363169E-01
5.28078457E+07	-9.91581234E-02	 2.43516144E-01
5.28200537E+07	-9.87658211E-02	 2.43675281E-01
5.28322617E+07	-9.83587134E-02	 2.43829197E-01
5.28444698E+07	-9.79616133E-02	 2.43978815E-01
5.28566778E+07	-9.75554808E-02	 2.44139126E-01
5.28688858E+07	-9.71504897E-02	 2.44284704E-01
5.28810938E+07	-9.67547874E-02	 2.44442393E-01
5.28933019E+07	-9.63548214E-02	 2.44599159E-01
5.29055099E+07	-9.59473044E-02	 2.44748034E-01
5.29177179E+07	-9.55362613E-02	 2.44891518E-01
5.29299259E+07	-9.51380353E-02	 2.45048489E-01
5.29421340E+07	-9.47335493E-02	 2.45195061E-01
5.29543420E+07	-9.43340718E-02	 2.45349039E-01
5.29665500E+07	-9.39306736E-02	 2.45494885E-01
5.29787580E+07	-9.35283846E-02	 2.45640361E-01
5.29909661E+07	-9.31155844E-02	 2.45785105E-01
5.30031741E+07	-9.27075190E-02	 2.45938270E-01
5.30153821E+07	-9.23109295E-02	 2.46076655E-01
5.30275901E+07	-9.19011683E-02	 2.46219408E-01
5.30397982E+07	-9.14964093E-02	 2.46367811E-01
5.30520062E+07	-9.10895095E-02	 2.46508943E-01
5.30642142E+07	-9.06831557E-02	 2.46655453E-01
5.30764222E+07	-9.02778712E-02	 2.46794784E-01
5.30886303E+07	-8.98673258E-02	 2.46935169E-01
5.31008383E+07	-8.94659425E-02	 2.47080310E-01
5.31130463E+07	-8.90555203E-02	 2.47216294E-01
5.31252543E+07	-8.86489239E-02	 2.47357052E-01
5.31374624E+07	-8.82457313E-02	 2.47499376E-01
5.31496704E+07	-8.78311170E-02	 2.47631626E-01
5.31618784E+07	-8.74246815E-02	 2.47769816E-01
5.31740864E+07	-8.70232057E-02	 2.47906223E-01
5.31862945E+07	-8.66075060E-02	 2.48042129E-01
5.31985025E+07	-8.61992881E-02	 2.48180307E-01
5.32107105E+07	-8.57876560E-02	 2.48307050E-01
5.32229185E+07	-8.53820656E-02	 2.48448735E-01
5.32351266E+07	-8.49709553E-02	 2.48578964E-01
5.32473346E+07	-8.45657514E-02	 2.48710848E-01
5.32595426E+07	-8.41517308E-02	 2.48849151E-01
5.32717506E+07	-8.37378337E-02	 2.48974712E-01
5.32839587E+07	-8.33261398E-02	 2.49107319E-01
5.32961667E+07	-8.29147746E-02	 2.49235806E-01
5.33083747E+07	-8.25113805E-02	 2.49364123E-01
5.33205827E+07	-8.20968504E-02	 2.49493701E-01
5.33327908E+07	-8.16816226E-02	 2.49621194E-01
5.33449988E+07	-8.12796688E-02	 2.49752045E-01
5.33572068E+07	-8.08694044E-02	 2.49875088E-01
5.33694148E+07	-8.04470773E-02	 2.50002099E-01
5.33816229E+07	-8.00404297E-02	 2.50126922E-01
5.33938309E+07	-7.96282133E-02	 2.50254967E-01
5.34060389E+07	-7.92119159E-02	 2.50374298E-01
5.34182469E+07	-7.87967935E-02	 2.50496269E-01
5.34304550E+07	-7.83947034E-02	 2.50619089E-01
5.34426630E+07	-7.79777386E-02	 2.50737416E-01
5.34548710E+07	-7.75613182E-02	 2.50862642E-01
5.34670790E+07	-7.71494255E-02	 2.50978624E-01
5.34792871E+07	-7.67410045E-02	 2.51104725E-01
5.34914951E+07	-7.63237451E-02	 2.51218275E-01
5.35037031E+07	-7.59127358E-02	 2.51336086E-01
5.35159111E+07	-7.54955809E-02	 2.51460887E-01
5.35281192E+07	-7.50819089E-02	 2.51578824E-01
5.35403272E+07	-7.46644353E-02	 2.51688959E-01
5.35525352E+07	-7.42474725E-02	 2.51806022E-01
5.35647432E+07	-7.38353308E-02	 2.51919037E-01
5.35769512E+07	-7.34198864E-02	 2.52031649E-01
5.35891593E+07	-7.30043515E-02	 2.52143783E-01
5.36013673E+07	-7.25874647E-02	 2.52258569E-01
5.36135753E+07	-7.21741623E-02	 2.52369859E-01
5.36257833E+07	-7.17532648E-02	 2.52482647E-01
5.36379914E+07	-7.13355019E-02	 2.52594864E-01
5.36501994E+07	-7.09227503E-02	 2.52703704E-01
5.36624074E+07	-7.05064953E-02	 2.52812683E-01
5.36746154E+07	-7.00881525E-02	 2.52918750E-01
5.36868235E+07	-6.96764663E-02	 2.53025646E-01
5.36990315E+07	-6.92536276E-02	 2.53136572E-01
5.37112395E+07	-6.88395328E-02	 2.53243694E-01
5.37234475E+07	-6.84231778E-02	 2.53348524E-01
5.37356556E+07	-6.80007988E-02	 2.53450638E-01
5.37478636E+07	-6.75866687E-02	 2.53560900E-01
5.37600716E+07	-6.71706778E-02	 2.53660059E-01
5.37722796E+07	-6.67506559E-02	 2.53761938E-01
5.37844877E+07	-6.63350621E-02	 2.53867064E-01
5.37966957E+07	-6.59093500E-02	 2.53969259E-01
5.38089037E+07	-6.54970446E-02	 2.54068283E-01
5.38211117E+07	-6.50744359E-02	 2.54167838E-01
5.38333198E+07	-6.46587633E-02	 2.54265788E-01
5.38455278E+07	-6.42373682E-02	 2.54367985E-01
5.38577358E+07	-6.38189219E-02	 2.54467657E-01
5.38699438E+07	-6.34038396E-02	 2.54556941E-01
5.38821519E+07	-6.29865593E-02	 2.54656842E-01
5.38943599E+07	-6.25608680E-02	 2.54756353E-01
5.39065679E+07	-6.21448403E-02	 2.54853688E-01
5.39187759E+07	-6.17202954E-02	 2.54939189E-01
5.39309840E+07	-6.13033489E-02	 2.55036696E-01
5.39431920E+07	-6.08800905E-02	 2.55127770E-01
5.39554000E+07	-6.04567503E-02	 2.55220779E-01
5.39676080E+07	-6.00404470E-02	 2.55314031E-01
5.39798161E+07	-5.96261596E-02	 2.55400612E-01
5.39920241E+07	-5.91954339E-02	 2.55493496E-01
5.40042321E+07	-5.87710961E-02	 2.55583159E-01
5.40164401E+07	-5.83540616E-02	 2.55672662E-01
5.40286482E+07	-5.79293712E-02	 2.55761252E-01
5.40408562E+07	-5.75169861E-02	 2.55851287E-01
5.40530642E+07	-5.70938503E-02	 2.55939632E-01
5.40652722E+07	-5.66711410E-02	 2.56019259E-01
5.40774803E+07	-5.62456919E-02	 2.56108065E-01
5.40896883E+07	-5.58191807E-02	 2.56191614E-01
5.41018963E+07	-5.54047336E-02	 2.56282827E-01
5.41141043E+07	-5.49803014E-02	 2.56359191E-01
5.41263124E+07	-5.45610267E-02	 2.56442319E-01
5.41385204E+07	-5.41358342E-02	 2.56525763E-01
5.41507284E+07	-5.37169894E-02	 2.56603038E-01
5.41629364E+07	-5.32939909E-02	 2.56686983E-01
5.41751445E+07	-5.28720606E-02	 2.56763018E-01
5.41873525E+07	-5.24480326E-02	 2.56840680E-01
5.41995605E+07	-5.20224444E-02	 2.56923292E-01
5.42117685E+07	-5.16017405E-02	 2.56995668E-01
5.42239766E+07	-5.11761414E-02	 2.57078624E-01
5.42361846E+07	-5.07555422E-02	 2.57152555E-01
5.42483926E+07	-5.03276209E-02	 2.57226755E-01
5.42606006E+07	-4.99091289E-02	 2.57303885E-01
5.42728087E+07	-4.94804573E-02	 2.57383746E-01
5.42850167E+07	-4.90586729E-02	 2.57457847E-01
5.42972247E+07	-4.86366445E-02	 2.57526993E-01
5.43094327E+07	-4.82057950E-02	 2.57597388E-01
5.43216408E+07	-4.77812198E-02	 2.57665561E-01
5.43338488E+07	-4.73608417E-02	 2.57738762E-01
5.43460568E+07	-4.69304724E-02	 2.57811111E-01
5.43582648E+07	-4.65152080E-02	 2.57877335E-01
5.43704729E+07	-4.60842958E-02	 2.57942910E-01
5.43826809E+07	-4.56567986E-02	 2.58008977E-01
5.43948889E+07	-4.52377603E-02	 2.58076701E-01
5.44070969E+07	-4.48112602E-02	 2.58146889E-01
5.44193050E+07	-4.43897338E-02	 2.58214941E-01
5.44315130E+07	-4.39601029E-02	 2.58277156E-01
5.44437210E+07	-4.35330879E-02	 2.58341204E-01
5.44559290E+07	-4.31066561E-02	 2.58410416E-01
5.44681371E+07	-4.26829043E-02	 2.58466912E-01
5.44803451E+07	-4.22583215E-02	 2.58529205E-01
5.44925531E+07	-4.18359342E-02	 2.58586855E-01
5.45047611E+07	-4.14105485E-02	 2.58653334E-01
5.45169692E+07	-4.09779972E-02	 2.58716079E-01
5.45291772E+07	-4.05512996E-02	 2.58765575E-01
5.45413852E+07	-4.01287116E-02	 2.58832174E-01
5.45535932E+07	-3.97046987E-02	 2.58884520E-01
5.45658013E+07	-3.92748866E-02	 2.58944450E-01
5.45780093E+07	-3.88511427E-02	 2.58998883E-01
5.45902173E+07	-3.84196802E-02	 2.59057825E-01
5.46024253E+07	-3.79967202E-02	 2.59117015E-01
5.46146334E+07	-3.75685283E-02	 2.59167885E-01
5.46268414E+07	-3.71389306E-02	 2.59219656E-01
5.46390494E+07	-3.67217647E-02	 2.59268543E-01
5.46512574E+07	-3.62874285E-02	 2.59326649E-01
5.46634655E+07	-3.58522090E-02	 2.59365289E-01
5.46756735E+07	-3.54349076E-02	 2.59431486E-01
5.46878815E+07	-3.50022096E-02	 2.59472013E-01
5.47000895E+07	-3.45808434E-02	 2.59528548E-01
5.47122976E+07	-3.41502638E-02	 2.59576489E-01
5.47245056E+07	-3.37163246E-02	 2.59623525E-01
5.47367136E+07	-3.32961367E-02	 2.59669996E-01
5.47489216E+07	-3.28661199E-02	 2.59718119E-01
5.47611296E+07	-3.24409639E-02	 2.59763651E-01
5.47733377E+07	-3.20122392E-02	 2.59801496E-01
5.47855457E+07	-3.15823787E-02	 2.59854664E-01
5.47977537E+07	-3.11567519E-02	 2.59890882E-01
5.48099617E+07	-3.07247032E-02	 2.59937134E-01
5.48221698E+07	-3.03007156E-02	 2.59979118E-01
5.48343778E+07	-2.98658040E-02	 2.60016839E-01
5.48465858E+07	-2.94438192E-02	 2.60063333E-01
5.48587938E+07	-2.90085704E-02	 2.60099872E-01
5.48710019E+07	-2.85811615E-02	 2.60146021E-01
5.48832099E+07	-2.81596434E-02	 2.60183182E-01
5.48954179E+07	-2.77312425E-02	 2.60222631E-01
5.49076259E+07	-2.72994646E-02	 2.60258474E-01
5.49198340E+07	-2.68654622E-02	 2.60296789E-01
5.49320420E+07	-2.64421495E-02	 2.60330171E-01
5.49442500E+07	-2.60091556E-02	 2.60356261E-01
5.49564580E+07	-2.55925876E-02	 2.60397412E-01
5.49686661E+07	-2.51607915E-02	 2.60432872E-01
5.49808741E+07	-2.47235282E-02	 2.60464644E-01
5.49930821E+07	-2.42954318E-02	 2.60494140E-01
5.50052901E+07	-2.38739441E-02	 2.60529966E-01
5.50174982E+07	-2.34319176E-02	 2.60559120E-01
5.50297062E+07	-2.30066701E-02	 2.60592996E-01
5.50419142E+07	-2.25819242E-02	 2.60625231E-01
5.50541222E+07	-2.21456905E-02	 2.60640939E-01
5.50663303E+07	-2.17211805E-02	 2.60674257E-01
5.50785383E+07	-2.12876201E-02	 2.60702566E-01
5.50907463E+07	-2.08607458E-02	 2.60726535E-01
5.51029543E+07	-2.04280479E-02	 2.60751932E-01
5.51151624E+07	-1.99951056E-02	 2.60778292E-01
5.51273704E+07	-1.95668370E-02	 2.60805678E-01
