! COPPER MOUNTAIN TECHNOLOGIES, PLANAR TR1300/1, 00071119, 20.2.2/1.0
! Date: 11/21/2023 7:00:11 PM
! Data: Format [Calibration Info]
! Freq          	S11: Re/Im F1                  
# HZ S RI R 50
5.00000000E+07	-2.78105834E-01	-1.42461514E-02
5.00122080E+07	-2.78126636E-01	-1.38366729E-02
5.00244160E+07	-2.78135502E-01	-1.34274761E-02
5.00366241E+07	-2.78165045E-01	-1.30193166E-02
5.00488321E+07	-2.78176852E-01	-1.26085285E-02
5.00610401E+07	-2.78201776E-01	-1.21918518E-02
5.00732481E+07	-2.78214292E-01	-1.17808585E-02
5.00854562E+07	-2.78222131E-01	-1.13741480E-02
5.00976642E+07	-2.78240293E-01	-1.09623827E-02
5.01098722E+07	-2.78252605E-01	-1.05555873E-02
5.01220802E+07	-2.78265695E-01	-1.01365847E-02
5.01342883E+07	-2.78279539E-01	-9.73131639E-03
5.01464963E+07	-2.78294182E-01	-9.31515992E-03
5.01587043E+07	-2.78308003E-01	-8.90886369E-03
5.01709123E+07	-2.78319449E-01	-8.50321383E-03
5.01831204E+07	-2.78323780E-01	-8.08468998E-03
5.01953284E+07	-2.78336835E-01	-7.67116699E-03
5.02075364E+07	-2.78345010E-01	-7.26487220E-03
5.02197444E+07	-2.78354487E-01	-6.85595176E-03
5.02319525E+07	-2.78365491E-01	-6.44645060E-03
5.02441605E+07	-2.78371458E-01	-6.03612658E-03
5.02563685E+07	-2.78379391E-01	-5.62568406E-03
5.02685765E+07	-2.78379373E-01	-5.21405344E-03
5.02807846E+07	-2.78391772E-01	-4.80010913E-03
5.02929926E+07	-2.78398823E-01	-4.38820551E-03
5.03052006E+07	-2.78400016E-01	-3.97789123E-03
5.03174086E+07	-2.78402684E-01	-3.56868593E-03
5.03296167E+07	-2.78408575E-01	-3.15414583E-03
5.03418247E+07	-2.78413384E-01	-2.74942924E-03
5.03540327E+07	-2.78412258E-01	-2.33509700E-03
5.03662407E+07	-2.78420384E-01	-1.92858436E-03
5.03784488E+07	-2.78416187E-01	-1.51475950E-03
5.03906568E+07	-2.78409306E-01	-1.10106957E-03
5.04028648E+07	-2.78414937E-01	-6.91039324E-04
5.04150728E+07	-2.78413318E-01	-2.76744130E-04
5.04272809E+07	-2.78409188E-01	 1.26699594E-04
5.04394889E+07	-2.78407695E-01	 5.38491382E-04
5.04516969E+07	-2.78404328E-01	 9.48338559E-04
5.04639049E+07	-2.78399664E-01	 1.36141411E-03
5.04761130E+07	-2.78400404E-01	 1.77543089E-03
5.04883210E+07	-2.78392350E-01	 2.18183723E-03
5.05005290E+07	-2.78382797E-01	 2.58886264E-03
5.05127370E+07	-2.78380639E-01	 3.00585817E-03
5.05249451E+07	-2.78369632E-01	 3.41301238E-03
5.05371531E+07	-2.78367387E-01	 3.82428332E-03
5.05493611E+07	-2.78355147E-01	 4.23364776E-03
5.05615691E+07	-2.78352699E-01	 4.64257626E-03
5.05737772E+07	-2.78338836E-01	 5.05252285E-03
5.05859852E+07	-2.78337180E-01	 5.46585914E-03
5.05981932E+07	-2.78322926E-01	 5.87422792E-03
5.06104012E+07	-2.78309415E-01	 6.28476115E-03
5.06226093E+07	-2.78298205E-01	 6.69751358E-03
5.06348173E+07	-2.78289369E-01	 7.11386633E-03
5.06470253E+07	-2.78274785E-01	 7.52115415E-03
5.06592333E+07	-2.78258714E-01	 7.92958234E-03
5.06714414E+07	-2.78250932E-01	 8.33377208E-03
5.06836494E+07	-2.78234376E-01	 8.75047879E-03
5.06958574E+07	-2.78220456E-01	 9.16065198E-03
5.07080654E+07	-2.78205256E-01	 9.57019607E-03
5.07202735E+07	-2.78183466E-01	 9.98086943E-03
5.07324815E+07	-2.78163526E-01	 1.03919897E-02
5.07446895E+07	-2.78146399E-01	 1.08001107E-02
5.07568975E+07	-2.78130843E-01	 1.12050428E-02
5.07691056E+07	-2.78115053E-01	 1.16215337E-02
5.07813136E+07	-2.78093173E-01	 1.20301904E-02
5.07935216E+07	-2.78072132E-01	 1.24428177E-02
5.08057296E+07	-2.78059486E-01	 1.28532267E-02
5.08179377E+07	-2.78028420E-01	 1.32611783E-02
5.08301457E+07	-2.78013515E-01	 1.36692521E-02
5.08423537E+07	-2.77990039E-01	 1.40826988E-02
5.08545617E+07	-2.77960776E-01	 1.44923084E-02
5.08667698E+07	-2.77942020E-01	 1.48999670E-02
5.08789778E+07	-2.77915910E-01	 1.53051310E-02
5.08911858E+07	-2.77890932E-01	 1.57165892E-02
5.09033938E+07	-2.77869436E-01	 1.61264379E-02
5.09156019E+07	-2.77834368E-01	 1.65385280E-02
5.09278099E+07	-2.77814020E-01	 1.69450170E-02
5.09400179E+07	-2.77780111E-01	 1.73577393E-02
5.09522259E+07	-2.77754420E-01	 1.77695109E-02
5.09644340E+07	-2.77724853E-01	 1.81762570E-02
5.09766420E+07	-2.77690662E-01	 1.85836348E-02
5.09888500E+07	-2.77669282E-01	 1.89934764E-02
5.10010580E+07	-2.77630904E-01	 1.94029090E-02
5.10132661E+07	-2.77604210E-01	 1.98167282E-02
5.10254741E+07	-2.77572782E-01	 2.02199047E-02
5.10376821E+07	-2.77543557E-01	 2.06341420E-02
5.10498901E+07	-2.77500573E-01	 2.10416579E-02
5.10620982E+07	-2.77476797E-01	 2.14456015E-02
5.10743062E+07	-2.77438540E-01	 2.18579799E-02
5.10865142E+07	-2.77399928E-01	 2.22688239E-02
5.10987222E+07	-2.77362361E-01	 2.26766356E-02
5.11109303E+07	-2.77331131E-01	 2.30845704E-02
5.11231383E+07	-2.77294027E-01	 2.34962167E-02
5.11353463E+07	-2.77253360E-01	 2.39039044E-02
5.11475543E+07	-2.77218516E-01	 2.43123885E-02
5.11597624E+07	-2.77172080E-01	 2.47206030E-02
5.11719704E+07	-2.77139476E-01	 2.51256501E-02
5.11841784E+07	-2.77098302E-01	 2.55305592E-02
5.11963864E+07	-2.77062267E-01	 2.59395302E-02
5.12085944E+07	-2.77016663E-01	 2.63482535E-02
5.12208025E+07	-2.76972291E-01	 2.67586799E-02
5.12330105E+07	-2.76930417E-01	 2.71669226E-02
5.12452185E+07	-2.76888302E-01	 2.75761064E-02
5.12574265E+07	-2.76843948E-01	 2.79847281E-02
5.12696346E+07	-2.76797692E-01	 2.83909287E-02
5.12818426E+07	-2.76756748E-01	 2.87942058E-02
5.12940506E+07	-2.76706074E-01	 2.92039358E-02
5.13062586E+07	-2.76659084E-01	 2.96095294E-02
5.13184667E+07	-2.76614706E-01	 3.00221799E-02
5.13306747E+07	-2.76572340E-01	 3.04278311E-02
5.13428827E+07	-2.76522404E-01	 3.08361697E-02
5.13550907E+07	-2.76470875E-01	 3.12424470E-02
5.13672988E+07	-2.76421194E-01	 3.16479525E-02
5.13795068E+07	-2.76372543E-01	 3.20506720E-02
5.13917148E+07	-2.76317261E-01	 3.24663307E-02
5.14039228E+07	-2.76266110E-01	 3.28659526E-02
5.14161309E+07	-2.76219629E-01	 3.32794702E-02
5.14283389E+07	-2.76166321E-01	 3.36832100E-02
5.14405469E+07	-2.76114216E-01	 3.40896903E-02
5.14527549E+07	-2.76059441E-01	 3.44960211E-02
5.14649630E+07	-2.76005848E-01	 3.48973686E-02
5.14771710E+07	-2.75952585E-01	 3.53072780E-02
5.14893790E+07	-2.75893073E-01	 3.57082524E-02
5.15015870E+07	-2.75841820E-01	 3.61215642E-02
5.15137951E+07	-2.75778253E-01	 3.65251024E-02
5.15260031E+07	-2.75726222E-01	 3.69291189E-02
5.15382111E+07	-2.75663440E-01	 3.73398156E-02
5.15504191E+07	-2.75609009E-01	 3.77442079E-02
5.15626272E+07	-2.75550258E-01	 3.81499227E-02
5.15748352E+07	-2.75489787E-01	 3.85563994E-02
5.15870432E+07	-2.75427992E-01	 3.89587599E-02
5.15992512E+07	-2.75371360E-01	 3.93663822E-02
5.16114593E+07	-2.75309893E-01	 3.97703716E-02
5.16236673E+07	-2.75243075E-01	 4.01753272E-02
5.16358753E+07	-2.75176834E-01	 4.05817204E-02
5.16480833E+07	-2.75118567E-01	 4.09846887E-02
5.16602914E+07	-2.75051137E-01	 4.13855821E-02
5.16724994E+07	-2.74991756E-01	 4.17947074E-02
5.16847074E+07	-2.74926343E-01	 4.21999904E-02
5.16969154E+07	-2.74862880E-01	 4.26038469E-02
5.17091235E+07	-2.74793011E-01	 4.30080535E-02
5.17213315E+07	-2.74726563E-01	 4.34141642E-02
5.17335395E+07	-2.74659653E-01	 4.38190234E-02
5.17457475E+07	-2.74592611E-01	 4.42172694E-02
5.17579556E+07	-2.74519290E-01	 4.46270139E-02
5.17701636E+07	-2.74454777E-01	 4.50300948E-02
5.17823716E+07	-2.74383711E-01	 4.54340560E-02
5.17945796E+07	-2.74313755E-01	 4.58310911E-02
5.18067877E+07	-2.74242007E-01	 4.62377706E-02
5.18189957E+07	-2.74168832E-01	 4.66453438E-02
5.18312037E+07	-2.74095504E-01	 4.70505661E-02
5.18434117E+07	-2.74020357E-01	 4.74518432E-02
5.18556198E+07	-2.73952300E-01	 4.78540722E-02
5.18678278E+07	-2.73880568E-01	 4.82583257E-02
5.18800358E+07	-2.73801110E-01	 4.86627201E-02
5.18922438E+07	-2.73728464E-01	 4.90667058E-02
5.19044519E+07	-2.73644609E-01	 4.94641038E-02
5.19166599E+07	-2.73572834E-01	 4.98643703E-02
5.19288679E+07	-2.73496818E-01	 5.02703355E-02
5.19410759E+07	-2.73421866E-01	 5.06745478E-02
5.19532840E+07	-2.73334740E-01	 5.10757053E-02
5.19654920E+07	-2.73263023E-01	 5.14719087E-02
5.19777000E+07	-2.73181914E-01	 5.18804365E-02
5.19899080E+07	-2.73096185E-01	 5.22827571E-02
5.20021161E+07	-2.73021989E-01	 5.26801417E-02
5.20143241E+07	-2.72943394E-01	 5.30827509E-02
5.20265321E+07	-2.72854571E-01	 5.34875666E-02
5.20387401E+07	-2.72773150E-01	 5.38819858E-02
5.20509482E+07	-2.72691962E-01	 5.42883905E-02
5.20631562E+07	-2.72607238E-01	 5.46894886E-02
5.20753642E+07	-2.72523235E-01	 5.50879432E-02
5.20875722E+07	-2.72442614E-01	 5.54872758E-02
5.20997803E+07	-2.72353982E-01	 5.58903069E-02
5.21119883E+07	-2.72269750E-01	 5.62929452E-02
5.21241963E+07	-2.72181973E-01	 5.66942400E-02
5.21364043E+07	-2.72093100E-01	 5.70983606E-02
5.21486124E+07	-2.72005936E-01	 5.74963199E-02
5.21608204E+07	-2.71918379E-01	 5.78923598E-02
5.21730284E+07	-2.71829728E-01	 5.82949259E-02
5.21852364E+07	-2.71737258E-01	 5.86891339E-02
5.21974445E+07	-2.71648150E-01	 5.90961720E-02
5.22096525E+07	-2.71560966E-01	 5.94912347E-02
5.22218605E+07	-2.71463310E-01	 5.98934637E-02
5.22340685E+07	-2.71374279E-01	 6.02943604E-02
5.22462766E+07	-2.71278617E-01	 6.06900448E-02
5.22584846E+07	-2.71196791E-01	 6.10880345E-02
5.22706926E+07	-2.71097608E-01	 6.14878056E-02
5.22829006E+07	-2.70999954E-01	 6.18881578E-02
5.22951087E+07	-2.70908859E-01	 6.22840273E-02
5.23073167E+07	-2.70813667E-01	 6.26776516E-02
5.23195247E+07	-2.70715787E-01	 6.30839625E-02
5.23317327E+07	-2.70617329E-01	 6.34785641E-02
5.23439408E+07	-2.70518988E-01	 6.38726728E-02
5.23561488E+07	-2.70424683E-01	 6.42753962E-02
5.23683568E+07	-2.70326813E-01	 6.46740191E-02
5.23805648E+07	-2.70227373E-01	 6.50694078E-02
5.23927728E+07	-2.70127458E-01	 6.54660732E-02
5.24049809E+07	-2.70020992E-01	 6.58617696E-02
5.24171889E+07	-2.69928972E-01	 6.62620869E-02
5.24293969E+07	-2.69819434E-01	 6.66537725E-02
5.24416049E+07	-2.69719719E-01	 6.70574471E-02
5.24538130E+07	-2.69612577E-01	 6.74474403E-02
5.24660210E+07	-2.69513152E-01	 6.78464833E-02
5.24782290E+07	-2.69410927E-01	 6.82426656E-02
5.24904370E+07	-2.69305782E-01	 6.86381294E-02
5.25026451E+07	-2.69206116E-01	 6.90313154E-02
5.25148531E+07	-2.69098117E-01	 6.94337330E-02
5.25270611E+07	-2.68993324E-01	 6.98293816E-02
5.25392691E+07	-2.68881692E-01	 7.02163849E-02
5.25514772E+07	-2.68778553E-01	 7.06171227E-02
5.25636852E+07	-2.68667039E-01	 7.10129537E-02
5.25758932E+07	-2.68561108E-01	 7.14036392E-02
5.25881012E+07	-2.68451064E-01	 7.17974032E-02
5.26003093E+07	-2.68343235E-01	 7.21968251E-02
5.26125173E+07	-2.68232027E-01	 7.25843153E-02
5.26247253E+07	-2.68122529E-01	 7.29803163E-02
5.26369333E+07	-2.68011694E-01	 7.33699839E-02
5.26491414E+07	-2.67894686E-01	 7.37661805E-02
5.26613494E+07	-2.67781366E-01	 7.41596109E-02
5.26735574E+07	-2.67670588E-01	 7.45552391E-02
5.26857654E+07	-2.67551651E-01	 7.49542991E-02
5.26979735E+07	-2.67442540E-01	 7.53369928E-02
5.27101815E+07	-2.67331057E-01	 7.57387894E-02
5.27223895E+07	-2.67219008E-01	 7.61317270E-02
5.27345975E+07	-2.67098499E-01	 7.65205669E-02
5.27468056E+07	-2.66979532E-01	 7.69137137E-02
5.27590136E+07	-2.66868034E-01	 7.73042039E-02
5.27712216E+07	-2.66742318E-01	 7.76969384E-02
5.27834296E+07	-2.66626495E-01	 7.80893991E-02
5.27956377E+07	-2.66507960E-01	 7.84777003E-02
5.28078457E+07	-2.66389241E-01	 7.88746397E-02
5.28200537E+07	-2.66267872E-01	 7.92631625E-02
5.28322617E+07	-2.66142542E-01	 7.96524893E-02
5.28444698E+07	-2.66022334E-01	 8.00433295E-02
5.28566778E+07	-2.65898614E-01	 8.04367370E-02
5.28688858E+07	-2.65780025E-01	 8.08249692E-02
5.28810938E+07	-2.65661062E-01	 8.12186520E-02
5.28933019E+07	-2.65535828E-01	 8.16069143E-02
5.29055099E+07	-2.65408914E-01	 8.19940986E-02
5.29177179E+07	-2.65285994E-01	 8.23861398E-02
5.29299259E+07	-2.65157957E-01	 8.27781349E-02
5.29421340E+07	-2.65033172E-01	 8.31623890E-02
5.29543420E+07	-2.64908488E-01	 8.35574475E-02
5.29665500E+07	-2.64774941E-01	 8.39419563E-02
5.29787580E+07	-2.64651521E-01	 8.43278859E-02
5.29909661E+07	-2.64521373E-01	 8.47192947E-02
5.30031741E+07	-2.64397034E-01	 8.51081668E-02
5.30153821E+07	-2.64267955E-01	 8.54959635E-02
5.30275901E+07	-2.64134435E-01	 8.58838245E-02
5.30397982E+07	-2.64007778E-01	 8.62724656E-02
5.30520062E+07	-2.63872159E-01	 8.66565090E-02
5.30642142E+07	-2.63736047E-01	 8.70475315E-02
5.30764222E+07	-2.63608555E-01	 8.74321268E-02
5.30886303E+07	-2.63472284E-01	 8.78163063E-02
5.31008383E+07	-2.63340889E-01	 8.82098366E-02
5.31130463E+07	-2.63207755E-01	 8.85992319E-02
5.31252543E+07	-2.63073937E-01	 8.89759835E-02
5.31374624E+07	-2.62939720E-01	 8.93629135E-02
5.31496704E+07	-2.62804034E-01	 8.97524643E-02
5.31618784E+07	-2.62667958E-01	 9.01391184E-02
5.31740864E+07	-2.62530518E-01	 9.05214980E-02
5.31862945E+07	-2.62393806E-01	 9.09086051E-02
5.31985025E+07	-2.62258065E-01	 9.12900574E-02
5.32107105E+07	-2.62110678E-01	 9.16791316E-02
5.32229185E+07	-2.61977759E-01	 9.20649505E-02
5.32351266E+07	-2.61837549E-01	 9.24470209E-02
5.32473346E+07	-2.61694656E-01	 9.28342465E-02
5.32595426E+07	-2.61556426E-01	 9.32156081E-02
5.32717506E+07	-2.61415845E-01	 9.36007479E-02
5.32839587E+07	-2.61269214E-01	 9.39807551E-02
5.32961667E+07	-2.61128838E-01	 9.43641225E-02
5.33083747E+07	-2.60982506E-01	 9.47449313E-02
5.33205827E+07	-2.60840705E-01	 9.51293256E-02
5.33327908E+07	-2.60694067E-01	 9.55170286E-02
5.33449988E+07	-2.60551387E-01	 9.58958041E-02
5.33572068E+07	-2.60406825E-01	 9.62813493E-02
5.33694148E+07	-2.60259691E-01	 9.66605184E-02
5.33816229E+07	-2.60111039E-01	 9.70440882E-02
5.33938309E+07	-2.59964314E-01	 9.74250397E-02
5.34060389E+07	-2.59816788E-01	 9.78067772E-02
5.34182469E+07	-2.59674091E-01	 9.81875597E-02
5.34304550E+07	-2.59521454E-01	 9.85665877E-02
5.34426630E+07	-2.59370286E-01	 9.89487871E-02
5.34548710E+07	-2.59226322E-01	 9.93280090E-02
5.34670790E+07	-2.59072461E-01	 9.97113427E-02
5.34792871E+07	-2.58918276E-01	 1.00084001E-01
5.34914951E+07	-2.58765699E-01	 1.00471147E-01
5.35037031E+07	-2.58612808E-01	 1.00849255E-01
5.35159111E+07	-2.58459808E-01	 1.01226374E-01
5.35281192E+07	-2.58313531E-01	 1.01609548E-01
5.35403272E+07	-2.58151824E-01	 1.01990703E-01
5.35525352E+07	-2.57999090E-01	 1.02369210E-01
5.35647432E+07	-2.57845581E-01	 1.02743077E-01
5.35769512E+07	-2.57691457E-01	 1.03117883E-01
5.35891593E+07	-2.57533599E-01	 1.03498015E-01
5.36013673E+07	-2.57375888E-01	 1.03873947E-01
5.36135753E+07	-2.57221903E-01	 1.04245304E-01
5.36257833E+07	-2.57061828E-01	 1.04631172E-01
5.36379914E+07	-2.56897748E-01	 1.04998339E-01
5.36501994E+07	-2.56743803E-01	 1.05385487E-01
5.36624074E+07	-2.56584699E-01	 1.05756853E-01
5.36746154E+07	-2.56418583E-01	 1.06136086E-01
5.36868235E+07	-2.56265027E-01	 1.06513222E-01
5.36990315E+07	-2.56098898E-01	 1.06888039E-01
5.37112395E+07	-2.55938546E-01	 1.07261656E-01
5.37234475E+07	-2.55772182E-01	 1.07640876E-01
5.37356556E+07	-2.55618756E-01	 1.08011321E-01
5.37478636E+07	-2.55451210E-01	 1.08388414E-01
5.37600716E+07	-2.55287923E-01	 1.08761075E-01
5.37722796E+07	-2.55116327E-01	 1.09131416E-01
5.37844877E+07	-2.54960703E-01	 1.09511536E-01
5.37966957E+07	-2.54794867E-01	 1.09887859E-01
5.38089037E+07	-2.54621660E-01	 1.10258778E-01
5.38211117E+07	-2.54457562E-01	 1.10633899E-01
5.38333198E+07	-2.54289130E-01	 1.10999000E-01
5.38455278E+07	-2.54121541E-01	 1.11376242E-01
5.38577358E+07	-2.53953699E-01	 1.11749361E-01
5.38699438E+07	-2.53785099E-01	 1.12121558E-01
5.38821519E+07	-2.53612931E-01	 1.12494543E-01
5.38943599E+07	-2.53444117E-01	 1.12861687E-01
5.39065679E+07	-2.53272849E-01	 1.13234920E-01
5.39187759E+07	-2.53104348E-01	 1.13605462E-01
5.39309840E+07	-2.52933896E-01	 1.13981287E-01
5.39431920E+07	-2.52756956E-01	 1.14342590E-01
5.39554000E+07	-2.52587821E-01	 1.14716934E-01
5.39676080E+07	-2.52411702E-01	 1.15085741E-01
5.39798161E+07	-2.52237828E-01	 1.15454758E-01
5.39920241E+07	-2.52065869E-01	 1.15825907E-01
5.40042321E+07	-2.51886494E-01	 1.16193855E-01
5.40164401E+07	-2.51712924E-01	 1.16566580E-01
5.40286482E+07	-2.51539131E-01	 1.16934345E-01
5.40408562E+07	-2.51362342E-01	 1.17296363E-01
5.40530642E+07	-2.51179648E-01	 1.17665644E-01
5.40652722E+07	-2.51000634E-01	 1.18035291E-01
5.40774803E+07	-2.50822355E-01	 1.18408845E-01
5.40896883E+07	-2.50641015E-01	 1.18778356E-01
5.41018963E+07	-2.50466724E-01	 1.19139215E-01
5.41141043E+07	-2.50286047E-01	 1.19509826E-01
5.41263124E+07	-2.50108628E-01	 1.19877206E-01
5.41385204E+07	-2.49925037E-01	 1.20238557E-01
5.41507284E+07	-2.49743386E-01	 1.20605132E-01
5.41629364E+07	-2.49557664E-01	 1.20975372E-01
5.41751445E+07	-2.49377332E-01	 1.21338574E-01
5.41873525E+07	-2.49191892E-01	 1.21699100E-01
5.41995605E+07	-2.49006912E-01	 1.22070333E-01
5.42117685E+07	-2.48824136E-01	 1.22430652E-01
5.42239766E+07	-2.48636379E-01	 1.22791311E-01
5.42361846E+07	-2.48457801E-01	 1.23159256E-01
5.42483926E+07	-2.48266090E-01	 1.23524460E-01
5.42606006E+07	-2.48079298E-01	 1.23890124E-01
5.42728087E+07	-2.47892997E-01	 1.24249454E-01
5.42850167E+07	-2.47708435E-01	 1.24610938E-01
5.42972247E+07	-2.47511919E-01	 1.24975345E-01
5.43094327E+07	-2.47329500E-01	 1.25338229E-01
5.43216408E+07	-2.47138215E-01	 1.25700399E-01
5.43338488E+07	-2.46943624E-01	 1.26067802E-01
5.43460568E+07	-2.46763162E-01	 1.26428715E-01
5.43582648E+07	-2.46571650E-01	 1.26780880E-01
5.43704729E+07	-2.46379504E-01	 1.27143520E-01
5.43826809E+07	-2.46183161E-01	 1.27502459E-01
5.43948889E+07	-2.45991059E-01	 1.27864395E-01
5.44070969E+07	-2.45799352E-01	 1.28222975E-01
5.44193050E+07	-2.45605851E-01	 1.28583543E-01
5.44315130E+07	-2.45413975E-01	 1.28945786E-01
5.44437210E+07	-2.45212187E-01	 1.29298365E-01
5.44559290E+07	-2.45019319E-01	 1.29659687E-01
5.44681371E+07	-2.44829258E-01	 1.30024671E-01
5.44803451E+07	-2.44628258E-01	 1.30374282E-01
5.44925531E+07	-2.44429030E-01	 1.30741650E-01
5.45047611E+07	-2.44231514E-01	 1.31091462E-01
5.45169692E+07	-2.44033732E-01	 1.31447314E-01
5.45291772E+07	-2.43836755E-01	 1.31804691E-01
5.45413852E+07	-2.43639347E-01	 1.32163045E-01
5.45535932E+07	-2.43438214E-01	 1.32519761E-01
5.45658013E+07	-2.43238951E-01	 1.32875154E-01
5.45780093E+07	-2.43034151E-01	 1.33233592E-01
5.45902173E+07	-2.42834956E-01	 1.33586913E-01
5.46024253E+07	-2.42640368E-01	 1.33946839E-01
5.46146334E+07	-2.42436142E-01	 1.34299429E-01
5.46268414E+07	-2.42230652E-01	 1.34658485E-01
5.46390494E+07	-2.42023738E-01	 1.35009208E-01
5.46512574E+07	-2.41824811E-01	 1.35360764E-01
5.46634655E+07	-2.41618016E-01	 1.35717432E-01
5.46756735E+07	-2.41414128E-01	 1.36070843E-01
5.46878815E+07	-2.41205115E-01	 1.36423244E-01
5.47000895E+07	-2.41004506E-01	 1.36767713E-01
5.47122976E+07	-2.40795374E-01	 1.37130785E-01
5.47245056E+07	-2.40592183E-01	 1.37480671E-01
5.47367136E+07	-2.40382952E-01	 1.37825366E-01
5.47489216E+07	-2.40174736E-01	 1.38183167E-01
5.47611296E+07	-2.39970994E-01	 1.38529136E-01
5.47733377E+07	-2.39756704E-01	 1.38883281E-01
5.47855457E+07	-2.39546369E-01	 1.39231406E-01
5.47977537E+07	-2.39332420E-01	 1.39581897E-01
5.48099617E+07	-2.39133293E-01	 1.39929047E-01
5.48221698E+07	-2.38917148E-01	 1.40281008E-01
5.48343778E+07	-2.38702515E-01	 1.40631858E-01
5.48465858E+07	-2.38492103E-01	 1.40982406E-01
5.48587938E+07	-2.38279893E-01	 1.41326423E-01
5.48710019E+07	-2.38067309E-01	 1.41677166E-01
5.48832099E+07	-2.37849030E-01	 1.42022872E-01
5.48954179E+07	-2.37638685E-01	 1.42379510E-01
5.49076259E+07	-2.37425031E-01	 1.42714832E-01
5.49198340E+07	-2.37208594E-01	 1.43067736E-01
5.49320420E+07	-2.36991043E-01	 1.43413701E-01
5.49442500E+07	-2.36777841E-01	 1.43752841E-01
5.49564580E+07	-2.36561409E-01	 1.44103495E-01
5.49686661E+07	-2.36345502E-01	 1.44450563E-01
5.49808741E+07	-2.36119524E-01	 1.44800081E-01
5.49930821E+07	-2.35906091E-01	 1.45142432E-01
5.50052901E+07	-2.35690606E-01	 1.45486397E-01
5.50174982E+07	-2.35466383E-01	 1.45833099E-01
5.50297062E+07	-2.35249107E-01	 1.46174137E-01
5.50419142E+07	-2.35025704E-01	 1.46515902E-01
5.50541222E+07	-2.34805068E-01	 1.46865326E-01
5.50663303E+07	-2.34586076E-01	 1.47203428E-01
5.50785383E+07	-2.34362259E-01	 1.47547813E-01
5.50907463E+07	-2.34141676E-01	 1.47887954E-01
5.51029543E+07	-2.33910259E-01	 1.48227200E-01
5.51151624E+07	-2.33694960E-01	 1.48576840E-01
5.51273704E+07	-2.33471982E-01	 1.48914764E-01
