! MS46122B
! 1746301/73750021
! 11/1/2023 5:09:27 PM
! C:\USERS\SPEGWAL\DOWNLOADS\SAURABH\REACH\NODES\FRONT END\MEASUREMENTS\MEASURED S-PARAMETERS_01-11-2023\CABLES\10M_P1A1-P2A2_FIXED.S2P
! CHANNEL.1
! TR.MEASUREMENT
! CORRECTED.DATA
# GHZ S RI R 50.0
! FREQ.GHZ         S11RE         S11IM         S21RE         S21IM         S12RE         S12IM         S22RE         S22IM         
!; PortSelection: Port_12
   0.001000000     0.0129102    0.0035128     0.9547840   -0.2567025     0.9565370   -0.2584270     0.0148154    0.0042163 
   0.001249500     0.0143458    0.0023983     0.9365669   -0.3174841     0.9367887   -0.3179836     0.0160835    0.0028972 
   0.001499000     0.0153251    0.0010183     0.9136716   -0.3757302     0.9137428   -0.3766257     0.0171184    0.0013530 
   0.001748500     0.0160361   -0.0005916     0.8873454   -0.4322600     0.8871156   -0.4333194     0.0178946   -0.0003346 
   0.001998000     0.0165080   -0.0023348     0.8575450   -0.4868335     0.8570927   -0.4879898     0.0183831   -0.0021840 
   0.002247500     0.0165581   -0.0044425     0.8239111   -0.5376900     0.8233712   -0.5389743     0.0185370   -0.0042809 
   0.002497000     0.0164864   -0.0063680     0.7876875   -0.5876661     0.7870188   -0.5889899     0.0185088   -0.0062817 
   0.002746500     0.0161524   -0.0082400     0.7486453   -0.6352733     0.7477694   -0.6365532     0.0183101   -0.0082246 
   0.002996000     0.0155655   -0.0100625     0.7065114   -0.6804428     0.7055190   -0.6816553     0.0178615   -0.0101920 
   0.003245500     0.0147140   -0.0117572     0.6617634   -0.7226363     0.6608532   -0.7238002     0.0171283   -0.0120402 
   0.003495000     0.0136339   -0.0133472     0.6146842   -0.7620304     0.6135100   -0.7630218     0.0162149   -0.0138077 
   0.003744500     0.0123357   -0.0147959     0.5652290   -0.7982973     0.5641012   -0.7991136     0.0150382   -0.0154857 
   0.003994000     0.0109313   -0.0160416     0.5137960   -0.8313775     0.5125569   -0.8322700     0.0136909   -0.0169821 
   0.004243500     0.0092804   -0.0170405     0.4604329   -0.8610548     0.4593593   -0.8603565     0.0122063   -0.0182000 
   0.004493000     0.0075987   -0.0178205     0.4053856   -0.8873234     0.4044641   -0.8866300     0.0105373   -0.0191701 
   0.004742500     0.0057891   -0.0183626     0.3488992   -0.9099087     0.3478899   -0.9095115     0.0088259   -0.0200295 
   0.004992000     0.0040267   -0.0186583     0.2911194   -0.9291915     0.2900707   -0.9287052     0.0070007   -0.0205859 
   0.005241500     0.0022416   -0.0186605     0.2323220   -0.9448678     0.2312414   -0.9443440     0.0051977   -0.0209791 
   0.005491000     0.0004799   -0.0184969     0.1724228   -0.9568496     0.1714302   -0.9564322     0.0033463   -0.0211360 
   0.005740500    -0.0012372   -0.0180837     0.1121591   -0.9652067     0.1112396   -0.9646153     0.0015095   -0.0210238 
   0.005990000    -0.0028677   -0.0175450     0.0514627   -0.9696741     0.0505387   -0.9690009    -0.0002742   -0.0208031 
   0.006239500    -0.0043190   -0.0167898    -0.0093183   -0.9705096    -0.0100459   -0.9697481    -0.0019464   -0.0203821 
   0.006489000    -0.0057135   -0.0158946    -0.0699450   -0.9675047    -0.0706922   -0.9664611    -0.0035603   -0.0197465 
   0.006738500    -0.0069459   -0.0148572    -0.1301929   -0.9606801    -0.1309715   -0.9595783    -0.0050775   -0.0190582 
   0.006988000    -0.0079622   -0.0136920    -0.1896909   -0.9499936    -0.1903561   -0.9488661    -0.0064489   -0.0181294 
   0.007237500    -0.0088692   -0.0124392    -0.2486205   -0.9356846    -0.2492112   -0.9345437    -0.0076496   -0.0171293 
   0.007487000    -0.0095018   -0.0111482    -0.3063611   -0.9178088    -0.3066615   -0.9166598    -0.0086893   -0.0160109 
   0.007736500    -0.0100209   -0.0097689    -0.3629815   -0.8963072    -0.3631489   -0.8950510    -0.0095600   -0.0147770 
   0.007986000    -0.0102917   -0.0083972    -0.4181884   -0.8712214    -0.4182469   -0.8700919    -0.0102866   -0.0135083 
   0.008235500    -0.0103576   -0.0070342    -0.4716264   -0.8429856    -0.4714110   -0.8419775    -0.0107747   -0.0122443 
   0.008485000    -0.0102920   -0.0056772    -0.5231193   -0.8114418    -0.5228093   -0.8103648    -0.0111543   -0.0109110 
   0.008734500    -0.0100179   -0.0044051    -0.5725003   -0.7768717    -0.5721168   -0.7758619    -0.0113128   -0.0096199 
   0.008984000    -0.0096043   -0.0032282    -0.6195686   -0.7392660    -0.6192085   -0.7381498    -0.0113369   -0.0083454 
   0.009233500    -0.0090630   -0.0021393    -0.6641568   -0.6988980    -0.6636493   -0.6977967    -0.0111850   -0.0071332 
   0.009483000    -0.0083287   -0.0011543    -0.7059568   -0.6557575    -0.7054660   -0.6547691    -0.0108744   -0.0059726 
   0.009732500    -0.0075036   -0.0003237    -0.7452167   -0.6100331    -0.7446507   -0.6091117    -0.0104347   -0.0049154 
   0.009982000    -0.0065599    0.0003590    -0.7813397   -0.5622432    -0.7807074   -0.5612531    -0.0098855   -0.0039655 
   0.010231500    -0.0055515    0.0009079    -0.8145903   -0.5119183    -0.8137438   -0.5110972    -0.0092107   -0.0031388 
   0.010481000    -0.0044538    0.0012491    -0.8446514   -0.4598717    -0.8437514   -0.4591419    -0.0084323   -0.0024634 
   0.010730500    -0.0033653    0.0014131    -0.8712542   -0.4061244    -0.8703960   -0.4055288    -0.0076452   -0.0019031 
   0.010980000    -0.0022719    0.0014359    -0.8945571   -0.3508363    -0.8935689   -0.3502587    -0.0067350   -0.0015042 
   0.011229500    -0.0011766    0.0012944    -0.9142875   -0.2943699    -0.9132822   -0.2938536    -0.0058390   -0.0012617 
   0.011479000    -0.0001325    0.0009828    -0.9304448   -0.2365297    -0.9293368   -0.2360480    -0.0049200   -0.0011211 
   0.011728500     0.0008531    0.0005319    -0.9430123   -0.1781561    -0.9419462   -0.1776881    -0.0040113   -0.0011497 
   0.011978000     0.0017592   -0.0000771    -0.9517678   -0.1190992    -0.9506888   -0.1186309    -0.0031584   -0.0013027 
   0.012227500     0.0025783   -0.0007994    -0.9568825   -0.0592537    -0.9558403   -0.0589959    -0.0023087   -0.0015863 
   0.012477000     0.0032504   -0.0016389    -0.9583544    0.0004218    -0.9573017    0.0006044    -0.0015601   -0.0019840 
   0.012726500     0.0038209   -0.0025778    -0.9559951    0.0602400    -0.9549140    0.0603866    -0.0008817   -0.0025206 
   0.012976000     0.0042051   -0.0036098    -0.9500703    0.1196263    -0.9489537    0.1197253    -0.0003079   -0.0031339 
   0.013225500     0.0045004   -0.0047098    -0.9403678    0.1785392    -0.9391900    0.1786162     0.0001656   -0.0038157 
   0.013475000     0.0046022   -0.0058172    -0.9270547    0.2365661    -0.9259750    0.2365000     0.0004960   -0.0045889 
   0.013724500     0.0045349   -0.0069510    -0.9102081    0.2937078    -0.9090352    0.2935025     0.0007469   -0.0053913 
   0.013974000     0.0043428   -0.0080571    -0.8897922    0.3497777    -0.8885961    0.3495027     0.0008647   -0.0062298 
   0.014223500     0.0039631   -0.0091532    -0.8660161    0.4042817    -0.8649160    0.4039679     0.0008484   -0.0070418 
   0.014473000     0.0034654   -0.0102104    -0.8388474    0.4572053    -0.8377030    0.4569135     0.0006934   -0.0078892 
   0.014722500     0.0027868   -0.0111661    -0.8082668    0.5084222    -0.8072164    0.5080844     0.0004493   -0.0087418 
   0.014972000     0.0019527   -0.0120477    -0.7746431    0.5574253    -0.7737189    0.5571219     0.0000130   -0.0095281 
   0.015221500     0.0010565   -0.0128719    -0.7380081    0.6044624    -0.7370181    0.6040756    -0.0004871   -0.0102855 
   0.015471000     0.0000572   -0.0135452    -0.6987462    0.6490982    -0.6977285    0.6486222    -0.0010602   -0.0109935 
   0.015720500    -0.0010901   -0.0141019    -0.6566361    0.6911092    -0.6556914    0.6906295    -0.0017877   -0.0116201 
   0.015970000    -0.0022766   -0.0145276    -0.6122578    0.7303830    -0.6112531    0.7297293    -0.0025675   -0.0121576 
   0.016219500    -0.0034626   -0.0147998    -0.5653442    0.7666946    -0.5644597    0.7660053    -0.0033810   -0.0126020 
   0.016469000    -0.0047098   -0.0149299    -0.5161415    0.8002011    -0.5153714    0.7993898    -0.0042810   -0.0129523 
   0.016718500    -0.0059740   -0.0148881    -0.4653301    0.8305117    -0.4646667    0.8296493    -0.0051831   -0.0131748 
   0.016968000    -0.0072065   -0.0147014    -0.4124584    0.8574926    -0.4118170    0.8566797    -0.0060876   -0.0133243 
   0.017217500    -0.0084263   -0.0143799    -0.3581895    0.8811069    -0.3575465    0.8802038    -0.0070545   -0.0133004 
   0.017467000    -0.0095819   -0.0138787    -0.3025007    0.9012544    -0.3018530    0.9004204    -0.0079967   -0.0131912 
   0.017716500    -0.0106397   -0.0132472    -0.2454995    0.9181081    -0.2449355    0.9171233    -0.0089193   -0.0129866 
   0.017966000    -0.0116527   -0.0124874    -0.1878807    0.9311852    -0.1872878    0.9303225    -0.0097764   -0.0125991 
   0.018215500    -0.0125815   -0.0116196    -0.1293489    0.9407738    -0.1288243    0.9397310    -0.0106173   -0.0121868 
   0.018465000    -0.0133208   -0.0105914    -0.0707558    0.9467075    -0.0702892    0.9455906    -0.0113463   -0.0116205 
   0.018714500    -0.0139529   -0.0095544    -0.0114830    0.9488181    -0.0112828    0.9478080    -0.0120611   -0.0109755 
   0.018964000    -0.0144641   -0.0084222     0.0474917    0.9473806     0.0477715    0.9463326    -0.0126836   -0.0102986 
   0.019213500    -0.0148228   -0.0072219     0.1062698    0.9424028     0.1064095    0.9412522    -0.0131826   -0.0095205 
   0.019463000    -0.0150563   -0.0059872     0.1647552    0.9335164     0.1648662    0.9324489    -0.0136053   -0.0087054 
   0.019712500    -0.0150751   -0.0047587     0.2224646    0.9211652     0.2223644    0.9199762    -0.0139083   -0.0078674 
   0.019962000    -0.0149942   -0.0035285     0.2793670    0.9052341     0.2792206    0.9041312    -0.0141355   -0.0070110 
   0.020211500    -0.0147132   -0.0023262     0.3352695    0.8858294     0.3348628    0.8847110    -0.0142152   -0.0061352 
   0.020461000    -0.0142924   -0.0011791     0.3896336    0.8629308     0.3891356    0.8618358    -0.0142052   -0.0052745 
   0.020710500    -0.0137124   -0.0000954     0.4425113    0.8366482     0.4419507    0.8356262    -0.0141091   -0.0044219 
   0.020960000    -0.0130363    0.0009036     0.4934505    0.8073725     0.4928226    0.8062923    -0.0138709   -0.0036029 
   0.021209500    -0.0121811    0.0018020     0.5426942    0.7747646     0.5419666    0.7736598    -0.0135055   -0.0028440 
   0.021459000    -0.0112558    0.0025858     0.5896742    0.7392337     0.5888283    0.7382320    -0.0131015   -0.0021105 
   0.021708500    -0.0102032    0.0032303     0.6341828    0.7011243     0.6334288    0.7000827    -0.0125960   -0.0015014 
   0.021958000    -0.0091116    0.0037780     0.6764323    0.6600125     0.6756412    0.6591021    -0.0120047   -0.0009447 
   0.022207500    -0.0079519    0.0041421     0.7158226    0.6165017     0.7150817    0.6156014    -0.0113544   -0.0005019 
   0.022457000    -0.0067149    0.0043889     0.7526271    0.5704869     0.7519954    0.5694761    -0.0106514   -0.0001004 
   0.022706500    -0.0054743    0.0044590     0.7865663    0.5222231     0.7858106    0.5214449    -0.0099575    0.0001767 
   0.022956000    -0.0042737    0.0043726     0.8172665    0.4721641     0.8164805    0.4714810    -0.0092488    0.0003134 
   0.023205500    -0.0030538    0.0040987     0.8447236    0.4202408     0.8439692    0.4194432    -0.0085015    0.0003474 
   0.023455000    -0.0018959    0.0036732     0.8690205    0.3669305     0.8681130    0.3662236    -0.0077828    0.0003206 
   0.023704500    -0.0008248    0.0031082     0.8899603    0.3119550     0.8890691    0.3112866    -0.0071181    0.0001583 
   0.023954000     0.0002018    0.0023874     0.9072595    0.2561233     0.9063163    0.2554679    -0.0064733   -0.0001110 
   0.024203500     0.0011382    0.0015540     0.9211524    0.1991262     0.9201025    0.1987188    -0.0058791   -0.0004527 
   0.024453000     0.0019797    0.0006040     0.9314693    0.1413229     0.9304270    0.1409613    -0.0053243   -0.0008757 
   0.024702500     0.0026473   -0.0004493     0.9381735    0.0833470     0.9370919    0.0829152    -0.0048696   -0.0014113 
   0.024952000     0.0032013   -0.0016129     0.9411892    0.0244850     0.9401220    0.0243315    -0.0044649   -0.0019752 
   0.025201500     0.0036039   -0.0027694     0.9411196   -0.0338062     0.9400060   -0.0342242    -0.0042221   -0.0025757 
   0.025451000     0.0038675   -0.0041025     0.9363952   -0.0926171     0.9353316   -0.0926934    -0.0039441   -0.0033133 
   0.025700500     0.0039588   -0.0054247     0.9286181   -0.1505669     0.9275171   -0.1505207    -0.0038222   -0.0040429 
   0.025950000     0.0038976   -0.0067361     0.9172595   -0.2080464     0.9161394   -0.2078206    -0.0038123   -0.0047403 
   0.026199500     0.0036984   -0.0080665     0.9020984   -0.2646506     0.9011375   -0.2646201    -0.0038967   -0.0054668 
   0.026449000     0.0033322   -0.0093333     0.8837195   -0.3199744     0.8826315   -0.3198558    -0.0040892   -0.0061643 
   0.026698500     0.0028069   -0.0105714     0.8618094   -0.3743324     0.8608531   -0.3738681    -0.0043880   -0.0068763 
   0.026948000     0.0021570   -0.0117545     0.8366141   -0.4268771     0.8355833   -0.4266506    -0.0047737   -0.0075043 
   0.027197500     0.0013417   -0.0128452     0.8079736   -0.4780679     0.8071435   -0.4774760    -0.0052429   -0.0081144 
   0.027447000     0.0004313   -0.0138515     0.7764701   -0.5273793     0.7756021   -0.5267606    -0.0058067   -0.0086434 
   0.027696500    -0.0005895   -0.0147495     0.7419809   -0.5744964     0.7412459   -0.5738700    -0.0064314   -0.0090945 
   0.027946000    -0.0017448   -0.0154931     0.7045129   -0.6194082     0.7037137   -0.6187524    -0.0071255   -0.0094731 
   0.028195500    -0.0029689   -0.0161090     0.6645210   -0.6618323     0.6637573   -0.6610203    -0.0078453   -0.0097566 
   0.028445000    -0.0042663   -0.0165696     0.6218910   -0.7017509     0.6211972   -0.7008012    -0.0086373   -0.0099130 
   0.028694500    -0.0055904   -0.0168862     0.5767799   -0.7388791     0.5760286   -0.7379631    -0.0094668   -0.0100197 
   0.028944000    -0.0069790   -0.0170711     0.5296869   -0.7727849     0.5289792   -0.7719235    -0.0103112   -0.0099851 
   0.029193500    -0.0083371   -0.0170616     0.4804245   -0.8040646     0.4797036   -0.8032808    -0.0111180   -0.0098453 
   0.029443000    -0.0097169   -0.0169037     0.4294470   -0.8320653     0.4287054   -0.8311731    -0.0119276   -0.0096258 
   0.029692500    -0.0110568   -0.0166071     0.3766588   -0.8568390     0.3761766   -0.8559815    -0.0127320   -0.0092873 
   0.029942000    -0.0123385   -0.0161603     0.3223439   -0.8785003     0.3219487   -0.8774498    -0.0135111   -0.0088430 
   0.030191500    -0.0135776   -0.0155550     0.2670994   -0.8966004     0.2666116   -0.8956888    -0.0141863   -0.0083219 
   0.030441000    -0.0147118   -0.0148100     0.2107192   -0.9111792     0.2102316   -0.9102655    -0.0148589   -0.0076850 
   0.030690500    -0.0157015   -0.0139166     0.1537925   -0.9223241     0.1533169   -0.9212627    -0.0154015   -0.0069723 
   0.030940000    -0.0166401   -0.0129646     0.0959566   -0.9298048     0.0957604   -0.9287923    -0.0158630   -0.0061921 
   0.031189500    -0.0174452   -0.0118991     0.0380322   -0.9336609     0.0376954   -0.9326862    -0.0162370   -0.0053133 
   0.031439000    -0.0180921   -0.0107462    -0.0199072   -0.9339933    -0.0202629   -0.9329795    -0.0164496   -0.0044085 
   0.031688500    -0.0185913   -0.0095266    -0.0779416   -0.9307015    -0.0782389   -0.9296381    -0.0166119   -0.0035065 
   0.031938000    -0.0189429   -0.0082768    -0.1355427   -0.9238294    -0.1357960   -0.9227936    -0.0166407   -0.0025517 
   0.032187500    -0.0191693   -0.0070100    -0.1928707   -0.9132448    -0.1927664   -0.9121337    -0.0165257   -0.0016113 
   0.032437000    -0.0192125   -0.0057144    -0.2491995   -0.8994160    -0.2490564   -0.8981870    -0.0163055   -0.0006280 
   0.032686500    -0.0192409   -0.0044995    -0.3044935   -0.8818659    -0.3035354   -0.8808481    -0.0161696    0.0001822 
   0.032936000    -0.0188966   -0.0032158    -0.3587640   -0.8609577    -0.3584184   -0.8599770    -0.0156221    0.0011517 
   0.033185500    -0.0186057   -0.0020696    -0.4113396   -0.8367453    -0.4102914   -0.8358561    -0.0152071    0.0019191 
   0.033435000    -0.0179909   -0.0009180    -0.4625766   -0.8093209    -0.4620366   -0.8084387    -0.0144287    0.0027781 
   0.033684500    -0.0173637    0.0000915    -0.5118034   -0.7789583    -0.5112802   -0.7777854    -0.0137255    0.0034439 
   0.033934000    -0.0165985    0.0010329    -0.5590292   -0.7455003    -0.5584507   -0.7445378    -0.0129270    0.0040302 
   0.034183500    -0.0157416    0.0018670    -0.6041771   -0.7090158    -0.6034921   -0.7081326    -0.0120787    0.0045411 
   0.034433000    -0.0148525    0.0025286    -0.6467786   -0.6700351    -0.6461794   -0.6691326    -0.0111613    0.0049332 
   0.034682500    -0.0138067    0.0031069    -0.6870185   -0.6281898    -0.6862753   -0.6274121    -0.0102040    0.0051844 
   0.034932000    -0.0127818    0.0035177    -0.7246578   -0.5843067    -0.7238508   -0.5833877    -0.0092177    0.0053756 
   0.035181500    -0.0116897    0.0038183    -0.7593691   -0.5379221    -0.7584906   -0.5371195    -0.0081698    0.0053930 
   0.035431000    -0.0105657    0.0039489    -0.7910812   -0.4895962    -0.7902056   -0.4887834    -0.0071653    0.0052727 
   0.035680500    -0.0094772    0.0039631    -0.8198261   -0.4393873    -0.8187652   -0.4389081    -0.0061429    0.0050388 
   0.035930000    -0.0083705    0.0037951    -0.8452981   -0.3874112    -0.8443130   -0.3869378    -0.0051293    0.0047499 
   0.036179500    -0.0073107    0.0035161    -0.8676451   -0.3342030    -0.8664943   -0.3335766    -0.0041989    0.0042932 
   0.036429000    -0.0063092    0.0031018    -0.8864690   -0.2795212    -0.8853773   -0.2792591    -0.0033098    0.0037441 
   0.036678500    -0.0053863    0.0025715    -0.9018658   -0.2238367    -0.9008167   -0.2234595    -0.0024462    0.0030815 
   0.036928000    -0.0045359    0.0019278    -0.9136984   -0.1672961    -0.9127203   -0.1670450    -0.0017168    0.0023368 
   0.037177500    -0.0037822    0.0012018    -0.9221634   -0.1099823    -0.9209769   -0.1099019    -0.0010420    0.0014824 
   0.037427000    -0.0031300    0.0003751    -0.9270357   -0.0525421    -0.9258848   -0.0524277    -0.0004910    0.0005822 
   0.037676500    -0.0026054   -0.0005459    -0.9282586    0.0053572    -0.9271106    0.0053862    -0.0000236   -0.0003883 
   0.037926000    -0.0021993   -0.0014934    -0.9259771    0.0628227    -0.9246758    0.0629698     0.0003068   -0.0014227 
   0.038175500    -0.0019242   -0.0024821    -0.9199777    0.1201992    -0.9188333    0.1200884     0.0005316   -0.0024572 
   0.038425000    -0.0017922   -0.0035068    -0.9103688    0.1771746    -0.9093187    0.1770716     0.0006141   -0.0035374 
   0.038674500    -0.0017904   -0.0045079    -0.8974781    0.2332449    -0.8963934    0.2331005     0.0005883   -0.0045778 
   0.038924000    -0.0019282   -0.0055127    -0.8809507    0.2885694    -0.8800249    0.2881604     0.0004360   -0.0056478 
   0.039173500    -0.0021908   -0.0064912    -0.8610533    0.3427286    -0.8600795    0.3424095     0.0001600   -0.0066652 
   0.039423000    -0.0026094   -0.0074189    -0.8377720    0.3954324    -0.8369930    0.3949924    -0.0002281   -0.0076707 
   0.039672500    -0.0030829   -0.0082830    -0.8112010    0.4467054    -0.8106230    0.4454291    -0.0007411   -0.0086978 
   0.039922000    -0.0037532   -0.0089835    -0.7825436    0.4963222    -0.7813592    0.4958141    -0.0013636   -0.0094711 
