! MS46122B
! 1746301/73750021
! 11/1/2023 4:07:01 PM
! C:\USERS\SPEGWAL\DOWNLOADS\SAURABH\REACH\NODES\FRONT END\MEASUREMENTS\MEASURED S-PARAMETERS_01-11-2023\CABLES\2M_P1A1-P2A2.S2P
! CHANNEL.1
! TR.MEASUREMENT
! CORRECTED.DATA
# GHZ S RI R 50.0
! FREQ.GHZ         S11RE         S11IM         S21RE         S21IM         S12RE         S12IM         S22RE         S22IM         
!; PortSelection: Port_12
   0.001000000     0.0025732    0.0017029     0.9961308   -0.0552326     0.9965789   -0.0530737     0.0041513    0.0024241 
   0.001249500     0.0031541    0.0018942     0.9959690   -0.0674330     0.9953073   -0.0677668     0.0043065    0.0020941 
   0.001499000     0.0034673    0.0018365     0.9948789   -0.0799990     0.9940546   -0.0807098     0.0044660    0.0018649 
   0.001748500     0.0037774    0.0016887     0.9935627   -0.0928757     0.9926261   -0.0936541     0.0046407    0.0016349 
   0.001998000     0.0040984    0.0014149     0.9921242   -0.1055589     0.9910743   -0.1063536     0.0048208    0.0013682 
   0.002247500     0.0044268    0.0009420     0.9900728   -0.1180144     0.9890584   -0.1188247     0.0050645    0.0008952 
   0.002497000     0.0047132    0.0006242     0.9883056   -0.1305908     0.9871943   -0.1313676     0.0052275    0.0006310 
   0.002746500     0.0049567    0.0002861     0.9864646   -0.1431975     0.9852058   -0.1440733     0.0054072    0.0003468 
   0.002996000     0.0051896   -0.0000814     0.9843487   -0.1557512     0.9830718   -0.1565488     0.0055748    0.0000320 
   0.003245500     0.0053461   -0.0004482     0.9820501   -0.1682998     0.9807891   -0.1689795     0.0057121   -0.0002778 
   0.003495000     0.0055073   -0.0008342     0.9796860   -0.1807645     0.9783761   -0.1815370     0.0058508   -0.0005905 
   0.003744500     0.0056831   -0.0012182     0.9770848   -0.1931543     0.9757649   -0.1939280     0.0060139   -0.0009470 
   0.003994000     0.0057791   -0.0016104     0.9743128   -0.2055539     0.9730561   -0.2062441     0.0061143   -0.0012900 
   0.004243500     0.0058593   -0.0020304     0.9715170   -0.2179390     0.9697158   -0.2178576     0.0062165   -0.0017256 
   0.004493000     0.0059164   -0.0024352     0.9684848   -0.2302396     0.9666467   -0.2300547     0.0062598   -0.0020254 
   0.004742500     0.0059546   -0.0028198     0.9651121   -0.2422314     0.9633844   -0.2422875     0.0063061   -0.0023637 
   0.004992000     0.0059945   -0.0031916     0.9617404   -0.2543973     0.9600066   -0.2544253     0.0063454   -0.0027118 
   0.005241500     0.0060096   -0.0035586     0.9582472   -0.2665270     0.9565547   -0.2665361     0.0063969   -0.0030358 
   0.005491000     0.0059784   -0.0039148     0.9545784   -0.2785125     0.9530544   -0.2785553     0.0064070   -0.0033624 
   0.005740500     0.0059653   -0.0042730     0.9508762   -0.2906344     0.9492567   -0.2905788     0.0063940   -0.0036980 
   0.005990000     0.0059220   -0.0046353     0.9468278   -0.3026697     0.9453293   -0.3026624     0.0063874   -0.0040171 
   0.006239500     0.0058645   -0.0049762     0.9427543   -0.3145808     0.9412632   -0.3147110     0.0063607   -0.0043355 
   0.006489000     0.0058159   -0.0053396     0.9384789   -0.3265063     0.9369965   -0.3265274     0.0062892   -0.0046754 
   0.006738500     0.0057305   -0.0056946     0.9341599   -0.3384010     0.9325870   -0.3384023     0.0062616   -0.0050120 
   0.006988000     0.0056380   -0.0060362     0.9295633   -0.3501201     0.9281195   -0.3500865     0.0062055   -0.0053455 
   0.007237500     0.0055505   -0.0063957     0.9250161   -0.3619626     0.9234807   -0.3617948     0.0061289   -0.0056779 
   0.007487000     0.0054362   -0.0067243     0.9202492   -0.3736214     0.9186414   -0.3734246     0.0060403   -0.0060045 
   0.007736500     0.0053309   -0.0070759     0.9151828   -0.3854962     0.9135605   -0.3851499     0.0059523   -0.0062972 
   0.007986000     0.0052107   -0.0074064     0.9099846   -0.3971353     0.9084977   -0.3967888     0.0058331   -0.0066463 
   0.008235500     0.0050741   -0.0077341     0.9046366   -0.4087234     0.9033437   -0.4082338     0.0057223   -0.0069527 
   0.008485000     0.0049162   -0.0080602     0.8994636   -0.4200759     0.8980392   -0.4196809     0.0056046   -0.0072550 
   0.008734500     0.0047622   -0.0083656     0.8939455   -0.4314449     0.8925370   -0.4311219     0.0055029   -0.0075528 
   0.008984000     0.0046019   -0.0086814     0.8882431   -0.4428407     0.8869662   -0.4424025     0.0053411   -0.0078517 
   0.009233500     0.0044443   -0.0090009     0.8826599   -0.4541583     0.8811655   -0.4535885     0.0051991   -0.0081411 
   0.009483000     0.0042643   -0.0093174     0.8765687   -0.4653704     0.8751021   -0.4648290     0.0050515   -0.0084427 
   0.009732500     0.0040723   -0.0096141     0.8704036   -0.4764601     0.8690293   -0.4759420     0.0049058   -0.0087297 
   0.009982000     0.0038686   -0.0099036     0.8643157   -0.4873509     0.8628546   -0.4868254     0.0047241   -0.0090110 
   0.010231500     0.0036538   -0.0101871     0.8580279   -0.4982534     0.8565629   -0.4976389     0.0045264   -0.0092850 
   0.010481000     0.0034134   -0.0104711     0.8515413   -0.5091859     0.8501198   -0.5084457     0.0043212   -0.0095615 
   0.010730500     0.0031934   -0.0107205     0.8450128   -0.5199096     0.8436181   -0.5193418     0.0041075   -0.0098059 
   0.010980000     0.0029441   -0.0109981     0.8382693   -0.5306047     0.8368578   -0.5299721     0.0038903   -0.0100444 
   0.011229500     0.0026811   -0.0112747     0.8312594   -0.5411805     0.8298134   -0.5405430     0.0036505   -0.0103029 
   0.011479000     0.0024363   -0.0115406     0.8242665   -0.5515543     0.8227545   -0.5508723     0.0034335   -0.0105544 
   0.011728500     0.0021737   -0.0118017     0.8171963   -0.5619255     0.8157233   -0.5612407     0.0032065   -0.0108038 
   0.011978000     0.0019221   -0.0120560     0.8099251   -0.5721567     0.8083783   -0.5714738     0.0029660   -0.0110469 
   0.012227500     0.0016313   -0.0122988     0.8024258   -0.5823824     0.8010204   -0.5816315     0.0027248   -0.0112856 
   0.012477000     0.0013239   -0.0125119     0.7948364   -0.5924844     0.7934931   -0.5917748     0.0024618   -0.0114955 
   0.012726500     0.0010152   -0.0127437     0.7872241   -0.6025423     0.7858125   -0.6018252     0.0021819   -0.0117005 
   0.012976000     0.0007109   -0.0129712     0.7794002   -0.6123301     0.7779807   -0.6116083     0.0018991   -0.0119080 
   0.013225500     0.0003833   -0.0131497     0.7715666   -0.6219456     0.7700899   -0.6212920     0.0015892   -0.0121353 
   0.013475000     0.0000672   -0.0133213     0.7637323   -0.6315476     0.7623405   -0.6308153     0.0012991   -0.0123371 
   0.013724500    -0.0002547   -0.0135184     0.7555997   -0.6412015     0.7541046   -0.6403655     0.0009923   -0.0125091 
   0.013974000    -0.0005641   -0.0136970     0.7472385   -0.6506320     0.7458636   -0.6498248     0.0006959   -0.0126760 
   0.014223500    -0.0008840   -0.0138787     0.7387144   -0.6601623     0.7373313   -0.6593198     0.0004458   -0.0128381 
   0.014473000    -0.0012193   -0.0140660     0.7302417   -0.6694168     0.7288212   -0.6685848     0.0001288   -0.0130460 
   0.014722500    -0.0015665   -0.0142330     0.7215234   -0.6785858     0.7201526   -0.6777654    -0.0001827   -0.0132364 
   0.014972000    -0.0019247   -0.0143768     0.7127587   -0.6876965     0.7115353   -0.6868692    -0.0004474   -0.0133739 
   0.015221500    -0.0022532   -0.0145347     0.7039875   -0.6966251     0.7026097   -0.6957140    -0.0007843   -0.0135397 
   0.015471000    -0.0025894   -0.0146653     0.6950535   -0.7053578     0.6936508   -0.7045789    -0.0011076   -0.0136685 
   0.015720500    -0.0029475   -0.0147957     0.6859379   -0.7141407     0.6846361   -0.7132228    -0.0014326   -0.0138292 
   0.015970000    -0.0033150   -0.0149245     0.6767949   -0.7226899     0.6754557   -0.7217780    -0.0017633   -0.0139537 
   0.016219500    -0.0036558   -0.0150408     0.6675568   -0.7311484     0.6661836   -0.7302189    -0.0020914   -0.0140708 
   0.016469000    -0.0040201   -0.0151452     0.6581205   -0.7395085     0.6569112   -0.7384714    -0.0024151   -0.0141931 
   0.016718500    -0.0043748   -0.0152327     0.6487520   -0.7478570     0.6475816   -0.7466509    -0.0027073   -0.0143172 
   0.016968000    -0.0047266   -0.0153145     0.6390780   -0.7559614     0.6379430   -0.7548039    -0.0030013   -0.0144327 
   0.017217500    -0.0050816   -0.0154269     0.6293299   -0.7638420     0.6282002   -0.7627519    -0.0033526   -0.0145265 
   0.017467000    -0.0054465   -0.0155042     0.6195185   -0.7717404     0.6182454   -0.7707667    -0.0036629   -0.0146281 
   0.017716500    -0.0058014   -0.0155618     0.6095577   -0.7793671     0.6082669   -0.7784114    -0.0040059   -0.0147183 
   0.017966000    -0.0061715   -0.0156187     0.5996046   -0.7868410     0.5983284   -0.7859678    -0.0043399   -0.0147425 
   0.018215500    -0.0065451   -0.0156705     0.5895886   -0.7944040     0.5883508   -0.7933275    -0.0046629   -0.0148259 
   0.018465000    -0.0069162   -0.0156828     0.5795147   -0.8016410     0.5782450   -0.8006192    -0.0050011   -0.0148701 
   0.018714500    -0.0072313   -0.0157073     0.5691285   -0.8089083     0.5680333   -0.8078239    -0.0053420   -0.0149187 
   0.018964000    -0.0075892   -0.0157353     0.5588279   -0.8159754     0.5577032   -0.8149997    -0.0056676   -0.0149440 
   0.019213500    -0.0079750   -0.0157364     0.5483307   -0.8230017     0.5472117   -0.8218377    -0.0059900   -0.0149680 
   0.019463000    -0.0083307   -0.0157257     0.5377422   -0.8297940     0.5366499   -0.8286781    -0.0063227   -0.0150140 
   0.019712500    -0.0086768   -0.0157195     0.5271693   -0.8365058     0.5260714   -0.8352441    -0.0066579   -0.0150111 
   0.019962000    -0.0090063   -0.0156787     0.5165943   -0.8431037     0.5155754   -0.8418974    -0.0069854   -0.0150281 
   0.020211500    -0.0093713   -0.0156490     0.5056214   -0.8495494     0.5047649   -0.8483036    -0.0073246   -0.0150277 
   0.020461000    -0.0097205   -0.0156324     0.4946200   -0.8559362     0.4938171   -0.8545108    -0.0076431   -0.0150303 
   0.020710500    -0.0100564   -0.0155950     0.4835863   -0.8621034     0.4828589   -0.8606862    -0.0079901   -0.0150257 
   0.020960000    -0.0104213   -0.0155397     0.4726297   -0.8681484     0.4718042   -0.8667279    -0.0083046   -0.0149861 
   0.021209500    -0.0107315   -0.0154626     0.4616390   -0.8741074     0.4608161   -0.8726184    -0.0086031   -0.0149667 
   0.021459000    -0.0110577   -0.0154017     0.4504118   -0.8798948     0.4496957   -0.8783570    -0.0089411   -0.0149268 
   0.021708500    -0.0113979   -0.0153099     0.4392627   -0.8853382     0.4383920   -0.8838996    -0.0092744   -0.0148671 
   0.021958000    -0.0117414   -0.0152209     0.4279744   -0.8908737     0.4271840   -0.8893701    -0.0095682   -0.0148171 
   0.022207500    -0.0120836   -0.0151532     0.4165933   -0.8961210     0.4157508   -0.8947221    -0.0098947   -0.0147545 
   0.022457000    -0.0124346   -0.0150396     0.4050981   -0.9012480     0.4042863   -0.8999758    -0.0102213   -0.0146590 
   0.022706500    -0.0127857   -0.0149217     0.3936210   -0.9063160     0.3927776   -0.9050415    -0.0105242   -0.0146014 
   0.022956000    -0.0130989   -0.0148291     0.3821119   -0.9111763     0.3812184   -0.9099720    -0.0108396   -0.0145250 
   0.023205500    -0.0134067   -0.0146815     0.3705215   -0.9159623     0.3695684   -0.9145569    -0.0111070   -0.0144497 
   0.023455000    -0.0137221   -0.0145458     0.3589088   -0.9204803     0.3579906   -0.9191929    -0.0114010   -0.0143126 
   0.023704500    -0.0140142   -0.0144236     0.3472499   -0.9248975     0.3463002   -0.9236320    -0.0116952   -0.0142074 
   0.023954000    -0.0143245   -0.0142655     0.3355226   -0.9290567     0.3346243   -0.9278088    -0.0119834   -0.0140842 
   0.024203500    -0.0146315   -0.0141039     0.3237392   -0.9331869     0.3228475   -0.9318063    -0.0122724   -0.0139736 
   0.024453000    -0.0149237   -0.0139513     0.3119568   -0.9370787     0.3110701   -0.9357628    -0.0125500   -0.0138458 
   0.024702500    -0.0152152   -0.0137833     0.3001865   -0.9408777     0.2991317   -0.9394956    -0.0128577   -0.0137161 
   0.024952000    -0.0155027   -0.0135944     0.2881140   -0.9445292     0.2873804   -0.9431359    -0.0131618   -0.0135809 
   0.025201500    -0.0156933   -0.0133971     0.2764148   -0.9482862     0.2755452   -0.9470533    -0.0133679   -0.0133955 
   0.025451000    -0.0160545   -0.0132263     0.2639922   -0.9512753     0.2632462   -0.9498631    -0.0136974   -0.0132915 
   0.025700500    -0.0163403   -0.0130255     0.2519610   -0.9544966     0.2511437   -0.9530659    -0.0139531   -0.0131184 
   0.025950000    -0.0165935   -0.0128252     0.2398506   -0.9575357     0.2390302   -0.9561173    -0.0142064   -0.0129685 
   0.026199500    -0.0168555   -0.0126237     0.2276666   -0.9603996     0.2269583   -0.9590483    -0.0144584   -0.0128086 
   0.026449000    -0.0170941   -0.0124237     0.2155706   -0.9630836     0.2147600   -0.9617038    -0.0147057   -0.0126630 
   0.026698500    -0.0173376   -0.0122159     0.2032112   -0.9657373     0.2026618   -0.9642524    -0.0149647   -0.0124584 
   0.026948000    -0.0175958   -0.0119821     0.1908188   -0.9680721     0.1903360   -0.9666615    -0.0152024   -0.0122660 
   0.027197500    -0.0178326   -0.0117607     0.1784221   -0.9703116     0.1779830   -0.9688404    -0.0154672   -0.0120911 
   0.027447000    -0.0180873   -0.0115531     0.1661317   -0.9724840     0.1656035   -0.9710180    -0.0156884   -0.0118990 
   0.027696500    -0.0182892   -0.0113167     0.1538176   -0.9744385     0.1533344   -0.9729747    -0.0159095   -0.0116994 
   0.027946000    -0.0185170   -0.0110614     0.1414660   -0.9762905     0.1410018   -0.9747611    -0.0161533   -0.0115176 
   0.028195500    -0.0187148   -0.0108039     0.1289662   -0.9779553     0.1287543   -0.9764058    -0.0163518   -0.0113485 
   0.028445000    -0.0189218   -0.0105581     0.1165783   -0.9794982     0.1162654   -0.9779012    -0.0165670   -0.0111275 
   0.028694500    -0.0191077   -0.0102945     0.1041003   -0.9808656     0.1038519   -0.9791626    -0.0167662   -0.0109252 
   0.028944000    -0.0193179   -0.0100581     0.0916676   -0.9819593     0.0912809   -0.9802892    -0.0170107   -0.0107025 
   0.029193500    -0.0194767   -0.0097683     0.0792541   -0.9829947     0.0788584   -0.9813398    -0.0171523   -0.0104841 
   0.029443000    -0.0196547   -0.0094938     0.0668362   -0.9838315     0.0665278   -0.9821377    -0.0173200   -0.0102844 
   0.029692500    -0.0198201   -0.0092270     0.0542835   -0.9846271     0.0540255   -0.9830452    -0.0175110   -0.0100359 
   0.029942000    -0.0199611   -0.0089592     0.0417364   -0.9851862     0.0415536   -0.9835835    -0.0176936   -0.0097918 
   0.030191500    -0.0201243   -0.0086560     0.0292591   -0.9855215     0.0290214   -0.9840090    -0.0178383   -0.0095710 
   0.030441000    -0.0202607   -0.0083782     0.0167723   -0.9857295     0.0166097   -0.9841999    -0.0180308   -0.0093280 
   0.030690500    -0.0203790   -0.0080817     0.0044456   -0.9857837     0.0040478   -0.9842314    -0.0181721   -0.0090923 
   0.030940000    -0.0205139   -0.0078123    -0.0080877   -0.9857221    -0.0083743   -0.9841111    -0.0182746   -0.0088273 
   0.031189500    -0.0206129   -0.0075123    -0.0204834   -0.9854111    -0.0207938   -0.9838906    -0.0184283   -0.0085755 
   0.031439000    -0.0207145   -0.0072147    -0.0329270   -0.9850731    -0.0332982   -0.9834687    -0.0185441   -0.0083229 
   0.031688500    -0.0208161   -0.0069218    -0.0454724   -0.9844269    -0.0456578   -0.9828970    -0.0186508   -0.0080718 
   0.031938000    -0.0208950   -0.0066156    -0.0579659   -0.9837291    -0.0582021   -0.9822277    -0.0187686   -0.0078193 
   0.032187500    -0.0209865   -0.0063387    -0.0703052   -0.9828727    -0.0706544   -0.9812375    -0.0188608   -0.0075903 
   0.032437000    -0.0210349   -0.0060176    -0.0827078   -0.9819177    -0.0829561   -0.9802212    -0.0189363   -0.0073029 
   0.032686500    -0.0212099   -0.0057861    -0.0952354   -0.9807243    -0.0945880   -0.9790088    -0.0191697   -0.0071525 
   0.032936000    -0.0211915   -0.0054253    -0.1075505   -0.9793929    -0.1075324   -0.9778001    -0.0191282   -0.0067913 
   0.033185500    -0.0213423   -0.0051616    -0.1202487   -0.9777672    -0.1193975   -0.9762098    -0.0193098   -0.0065974 
   0.033435000    -0.0212617   -0.0047895    -0.1326377   -0.9760579    -0.1324077   -0.9744952    -0.0192493   -0.0062176 
   0.033684500    -0.0213200   -0.0045097    -0.1449625   -0.9742704    -0.1448680   -0.9727147    -0.0193210   -0.0059601 
   0.033934000    -0.0213552   -0.0041794    -0.1571995   -0.9723867    -0.1571477   -0.9707248    -0.0193486   -0.0056945 
   0.034183500    -0.0213535   -0.0038614    -0.1695977   -0.9702638    -0.1694312   -0.9685588    -0.0194163   -0.0054486 
   0.034433000    -0.0213903   -0.0035939    -0.1817498   -0.9679834    -0.1816802   -0.9663514    -0.0194688   -0.0051630 
   0.034682500    -0.0213716   -0.0032647    -0.1940213   -0.9655244    -0.1939717   -0.9639739    -0.0195116   -0.0049127 
   0.034932000    -0.0213769   -0.0029689    -0.2060915   -0.9630862    -0.2060640   -0.9613773    -0.0195563   -0.0046440 
   0.035181500    -0.0213669   -0.0026472    -0.2183022   -0.9602141    -0.2182207   -0.9585803    -0.0195366   -0.0043797 
   0.035431000    -0.0213269   -0.0023534    -0.2303131   -0.9574354    -0.2302656   -0.9556491    -0.0195533   -0.0041186 
   0.035680500    -0.0213367   -0.0020507    -0.2424811   -0.9545007    -0.2422120   -0.9526493    -0.0195548   -0.0038621 
   0.035930000    -0.0212498   -0.0017464    -0.2545295   -0.9512255    -0.2541784   -0.9494987    -0.0195641   -0.0035950 
   0.036179500    -0.0212174   -0.0014563    -0.2665992   -0.9479679    -0.2661891   -0.9462121    -0.0195365   -0.0033012 
   0.036429000    -0.0211751   -0.0011552    -0.2785489   -0.9444424    -0.2780489   -0.9427666    -0.0195223   -0.0030399 
   0.036678500    -0.0211036   -0.0008430    -0.2904113   -0.9406688    -0.2901243   -0.9390714    -0.0195093   -0.0027735 
   0.036928000    -0.0210366   -0.0005720    -0.3023012   -0.9368051    -0.3020346   -0.9351498    -0.0194960   -0.0025193 
   0.037177500    -0.0209488   -0.0002726    -0.3138988   -0.9328803    -0.3137813   -0.9311476    -0.0194518   -0.0022535 
   0.037427000    -0.0208533    0.0000196    -0.3256321   -0.9288203    -0.3254542   -0.9270709    -0.0194104   -0.0019877 
   0.037676500    -0.0207700    0.0003027    -0.3373034   -0.9245573    -0.3371082   -0.9228993    -0.0193365   -0.0017497 
   0.037926000    -0.0206941    0.0005718    -0.3490160   -0.9202432    -0.3486541   -0.9184644    -0.0192996   -0.0015020 
   0.038175500    -0.0205765    0.0008647    -0.3607076   -0.9156402    -0.3601726   -0.9139382    -0.0192502   -0.0012567 
   0.038425000    -0.0204759    0.0011380    -0.3721032   -0.9108192    -0.3717524   -0.9092863    -0.0191892   -0.0010141 
   0.038674500    -0.0203219    0.0014179    -0.3834982   -0.9060003    -0.3832082   -0.9044649    -0.0191170   -0.0007642 
   0.038924000    -0.0202174    0.0016660    -0.3949249   -0.9010205    -0.3945362   -0.8994880    -0.0190431   -0.0005123 
   0.039173500    -0.0200650    0.0019525    -0.4063253   -0.8957992    -0.4057876   -0.8944064    -0.0189674   -0.0003182 
   0.039423000    -0.0199148    0.0022072    -0.4176258   -0.8903816    -0.4170576   -0.8890921    -0.0188733   -0.0000773 
   0.039672500    -0.0198939    0.0024053    -0.4289812   -0.8849923    -0.4275947   -0.8837816    -0.0188253    0.0001097 
   0.039922000    -0.0195821    0.0027847    -0.4401754   -0.8799443    -0.4395106   -0.8784617    -0.0187035    0.0004245 
   0.040171500    -0.0194489    0.0030163    -0.4512591   -0.8742691    -0.4506270   -0.8727884    -0.0185937    0.0006455 
