! MS46122B
! 1746301/73750021
! 11/1/2023 5:03:45 PM
! C:\USERS\SPEGWAL\DOWNLOADS\SAURABH\REACH\NODES\FRONT END\MEASUREMENTS\MEASURED S-PARAMETERS_01-11-2023\CABLES\2M_P1A1-P2A2_FIXED.S2P
! CHANNEL.1
! TR.MEASUREMENT
! CORRECTED.DATA
# GHZ S RI R 50.0
! FREQ.GHZ         S11RE         S11IM         S21RE         S21IM         S12RE         S12IM         S22RE         S22IM         
!; PortSelection: Port_12
   0.001000000     0.0031609    0.0019314     0.9960759   -0.0544909     0.9961204   -0.0531064     0.0046934    0.0024873 
   0.001249500     0.0036616    0.0021267     0.9958648   -0.0675405     0.9957206   -0.0676784     0.0049048    0.0022371 
   0.001499000     0.0039762    0.0020567     0.9947974   -0.0801758     0.9944513   -0.0808066     0.0050234    0.0019791 
   0.001748500     0.0042816    0.0018790     0.9935022   -0.0928753     0.9930193   -0.0936949     0.0051651    0.0016978 
   0.001998000     0.0045775    0.0016045     0.9920436   -0.1055509     0.9915048   -0.1064091     0.0053168    0.0014246 
   0.002247500     0.0049079    0.0010581     0.9899928   -0.1179583     0.9894013   -0.1188208     0.0055480    0.0008798 
   0.002497000     0.0051874    0.0007374     0.9882294   -0.1305707     0.9875761   -0.1314279     0.0057087    0.0006112 
   0.002746500     0.0054284    0.0003835     0.9863404   -0.1430935     0.9855663   -0.1440568     0.0058618    0.0003215 
   0.002996000     0.0056477    0.0000029     0.9842730   -0.1557227     0.9834172   -0.1565314     0.0060171    0.0000221 
   0.003245500     0.0058065   -0.0003649     0.9819371   -0.1682823     0.9811006   -0.1689533     0.0061373   -0.0002967 
   0.003495000     0.0059633   -0.0007444     0.9796090   -0.1807157     0.9786845   -0.1815014     0.0062668   -0.0006063 
   0.003744500     0.0061306   -0.0011456     0.9769693   -0.1931451     0.9760801   -0.1938529     0.0064321   -0.0009578 
   0.003994000     0.0062187   -0.0015375     0.9741983   -0.2054890     0.9734647   -0.2062717     0.0065087   -0.0012922 
   0.004243500     0.0062972   -0.0019750     0.9714121   -0.2179226     0.9699665   -0.2177104     0.0066213   -0.0017438 
   0.004493000     0.0063478   -0.0023747     0.9683729   -0.2302236     0.9668642   -0.2299832     0.0066643   -0.0020471 
   0.004742500     0.0063736   -0.0027587     0.9649607   -0.2422248     0.9636492   -0.2421124     0.0067066   -0.0023771 
   0.004992000     0.0064168   -0.0031253     0.9616328   -0.2543353     0.9602597   -0.2542892     0.0067413   -0.0027135 
   0.005241500     0.0064200   -0.0034865     0.9581028   -0.2664253     0.9568089   -0.2664002     0.0067804   -0.0030364 
   0.005491000     0.0063894   -0.0038325     0.9545228   -0.2784254     0.9532882   -0.2784199     0.0067858   -0.0033526 
   0.005740500     0.0063697   -0.0041936     0.9506688   -0.2905909     0.9494949   -0.2904901     0.0067802   -0.0036859 
   0.005990000     0.0063282   -0.0045518     0.9466354   -0.3025891     0.9455775   -0.3025817     0.0067631   -0.0039981 
   0.006239500     0.0062692   -0.0049028     0.9425364   -0.3145100     0.9414671   -0.3146206     0.0067500   -0.0043029 
   0.006489000     0.0062140   -0.0052492     0.9383048   -0.3264174     0.9372527   -0.3264417     0.0066680   -0.0046443 
   0.006738500     0.0061319   -0.0056000     0.9339548   -0.3383391     0.9328434   -0.3383320     0.0066401   -0.0049716 
   0.006988000     0.0060362   -0.0059367     0.9294051   -0.3500625     0.9283732   -0.3500368     0.0065656   -0.0053067 
   0.007237500     0.0059521   -0.0062940     0.9248226   -0.3618781     0.9236643   -0.3617949     0.0065084   -0.0056279 
   0.007487000     0.0058351   -0.0066222     0.9200462   -0.3735613     0.9188549   -0.3734140     0.0064169   -0.0059570 
   0.007736500     0.0057201   -0.0069742     0.9149780   -0.3854071     0.9137880   -0.3851947     0.0063225   -0.0062609 
   0.007986000     0.0055948   -0.0072948     0.9097798   -0.3970153     0.9087541   -0.3967859     0.0061914   -0.0065734 
   0.008235500     0.0054604   -0.0076294     0.9044951   -0.4086825     0.9035549   -0.4082197     0.0060835   -0.0068893 
   0.008485000     0.0053007   -0.0079496     0.8992361   -0.4200404     0.8982658   -0.4196458     0.0059644   -0.0071931 
   0.008734500     0.0051396   -0.0082566     0.8937553   -0.4313887     0.8927509   -0.4310967     0.0058577   -0.0074874 
   0.008984000     0.0049820   -0.0085595     0.8880481   -0.4427942     0.8871478   -0.4424376     0.0056914   -0.0077666 
   0.009233500     0.0048225   -0.0088868     0.8824679   -0.4540872     0.8813535   -0.4536012     0.0055441   -0.0080597 
   0.009483000     0.0046406   -0.0092096     0.8763686   -0.4652833     0.8752919   -0.4648249     0.0054060   -0.0083431 
   0.009732500     0.0044442   -0.0095009     0.8702161   -0.4763573     0.8692202   -0.4759227     0.0052451   -0.0086318 
   0.009982000     0.0042483   -0.0097781     0.8641104   -0.4872482     0.8630477   -0.4867810     0.0050518   -0.0089039 
   0.010231500     0.0040427   -0.0100658     0.8577867   -0.4981999     0.8567618   -0.4976500     0.0048539   -0.0091732 
   0.010481000     0.0037852   -0.0103561     0.8513114   -0.5090680     0.8503093   -0.5084410     0.0046598   -0.0094409 
   0.010730500     0.0035598   -0.0106101     0.8447488   -0.5198628     0.8437889   -0.5192722     0.0044320   -0.0096834 
   0.010980000     0.0033116   -0.0108822     0.8380133   -0.5305478     0.8369762   -0.5299551     0.0042168   -0.0099208 
   0.011229500     0.0030535   -0.0111548     0.8309965   -0.5410643     0.8299985   -0.5405021     0.0039812   -0.0101731 
   0.011479000     0.0028075   -0.0114210     0.8240107   -0.5514940     0.8229562   -0.5508838     0.0037532   -0.0104140 
   0.011728500     0.0025396   -0.0116859     0.8169982   -0.5618302     0.8158641   -0.5612435     0.0035204   -0.0106684 
   0.011978000     0.0022800   -0.0119444     0.8096504   -0.5720286     0.8085694   -0.5714605     0.0032779   -0.0109052 
   0.012227500     0.0019922   -0.0121805     0.8021712   -0.5822577     0.8012140   -0.5816900     0.0030344   -0.0111385 
   0.012477000     0.0016797   -0.0124033     0.7946403   -0.5924490     0.7936946   -0.5917585     0.0027639   -0.0113369 
   0.012726500     0.0013741   -0.0126242     0.7870043   -0.6024480     0.7859901   -0.6018299     0.0024838   -0.0115454 
   0.012976000     0.0010696   -0.0128522     0.7791514   -0.6122391     0.7781062   -0.6116634     0.0022023   -0.0117476 
   0.013225500     0.0007467   -0.0130394     0.7713881   -0.6218293     0.7702408   -0.6213481     0.0018897   -0.0119452 
   0.013475000     0.0004269   -0.0132183     0.7634512   -0.6315253     0.7625054   -0.6308265     0.0015997   -0.0121514 
   0.013724500     0.0000958   -0.0134098     0.7553186   -0.6411099     0.7543040   -0.6403261     0.0012862   -0.0123231 
   0.013974000    -0.0002002   -0.0135915     0.7469844   -0.6505815     0.7459860   -0.6498436     0.0009932   -0.0124869 
   0.014223500    -0.0005311   -0.0137629     0.7384671   -0.6600760     0.7375144   -0.6593668     0.0007254   -0.0126366 
   0.014473000    -0.0008665   -0.0139740     0.7300158   -0.6693563     0.7289822   -0.6686310     0.0004127   -0.0128358 
   0.014722500    -0.0012039   -0.0141307     0.7212779   -0.6785206     0.7203633   -0.6778307     0.0000974   -0.0130156 
   0.014972000    -0.0015599   -0.0142781     0.7125751   -0.6875659     0.7116655   -0.6868975    -0.0001710   -0.0131416 
   0.015221500    -0.0019044   -0.0144256     0.7037359   -0.6965278     0.7027347   -0.6957670    -0.0005016   -0.0133015 
   0.015471000    -0.0022323   -0.0145666     0.6947874   -0.7052758     0.6937853   -0.7046301    -0.0008396   -0.0134302 
   0.015720500    -0.0025881   -0.0147101     0.6857122   -0.7139832     0.6847944   -0.7133020    -0.0011682   -0.0135476 
   0.015970000    -0.0029630   -0.0148281     0.6765433   -0.7225594     0.6756173   -0.7218161    -0.0014892   -0.0136854 
   0.016219500    -0.0033044   -0.0149503     0.6673094   -0.7310615     0.6663212   -0.7302747    -0.0018269   -0.0137932 
   0.016469000    -0.0036644   -0.0150581     0.6578965   -0.7393921     0.6570788   -0.7385280    -0.0021427   -0.0139127 
   0.016718500    -0.0040276   -0.0151517     0.6485168   -0.7476896     0.6477066   -0.7467282    -0.0024458   -0.0140229 
   0.016968000    -0.0043879   -0.0152398     0.6389367   -0.7557985     0.6380975   -0.7548919    -0.0027442   -0.0141258 
   0.017217500    -0.0047391   -0.0153503     0.6291510   -0.7637582     0.6283477   -0.7628775    -0.0030950   -0.0142147 
   0.017467000    -0.0051039   -0.0154326     0.6193236   -0.7715917     0.6183523   -0.7707873    -0.0034128   -0.0143014 
   0.017716500    -0.0054551   -0.0155050     0.6093115   -0.7792602     0.6084232   -0.7784346    -0.0037550   -0.0143747 
   0.017966000    -0.0058239   -0.0155524     0.5994022   -0.7867028     0.5984613   -0.7860085    -0.0040841   -0.0144003 
   0.018215500    -0.0061908   -0.0156185     0.5894072   -0.7942211     0.5883688   -0.7933618    -0.0044006   -0.0144742 
   0.018465000    -0.0065715   -0.0156271     0.5793171   -0.8014955     0.5784054   -0.8006523    -0.0047482   -0.0145123 
   0.018714500    -0.0068946   -0.0156690     0.5688990   -0.8087367     0.5681766   -0.8078870    -0.0050932   -0.0145462 
   0.018964000    -0.0072424   -0.0157015     0.5586142   -0.8158548     0.5577968   -0.8150623    -0.0054123   -0.0145705 
   0.019213500    -0.0076262   -0.0156998     0.5480969   -0.8228281     0.5473428   -0.8218996    -0.0057317   -0.0145789 
   0.019463000    -0.0079859   -0.0157024     0.5374842   -0.8295988     0.5367807   -0.8287592    -0.0060669   -0.0146078 
   0.019712500    -0.0083135   -0.0156903     0.5270129   -0.8364000     0.5262118   -0.8353141    -0.0063849   -0.0145970 
   0.019962000    -0.0086482   -0.0156645     0.5163307   -0.8429358     0.5157256   -0.8419891    -0.0067134   -0.0145994 
   0.020211500    -0.0090216   -0.0156615     0.5053980   -0.8493748     0.5048789   -0.8483582    -0.0070611   -0.0145826 
   0.020461000    -0.0093751   -0.0156324     0.4943936   -0.8557521     0.4939456   -0.8545700    -0.0073848   -0.0145798 
   0.020710500    -0.0096974   -0.0156152     0.4833341   -0.8619441     0.4829918   -0.8607647    -0.0077123   -0.0145635 
   0.020960000    -0.0100648   -0.0155720     0.4723999   -0.8679689     0.4718821   -0.8667585    -0.0080189   -0.0145030 
   0.021209500    -0.0103921   -0.0154977     0.4613867   -0.8739195     0.4608568   -0.8726511    -0.0083273   -0.0144833 
   0.021459000    -0.0107134   -0.0154404     0.4501700   -0.8796875     0.4498024   -0.8784212    -0.0086601   -0.0144334 
   0.021708500    -0.0110403   -0.0153622     0.4390150   -0.8851898     0.4385144   -0.8839630    -0.0089932   -0.0143544 
   0.021958000    -0.0113867   -0.0152970     0.4277014   -0.8907168     0.4272924   -0.8894593    -0.0092788   -0.0142921 
   0.022207500    -0.0117431   -0.0152157     0.4163529   -0.8959011     0.4158607   -0.8947849    -0.0095985   -0.0142241 
   0.022457000    -0.0120873   -0.0151273     0.4049191   -0.9010882     0.4043101   -0.9000691    -0.0099252   -0.0141337 
   0.022706500    -0.0124383   -0.0150282     0.3933830   -0.9061466     0.3928285   -0.9050925    -0.0102324   -0.0140631 
   0.022956000    -0.0127567   -0.0149451     0.3818553   -0.9109943     0.3813187   -0.9100527    -0.0105171   -0.0139446 
   0.023205500    -0.0130747   -0.0148135     0.3702842   -0.9157389     0.3696927   -0.9146782    -0.0107742   -0.0138648 
   0.023455000    -0.0133722   -0.0146787     0.3586768   -0.9202701     0.3581179   -0.9192158    -0.0110783   -0.0137197 
   0.023704500    -0.0136695   -0.0145816     0.3470248   -0.9246390     0.3464445   -0.9237285    -0.0113619   -0.0136218 
   0.023954000    -0.0139823   -0.0144290     0.3353578   -0.9288557     0.3347081   -0.9279082    -0.0116510   -0.0134783 
   0.024203500    -0.0142945   -0.0142837     0.3235116   -0.9329665     0.3229463   -0.9318998    -0.0119224   -0.0133526 
   0.024453000    -0.0145880   -0.0141492     0.3117070   -0.9368568     0.3111478   -0.9358621    -0.0122016   -0.0132143 
   0.024702500    -0.0148802   -0.0140006     0.2999652   -0.9406459     0.2992038   -0.9396016    -0.0125006   -0.0130710 
   0.024952000    -0.0151718   -0.0138133     0.2878769   -0.9442864     0.2874178   -0.9432511    -0.0128011   -0.0129270 
   0.025201500    -0.0153568   -0.0136289     0.2762484   -0.9481256     0.2755851   -0.9471076    -0.0130081   -0.0127288 
   0.025451000    -0.0157296   -0.0134734     0.2637601   -0.9510494     0.2633297   -0.9499644    -0.0133077   -0.0126186 
   0.025700500    -0.0160104   -0.0133063     0.2517344   -0.9543067     0.2512178   -0.9531827    -0.0135796   -0.0124386 
   0.025950000    -0.0162869   -0.0131177     0.2396356   -0.9573098     0.2391042   -0.9562161    -0.0138171   -0.0122870 
   0.026199500    -0.0165431   -0.0129216     0.2274470   -0.9601727     0.2270395   -0.9591206    -0.0140587   -0.0121202 
   0.026449000    -0.0167833   -0.0127403     0.2153302   -0.9628459     0.2148479   -0.9617923    -0.0142967   -0.0119501 
   0.026698500    -0.0170245   -0.0125517     0.2030024   -0.9654921     0.2027079   -0.9643508    -0.0145370   -0.0117435 
   0.026948000    -0.0172981   -0.0123508     0.1906006   -0.9678388     0.1903577   -0.9667179    -0.0147731   -0.0115318 
   0.027197500    -0.0175353   -0.0121325     0.1782141   -0.9700752     0.1779739   -0.9689398    -0.0150205   -0.0113464 
   0.027447000    -0.0177891   -0.0119550     0.1659477   -0.9723120     0.1656473   -0.9710729    -0.0152328   -0.0111446 
   0.027696500    -0.0180015   -0.0117418     0.1535848   -0.9742128     0.1533603   -0.9730853    -0.0154341   -0.0109449 
   0.027946000    -0.0182407   -0.0115115     0.1412425   -0.9760588     0.1410352   -0.9748726    -0.0156669   -0.0107566 
   0.028195500    -0.0184493   -0.0112625     0.1287349   -0.9776996     0.1287858   -0.9764858    -0.0158702   -0.0105720 
   0.028445000    -0.0186547   -0.0110335     0.1163505   -0.9792501     0.1162555   -0.9780005    -0.0160727   -0.0103296 
   0.028694500    -0.0188523   -0.0108024     0.1038237   -0.9805762     0.1038729   -0.9792451    -0.0162520   -0.0101144 
   0.028944000    -0.0190628   -0.0105814     0.0915026   -0.9816385     0.0913329   -0.9803408    -0.0164708   -0.0098929 
   0.029193500    -0.0192234   -0.0103211     0.0790555   -0.9826957     0.0788854   -0.9814421    -0.0166174   -0.0096629 
   0.029443000    -0.0194158   -0.0100570     0.0666142   -0.9836149     0.0665249   -0.9822381    -0.0167635   -0.0094433 
   0.029692500    -0.0195837   -0.0098169     0.0541465   -0.9843073     0.0540893   -0.9830666    -0.0169417   -0.0091928 
   0.029942000    -0.0197545   -0.0095824     0.0415731   -0.9848784     0.0416168   -0.9836653    -0.0171145   -0.0089514 
   0.030191500    -0.0199163   -0.0093116     0.0290999   -0.9852043     0.0290263   -0.9840968    -0.0172500   -0.0087256 
   0.030441000    -0.0200551   -0.0090546     0.0166268   -0.9854625     0.0165404   -0.9842726    -0.0174274   -0.0084590 
   0.030690500    -0.0201978   -0.0087772     0.0042352   -0.9855039     0.0040274   -0.9842953    -0.0175372   -0.0082099 
   0.030940000    -0.0203415   -0.0085345    -0.0082398   -0.9854234    -0.0083589   -0.9841959    -0.0176351   -0.0079404 
   0.031189500    -0.0204568   -0.0082605    -0.0207304   -0.9851338    -0.0207926   -0.9840152    -0.0177549   -0.0076718 
   0.031439000    -0.0205548   -0.0079810    -0.0331285   -0.9847407    -0.0332951   -0.9835507    -0.0178659   -0.0074091 
   0.031688500    -0.0206860   -0.0077077    -0.0456201   -0.9840952    -0.0456721   -0.9829511    -0.0179643   -0.0071582 
   0.031938000    -0.0207733   -0.0074406    -0.0580264   -0.9834069    -0.0582056   -0.9823059    -0.0180645   -0.0069138 
   0.032187500    -0.0208752   -0.0071756    -0.0704688   -0.9826108    -0.0706136   -0.9813210    -0.0181401   -0.0066640 
   0.032437000    -0.0209356   -0.0068817    -0.0828094   -0.9815664    -0.0829866   -0.9803211    -0.0182074   -0.0063706 
   0.032686500    -0.0211296   -0.0066759    -0.0952630   -0.9803904    -0.0944918   -0.9790870    -0.0183947   -0.0062112 
   0.032936000    -0.0211137   -0.0063486    -0.1076924   -0.9790925    -0.1075592   -0.9778538    -0.0183493   -0.0058323 
   0.033185500    -0.0212772   -0.0061119    -0.1203339   -0.9773424    -0.1193322   -0.9762746    -0.0185102   -0.0056310 
   0.033435000    -0.0212273   -0.0057655    -0.1327442   -0.9757083    -0.1324022   -0.9745961    -0.0184429   -0.0052458 
   0.033684500    -0.0213064   -0.0054980    -0.1450921   -0.9739491    -0.1448820   -0.9727665    -0.0184736   -0.0049774 
   0.033934000    -0.0213567   -0.0051902    -0.1573519   -0.9719922    -0.1571938   -0.9707193    -0.0184999   -0.0047083 
   0.034183500    -0.0213728   -0.0049160    -0.1697341   -0.9699370    -0.1693999   -0.9686332    -0.0185526   -0.0044659 
   0.034433000    -0.0214341   -0.0046673    -0.1818977   -0.9676694    -0.1816851   -0.9664484    -0.0185875   -0.0041677 
   0.034682500    -0.0214513   -0.0043690    -0.1942149   -0.9652300    -0.1939736   -0.9640455    -0.0186161   -0.0039172 
   0.034932000    -0.0214629   -0.0040857    -0.2063194   -0.9626365    -0.2061030   -0.9614381    -0.0186294   -0.0036350 
   0.035181500    -0.0214847   -0.0038264    -0.2183641   -0.9598933    -0.2182641   -0.9585801    -0.0186114   -0.0033713 
   0.035431000    -0.0214560   -0.0035438    -0.2304313   -0.9570826    -0.2303024   -0.9557261    -0.0185922   -0.0031050 
   0.035680500    -0.0214866   -0.0032696    -0.2425882   -0.9540875    -0.2421416   -0.9527337    -0.0185711   -0.0028157 
   0.035930000    -0.0214413   -0.0029954    -0.2546244   -0.9509680    -0.2542387   -0.9495810    -0.0185459   -0.0025564 
   0.036179500    -0.0214251   -0.0027241    -0.2666979   -0.9476374    -0.2662563   -0.9462727    -0.0185043   -0.0022734 
   0.036429000    -0.0214151   -0.0024517    -0.2785918   -0.9440550    -0.2780848   -0.9428055    -0.0184822   -0.0019996 
   0.036678500    -0.0213572   -0.0021546    -0.2905796   -0.9402379    -0.2902060   -0.9390919    -0.0184560   -0.0017134 
   0.036928000    -0.0213244   -0.0019348    -0.3023718   -0.9364179    -0.3021058   -0.9352361    -0.0184169   -0.0014585 
   0.037177500    -0.0212576   -0.0016431    -0.3140498   -0.9325896    -0.3138250   -0.9311742    -0.0183336   -0.0011966 
   0.037427000    -0.0211917   -0.0013659    -0.3257191   -0.9284690    -0.3255005   -0.9271330    -0.0182584   -0.0009189 
   0.037676500    -0.0211358   -0.0011164    -0.3374324   -0.9242296    -0.3372063   -0.9229150    -0.0181830   -0.0006801 
   0.037926000    -0.0210798   -0.0008721    -0.3490727   -0.9198698    -0.3486629   -0.9185432    -0.0181279   -0.0004304 
   0.038175500    -0.0209957   -0.0006042    -0.3607937   -0.9152703    -0.3601856   -0.9139894    -0.0180518   -0.0001680 
   0.038425000    -0.0209299   -0.0003458    -0.3722129   -0.9104475    -0.3718516   -0.9093136    -0.0179638    0.0000694 
   0.038674500    -0.0208077   -0.0000939    -0.3836334   -0.9055696    -0.3832272   -0.9045197    -0.0178628    0.0003375 
   0.038924000    -0.0207312    0.0001401    -0.3950107   -0.9006284    -0.3945907   -0.8995342    -0.0177689    0.0005927 
   0.039173500    -0.0206158    0.0003748    -0.4063819   -0.8954378    -0.4058337   -0.8944838    -0.0176781    0.0007946 
   0.039423000    -0.0204973    0.0006262    -0.4177462   -0.8900135    -0.4170693   -0.8891242    -0.0175431    0.0010344 
   0.039672500    -0.0205147    0.0008021    -0.4289863   -0.8846506    -0.4275439   -0.8838457    -0.0174703    0.0012367 
   0.039922000    -0.0202511    0.0011540    -0.4403274   -0.8796580    -0.4396817   -0.8785340    -0.0173446    0.0015322 
