! MS46122B
! 1746301/73750021
! 11/3/2023 2:24:03 PM
! C:\USERS\SPEGWAL\DOWNLOADS\SAURABH\REACH\NODES\FRONT END\MEASUREMENTS\MEASURED S-PARAMETERS_03-11-2023\MS3-MS4_MS1_CABLE\69OHMS_SOURCE_S11.S2P
! CHANNEL.1
! TR.MEASUREMENT
! CORRECTED.DATA
# GHZ S RI R 50.0
! FREQ.GHZ         S11RE         S11IM         S21RE         S21IM         S12RE         S12IM         S22RE         S22IM         
!; PortSelection: Port_12
   0.001000000     0.1631247   -0.0226468     0.0000044    0.0000002     0.0000001    0.0000025     1.0028290   -0.0013102 
   0.001249500     0.1629667   -0.0276307     0.0000013   -0.0000003    -0.0000001    0.0000009     1.0018070   -0.0016230 
   0.001499000     0.1624832   -0.0324554     0.0000019    0.0000001    -0.0000016   -0.0000006     1.0018740   -0.0014746 
   0.001748500     0.1617471   -0.0371413     0.0000005   -0.0000001    -0.0000007   -0.0000016     1.0017550   -0.0014523 
   0.001998000     0.1608354   -0.0417339    -0.0000028   -0.0000004     0.0000001   -0.0000003     1.0017150   -0.0013749 
   0.002247500     0.1587348   -0.0446810     0.0000009   -0.0000010    -0.0000010   -0.0000001     1.0018790   -0.0016842 
   0.002497000     0.1574889   -0.0492158     0.0000002   -0.0000010    -0.0000001   -0.0000005     1.0018760   -0.0016263 
   0.002746500     0.1561568   -0.0536933    -0.0000004    0.0000017     0.0000003    0.0000001     1.0018100   -0.0015674 
   0.002996000     0.1545842   -0.0581139     0.0000014   -0.0000006    -0.0000001   -0.0000002     1.0018360   -0.0016540 
   0.003245500     0.1529077   -0.0624911     0.0000003    0.0000000     0.0000008   -0.0000004     1.0017500   -0.0015207 
   0.003495000     0.1511385   -0.0667713     0.0000018   -0.0000012    -0.0000008   -0.0000015     1.0016560   -0.0015290 
   0.003744500     0.1491953   -0.0710482    -0.0000010   -0.0000002     0.0000003    0.0000005     1.0017210   -0.0015537 
   0.003994000     0.1471156   -0.0752705     0.0000007   -0.0000002     0.0000004    0.0000008     1.0016090   -0.0015482 
   0.004243500     0.1449017   -0.0794404    -0.0000010    0.0000000     0.0000003    0.0000005     1.0017700   -0.0018524 
   0.004493000     0.1426017   -0.0835696     0.0000000    0.0000004    -0.0000003   -0.0000009     1.0017040   -0.0018580 
   0.004742500     0.1401560   -0.0876207    -0.0000002   -0.0000010    -0.0000012    0.0000000     1.0017180   -0.0018145 
   0.004992000     0.1376224   -0.0915785     0.0000008   -0.0000014     0.0000004   -0.0000016     1.0016260   -0.0017536 
   0.005241500     0.1349685   -0.0954546    -0.0000004   -0.0000008    -0.0000004    0.0000011     1.0015380   -0.0016866 
   0.005491000     0.1321967   -0.0992695    -0.0000001    0.0000009    -0.0000010    0.0000000     1.0014780   -0.0016774 
   0.005740500     0.1293139   -0.1030122     0.0000000   -0.0000005    -0.0000001    0.0000002     1.0014750   -0.0016445 
   0.005990000     0.1263252   -0.1066856     0.0000005    0.0000011    -0.0000002    0.0000006     1.0013300   -0.0016090 
   0.006239500     0.1232278   -0.1102808     0.0000001   -0.0000003     0.0000008    0.0000005     1.0011490   -0.0015665 
   0.006489000     0.1200524   -0.1137475     0.0000004   -0.0000007     0.0000001    0.0000001     1.0009890   -0.0014928 
   0.006738500     0.1167956   -0.1171048     0.0000000    0.0000002     0.0000003    0.0000008     1.0008410   -0.0013920 
   0.006988000     0.1134404   -0.1203910     0.0000000   -0.0000006     0.0000000    0.0000001     1.0007380   -0.0013962 
   0.007237500     0.1099693   -0.1235916    -0.0000004   -0.0000010    -0.0000005   -0.0000007     1.0006520   -0.0013211 
   0.007487000     0.1064153   -0.1267162     0.0000002   -0.0000011     0.0000005    0.0000003     1.0005330   -0.0013192 
   0.007736500     0.1027986   -0.1297510     0.0000007   -0.0000005    -0.0000004    0.0000007     1.0005470   -0.0013571 
   0.007986000     0.0991233   -0.1327197    -0.0000019   -0.0000004    -0.0000002    0.0000007     1.0005790   -0.0012997 
   0.008235500     0.0953321   -0.1355649     0.0000003   -0.0000001     0.0000001    0.0000008     1.0005850   -0.0013321 
   0.008485000     0.0914718   -0.1383129     0.0000000   -0.0000010    -0.0000002    0.0000001     1.0006010   -0.0013547 
   0.008734500     0.0875391   -0.1409758    -0.0000002   -0.0000003    -0.0000003    0.0000005     1.0005630   -0.0014043 
   0.008984000     0.0835363   -0.1435096     0.0000005   -0.0000001     0.0000001   -0.0000010     1.0005360   -0.0013709 
   0.009233500     0.0795199   -0.1458128    -0.0000008   -0.0000006     0.0000000   -0.0000013     1.0005290   -0.0014552 
   0.009483000     0.0753697   -0.1481589    -0.0000006    0.0000009     0.0000009    0.0000001     1.0005930   -0.0014345 
   0.009732500     0.0711728   -0.1503508     0.0000000    0.0000010     0.0000015   -0.0000003     1.0005660   -0.0014307 
   0.009982000     0.0669320   -0.1524264     0.0000006    0.0000014    -0.0000015    0.0000002     1.0005210   -0.0014415 
   0.010231500     0.0625797   -0.1543854     0.0000003   -0.0000009     0.0000003    0.0000001     1.0005020   -0.0013871 
   0.010481000     0.0581984   -0.1562307    -0.0000007    0.0000003     0.0000005    0.0000007     1.0005230   -0.0014504 
   0.010730500     0.0537143   -0.1579757     0.0000012    0.0000017    -0.0000011    0.0000010     1.0005640   -0.0014266 
   0.010980000     0.0492247   -0.1595866     0.0000000    0.0000011     0.0000002   -0.0000009     1.0004820   -0.0014419 
   0.011229500     0.0447147   -0.1610951    -0.0000002    0.0000007    -0.0000008    0.0000002     1.0004650   -0.0014227 
   0.011479000     0.0401623   -0.1624238    -0.0000003    0.0000000    -0.0000011    0.0000001     1.0004500   -0.0014447 
   0.011728500     0.0355816   -0.1636036     0.0000001    0.0000012     0.0000007   -0.0000006     1.0004450   -0.0015004 
   0.011978000     0.0309507   -0.1646661     0.0000005   -0.0000002    -0.0000016   -0.0000003     1.0004030   -0.0014942 
   0.012227500     0.0262696   -0.1655914     0.0000007    0.0000005    -0.0000001    0.0000005     1.0004270   -0.0014442 
   0.012477000     0.0215832   -0.1664005    -0.0000010   -0.0000003     0.0000007   -0.0000003     1.0004570   -0.0014465 
   0.012726500     0.0168754   -0.1670590     0.0000006    0.0000006    -0.0000008   -0.0000001     1.0004790   -0.0014984 
   0.012976000     0.0121574   -0.1675852     0.0000006    0.0000000     0.0000005   -0.0000002     1.0004320   -0.0014535 
   0.013225500     0.0074473   -0.1679801    -0.0000003    0.0000004     0.0000011    0.0000000     1.0004660   -0.0015082 
   0.013475000     0.0027378   -0.1682373    -0.0000006   -0.0000002     0.0000001    0.0000005     1.0004700   -0.0014544 
   0.013724500    -0.0020123   -0.1683483     0.0000004   -0.0000012     0.0000011    0.0000004     1.0004410   -0.0014948 
   0.013974000    -0.0067776   -0.1683754     0.0000008    0.0000004    -0.0000008   -0.0000001     1.0004100   -0.0015327 
   0.014223500    -0.0115343   -0.1682887    -0.0000005    0.0000010     0.0000009    0.0000012     1.0003010   -0.0016595 
   0.014473000    -0.0163042   -0.1680145    -0.0000004    0.0000006     0.0000000    0.0000001     1.0003910   -0.0015420 
   0.014722500    -0.0210546   -0.1675930     0.0000002    0.0000008     0.0000008   -0.0000001     1.0004460   -0.0014869 
   0.014972000    -0.0257523   -0.1670357     0.0000006   -0.0000002    -0.0000005   -0.0000001     1.0003340   -0.0016145 
   0.015221500    -0.0304179   -0.1663698     0.0000006   -0.0000010     0.0000006    0.0000005     1.0003710   -0.0015957 
   0.015471000    -0.0350712   -0.1655392     0.0000008   -0.0000006    -0.0000002    0.0000006     1.0003870   -0.0015818 
   0.015720500    -0.0396928   -0.1645869     0.0000005    0.0000008     0.0000004   -0.0000001     1.0003080   -0.0016849 
   0.015970000    -0.0442986   -0.1635220    -0.0000012   -0.0000003     0.0000002   -0.0000010     1.0003350   -0.0015735 
   0.016219500    -0.0488670   -0.1623027     0.0000012    0.0000007    -0.0000004    0.0000002     1.0003650   -0.0016925 
   0.016469000    -0.0534025   -0.1609544     0.0000003    0.0000005    -0.0000010   -0.0000005     1.0003250   -0.0016720 
   0.016718500    -0.0579173   -0.1595202     0.0000003   -0.0000011    -0.0000008   -0.0000007     1.0003230   -0.0016026 
   0.016968000    -0.0624039   -0.1579429    -0.0000006    0.0000005     0.0000004    0.0000002     1.0003330   -0.0015607 
   0.017217500    -0.0668486   -0.1561930    -0.0000002    0.0000001    -0.0000008    0.0000009     1.0002550   -0.0016120 
   0.017467000    -0.0712262   -0.1543294    -0.0000010   -0.0000006    -0.0000007    0.0000002     1.0002920   -0.0016471 
   0.017716500    -0.0755345   -0.1523792    -0.0000003    0.0000015     0.0000006   -0.0000005     1.0002260   -0.0016894 
   0.017966000    -0.0797432   -0.1503188     0.0000004   -0.0000003     0.0000002   -0.0000003     1.0002680   -0.0016179 
   0.018215500    -0.0839145   -0.1481084     0.0000000    0.0000001    -0.0000001    0.0000004     1.0002240   -0.0016860 
   0.018465000    -0.0879950   -0.1457849    -0.0000007   -0.0000003     0.0000009   -0.0000001     1.0002520   -0.0017158 
   0.018714500    -0.0920231   -0.1433491    -0.0000001    0.0000005     0.0000004    0.0000003     1.0001700   -0.0016973 
   0.018964000    -0.0959766   -0.1407918     0.0000003   -0.0000002     0.0000003    0.0000005     1.0002710   -0.0016821 
   0.019213500    -0.0998645   -0.1381592     0.0000004    0.0000001     0.0000000    0.0000002     1.0001940   -0.0017031 
   0.019463000    -0.1036565   -0.1353908     0.0000001    0.0000012     0.0000000    0.0000002     1.0000990   -0.0017079 
   0.019712500    -0.1073716   -0.1325251    -0.0000004   -0.0000007     0.0000004    0.0000004     1.0001860   -0.0018019 
   0.019962000    -0.1110305   -0.1295216     0.0000009    0.0000007    -0.0000001   -0.0000001     1.0001470   -0.0017645 
   0.020211500    -0.1146169   -0.1264628    -0.0000004   -0.0000008     0.0000000   -0.0000006     1.0001970   -0.0017979 
   0.020461000    -0.1181050   -0.1232832     0.0000005   -0.0000013    -0.0000011    0.0000005     1.0000830   -0.0018522 
   0.020710500    -0.1214980   -0.1200240    -0.0000010    0.0000007    -0.0000014   -0.0000003     1.0000130   -0.0018343 
   0.020960000    -0.1248251   -0.1166223     0.0000004    0.0000000     0.0000002    0.0000011     1.0000230   -0.0019166 
   0.021209500    -0.1280147   -0.1131740    -0.0000006    0.0000009     0.0000004    0.0000001     1.0001470   -0.0018484 
   0.021459000    -0.1311197   -0.1096106    -0.0000005    0.0000011    -0.0000005    0.0000003     1.0000960   -0.0018137 
   0.021708500    -0.1340957   -0.1059895    -0.0000017    0.0000009     0.0000001    0.0000013     1.0001170   -0.0018718 
   0.021958000    -0.1369812   -0.1022477    -0.0000001   -0.0000007    -0.0000003    0.0000002     1.0001130   -0.0019067 
   0.022207500    -0.1397636   -0.0984712    -0.0000012   -0.0000006    -0.0000004    0.0000007     1.0000530   -0.0018827 
   0.022457000    -0.1425173   -0.0945213     0.0000012   -0.0000006    -0.0000005    0.0000001     1.0000590   -0.0019185 
   0.022706500    -0.1450751   -0.0905864     0.0000011    0.0000001    -0.0000001    0.0000010     0.9999932   -0.0018930 
   0.022956000    -0.1474884   -0.0865995     0.0000007   -0.0000001    -0.0000005    0.0000009     1.0000640   -0.0018811 
   0.023205500    -0.1497908   -0.0825443    -0.0000017    0.0000001     0.0000005    0.0000009     0.9999640   -0.0019163 
   0.023455000    -0.1519782   -0.0784400     0.0000003    0.0000001    -0.0000004   -0.0000006     0.9999731   -0.0019823 
   0.023704500    -0.1540574   -0.0742630    -0.0000004    0.0000010    -0.0000001    0.0000005     1.0000400   -0.0019578 
   0.023954000    -0.1559933   -0.0699988     0.0000003   -0.0000007    -0.0000001    0.0000003     0.9999291   -0.0019364 
   0.024203500    -0.1578272   -0.0656625     0.0000006   -0.0000010     0.0000000   -0.0000006     0.9999299   -0.0019478 
   0.024453000    -0.1595317   -0.0612932    -0.0000012   -0.0000003     0.0000001   -0.0000002     0.9999063   -0.0019107 
   0.024702500    -0.1611492   -0.0568907     0.0000009   -0.0000001     0.0000007    0.0000001     0.9999499   -0.0020167 
   0.024952000    -0.1626180   -0.0524497    -0.0000003    0.0000009     0.0000000    0.0000002     0.9999294   -0.0019632 
   0.025201500    -0.1638018   -0.0481471     0.0000002   -0.0000003    -0.0000002   -0.0000004     1.0003310   -0.0016519 
   0.025451000    -0.1651632   -0.0434726    -0.0000004    0.0000004    -0.0000006   -0.0000001     0.9999592   -0.0020161 
   0.025700500    -0.1662251   -0.0389318    -0.0000003    0.0000001    -0.0000005    0.0000009     0.9999006   -0.0019915 
   0.025950000    -0.1672290   -0.0343404    -0.0000003    0.0000006    -0.0000004    0.0000004     0.9999430   -0.0019776 
   0.026199500    -0.1680827   -0.0297785    -0.0000008    0.0000001     0.0000001   -0.0000003     0.9998640   -0.0020231 
   0.026449000    -0.1687949   -0.0251233     0.0000014    0.0000005    -0.0000011    0.0000012     0.9998761   -0.0020242 
   0.026698500    -0.1693708   -0.0204862     0.0000005   -0.0000005    -0.0000005    0.0000006     1.0000180   -0.0020243 
   0.026948000    -0.1698047   -0.0158544    -0.0000013   -0.0000001    -0.0000003   -0.0000006     0.9998593   -0.0020210 
   0.027197500    -0.1701340   -0.0112185    -0.0000005   -0.0000005    -0.0000009    0.0000003     0.9998293   -0.0020330 
   0.027447000    -0.1702741   -0.0065757     0.0000005    0.0000006     0.0000003    0.0000005     0.9997771   -0.0020644 
   0.027696500    -0.1703007   -0.0019179     0.0000008   -0.0000001     0.0000007   -0.0000002     0.9998205   -0.0020835 
   0.027946000    -0.1702018    0.0027545     0.0000010   -0.0000008     0.0000008   -0.0000005     0.9998108   -0.0021252 
   0.028195500    -0.1699539    0.0074255    -0.0000007   -0.0000002    -0.0000015   -0.0000007     0.9998237   -0.0021409 
   0.028445000    -0.1695823    0.0120662     0.0000003   -0.0000008     0.0000004   -0.0000005     0.9997815   -0.0021177 
   0.028694500    -0.1690944    0.0167202     0.0000002   -0.0000010     0.0000004   -0.0000006     0.9997727   -0.0020962 
   0.028944000    -0.1684562    0.0213756     0.0000001   -0.0000005    -0.0000001    0.0000004     0.9997136   -0.0021974 
   0.029193500    -0.1676946    0.0260091     0.0000011    0.0000016     0.0000001    0.0000014     0.9997121   -0.0021326 
   0.029443000    -0.1667891    0.0306522     0.0000001    0.0000005     0.0000002    0.0000015     0.9997228   -0.0021038 
   0.029692500    -0.1657867    0.0352204    -0.0000004   -0.0000013     0.0000001    0.0000003     0.9996178   -0.0021719 
   0.029942000    -0.1646275    0.0397487     0.0000000   -0.0000014     0.0000000   -0.0000004     0.9995974   -0.0022097 
   0.030191500    -0.1633641    0.0442360    -0.0000012   -0.0000001    -0.0000010    0.0000001     0.9996683   -0.0021707 
   0.030441000    -0.1619900    0.0487199     0.0000003    0.0000002     0.0000005    0.0000001     0.9996788   -0.0020842 
   0.030690500    -0.1604631    0.0531134     0.0000011   -0.0000007     0.0000003   -0.0000003     0.9996685   -0.0022871 
   0.030940000    -0.1588188    0.0574645     0.0000000    0.0000006    -0.0000005    0.0000003     0.9996659   -0.0022206 
   0.031189500    -0.1570500    0.0617797     0.0000009   -0.0000001     0.0000007    0.0000004     0.9996806   -0.0022794 
   0.031439000    -0.1551716    0.0659984    -0.0000011   -0.0000004    -0.0000009    0.0000000     0.9996492   -0.0022175 
   0.031688500    -0.1531736    0.0701685     0.0000004    0.0000018    -0.0000006   -0.0000013     0.9996608   -0.0022458 
   0.031938000    -0.1511043    0.0742849     0.0000005   -0.0000004     0.0000005    0.0000008     0.9995554   -0.0023223 
   0.032187500    -0.1489500    0.0782815     0.0000009    0.0000001     0.0000005   -0.0000013     0.9996098   -0.0022787 
   0.032437000    -0.1465947    0.0822917     0.0000000   -0.0000005     0.0000001   -0.0000023     0.9995976   -0.0022325 
   0.032686500    -0.1440100    0.0859485    -0.0000005    0.0000003     0.0000005   -0.0000003     0.9994583   -0.0021104 
   0.032936000    -0.1415696    0.0900438     0.0000004   -0.0000003     0.0000008    0.0000009     0.9995471   -0.0023185 
   0.033185500    -0.1388215    0.0936010     0.0000005    0.0000000     0.0000005   -0.0000010     0.9994189   -0.0021435 
   0.033435000    -0.1360983    0.0975256    -0.0000005    0.0000006    -0.0000005    0.0000005     0.9995120   -0.0023555 
   0.033684500    -0.1331868    0.1011738    -0.0000001    0.0000003     0.0000001   -0.0000002     0.9995403   -0.0023240 
   0.033934000    -0.1301648    0.1047139    -0.0000003   -0.0000008    -0.0000007    0.0000001     0.9995695   -0.0023908 
   0.034183500    -0.1270526    0.1081648    -0.0000004    0.0000006     0.0000002    0.0000001     0.9995074   -0.0024296 
   0.034433000    -0.1238239    0.1115508    -0.0000005    0.0000003     0.0000001   -0.0000001     0.9994971   -0.0024450 
   0.034682500    -0.1205371    0.1148320    -0.0000008    0.0000009    -0.0000006   -0.0000004     0.9995363   -0.0024498 
   0.034932000    -0.1171271    0.1180474     0.0000012    0.0000002     0.0000010   -0.0000007     0.9995346   -0.0024085 
   0.035181500    -0.1136482    0.1211597     0.0000010   -0.0000002     0.0000006    0.0000004     0.9995038   -0.0024674 
   0.035431000    -0.1100925    0.1241687     0.0000011   -0.0000002    -0.0000002    0.0000010     0.9994426   -0.0024279 
   0.035680500    -0.1064610    0.1270597    -0.0000010    0.0000009    -0.0000006    0.0000010     0.9994826   -0.0024785 
   0.035930000    -0.1027532    0.1298633     0.0000021   -0.0000004    -0.0000002   -0.0000006     0.9994938   -0.0024505 
   0.036179500    -0.0989607    0.1325628    -0.0000010   -0.0000002    -0.0000008    0.0000012     0.9995187   -0.0024436 
   0.036429000    -0.0950748    0.1351488    -0.0000011    0.0000007     0.0000012    0.0000007     0.9994742   -0.0024864 
   0.036678500    -0.0911693    0.1376101    -0.0000022   -0.0000016    -0.0000004    0.0000012     0.9994900   -0.0024805 
   0.036928000    -0.0871641    0.1399568    -0.0000002    0.0000007     0.0000015    0.0000002     0.9995086   -0.0025219 
   0.037177500    -0.0830983    0.1421877     0.0000006    0.0000014    -0.0000010    0.0000003     0.9994987   -0.0025089 
   0.037427000    -0.0790191    0.1443239     0.0000002    0.0000006    -0.0000002   -0.0000006     0.9994815   -0.0025994 
   0.037676500    -0.0748417    0.1463491    -0.0000008    0.0000002     0.0000007    0.0000009     0.9994811   -0.0024864 
   0.037926000    -0.0706471    0.1482106     0.0000007   -0.0000001     0.0000008    0.0000016     0.9994641   -0.0025316 
   0.038175500    -0.0663687    0.1499617     0.0000003    0.0000016    -0.0000007   -0.0000006     0.9995002   -0.0025557 
   0.038425000    -0.0620214    0.1515902    -0.0000002    0.0000004    -0.0000014    0.0000012     0.9995257   -0.0025416 
   0.038674500    -0.0575689    0.1530855     0.0000012   -0.0000009    -0.0000009    0.0000002     0.9994779   -0.0025948 
   0.038924000    -0.0531559    0.1544590    -0.0000005    0.0000001    -0.0000002    0.0000001     0.9994410   -0.0025690 
   0.039173500    -0.0486996    0.1557414     0.0000003   -0.0000001    -0.0000003   -0.0000004     0.9994825   -0.0026190 
   0.039423000    -0.0441778    0.1568640    -0.0000010    0.0000005    -0.0000003    0.0000008     0.9994782   -0.0026462 
   0.039672500    -0.0397278    0.1576315    -0.0000007   -0.0000007     0.0000003   -0.0000005     0.9992298   -0.0025149 
   0.039922000    -0.0351542    0.1586644    -0.0000001   -0.0000010    -0.0000006    0.0000000     0.9997436   -0.0023740 
