! MS46122B
! 1746301/73750021
! 11/3/2023 2:24:45 PM
! C:\USERS\SPEGWAL\DOWNLOADS\SAURABH\REACH\NODES\FRONT END\MEASUREMENTS\MEASURED S-PARAMETERS_03-11-2023\MS3-MS4_MS1_CABLE\27OHMS_SOURCE_S11.S2P
! CHANNEL.1
! TR.MEASUREMENT
! CORRECTED.DATA
# GHZ S RI R 50.0
! FREQ.GHZ         S11RE         S11IM         S21RE         S21IM         S12RE         S12IM         S22RE         S22IM         
!; PortSelection: Port_12
   0.001000000    -0.2962731    0.0448052    -0.0000001    0.0000040     0.0000022    0.0000033     1.0015210   -0.0020370 
   0.001249500    -0.2950154    0.0537714     0.0000007    0.0000000    -0.0000007   -0.0000003     1.0018320   -0.0016208 
   0.001499000    -0.2932031    0.0623527    -0.0000003   -0.0000007     0.0000006    0.0000001     1.0018230   -0.0015201 
   0.001748500    -0.2910572    0.0706206     0.0000000    0.0000004     0.0000001   -0.0000008     1.0018310   -0.0013811 
   0.001998000    -0.2887005    0.0787306     0.0000011   -0.0000001    -0.0000003    0.0000006     1.0017530   -0.0013436 
   0.002247500    -0.2848587    0.0848757     0.0000006   -0.0000016    -0.0000003   -0.0000001     1.0019160   -0.0016746 
   0.002497000    -0.2820038    0.0927134     0.0000002   -0.0000007     0.0000009    0.0000010     1.0019020   -0.0016324 
   0.002746500    -0.2789532    0.1004108     0.0000013   -0.0000009    -0.0000001   -0.0000005     1.0018620   -0.0016315 
   0.002996000    -0.2756503    0.1080183     0.0000010    0.0000001     0.0000000    0.0000022     1.0018330   -0.0016699 
   0.003245500    -0.2721124    0.1155700     0.0000000   -0.0000002     0.0000009    0.0000005     1.0017220   -0.0015372 
   0.003495000    -0.2683485    0.1229871    -0.0000007    0.0000004    -0.0000016   -0.0000002     1.0017990   -0.0015592 
   0.003744500    -0.2644027    0.1302644     0.0000003    0.0000010    -0.0000022    0.0000000     1.0017100   -0.0015439 
   0.003994000    -0.2602640    0.1374305    -0.0000001    0.0000001    -0.0000011   -0.0000013     1.0016940   -0.0015031 
   0.004243500    -0.2558984    0.1445832     0.0000004    0.0000003    -0.0000002    0.0000000     1.0017300   -0.0017769 
   0.004493000    -0.2513606    0.1515286    -0.0000004   -0.0000022    -0.0000002    0.0000007     1.0017720   -0.0019091 
   0.004742500    -0.2465531    0.1583368    -0.0000004   -0.0000003     0.0000001   -0.0000002     1.0017440   -0.0018288 
   0.004992000    -0.2416487    0.1650365    -0.0000010   -0.0000005    -0.0000003    0.0000002     1.0016910   -0.0018298 
   0.005241500    -0.2365768    0.1715330    -0.0000006   -0.0000003     0.0000005    0.0000000     1.0015670   -0.0017220 
   0.005491000    -0.2313158    0.1778935    -0.0000003   -0.0000013    -0.0000005    0.0000012     1.0014740   -0.0017076 
   0.005740500    -0.2259205    0.1841027    -0.0000001   -0.0000012    -0.0000008   -0.0000006     1.0014830   -0.0016323 
   0.005990000    -0.2203484    0.1901115    -0.0000011   -0.0000004     0.0000014    0.0000006     1.0013230   -0.0015949 
   0.006239500    -0.2146176    0.1959325     0.0000000    0.0000004     0.0000005   -0.0000009     1.0011970   -0.0014839 
   0.006489000    -0.2087421    0.2016295     0.0000000    0.0000006    -0.0000006   -0.0000007     1.0009890   -0.0014969 
   0.006738500    -0.2027239    0.2071270     0.0000000   -0.0000004    -0.0000005    0.0000011     1.0008390   -0.0014076 
   0.006988000    -0.1965180    0.2125069     0.0000005    0.0000025    -0.0000007    0.0000002     1.0007590   -0.0013355 
   0.007237500    -0.1901892    0.2176627    -0.0000007   -0.0000009     0.0000000   -0.0000005     1.0006220   -0.0013160 
   0.007487000    -0.1836903    0.2227493    -0.0000019   -0.0000013     0.0000006   -0.0000009     1.0005170   -0.0012557 
   0.007736500    -0.1770940    0.2275877     0.0000000   -0.0000002    -0.0000003   -0.0000006     1.0005360   -0.0012555 
   0.007986000    -0.1703298    0.2322708     0.0000003   -0.0000006     0.0000000    0.0000002     1.0005840   -0.0013353 
   0.008235500    -0.1634260    0.2367817     0.0000011   -0.0000004     0.0000001    0.0000002     1.0005810   -0.0013216 
   0.008485000    -0.1564637    0.2411181    -0.0000010    0.0000000     0.0000000    0.0000009     1.0006060   -0.0013458 
   0.008734500    -0.1493693    0.2452046    -0.0000005    0.0000001    -0.0000007   -0.0000010     1.0005830   -0.0013902 
   0.008984000    -0.1421975    0.2491314     0.0000000   -0.0000005     0.0000003   -0.0000007     1.0005450   -0.0013707 
   0.009233500    -0.1350129    0.2526608    -0.0000010   -0.0000005     0.0000004   -0.0000008     1.0005320   -0.0014235 
   0.009483000    -0.1276616    0.2561690     0.0000012   -0.0000011    -0.0000002    0.0000003     1.0005820   -0.0013320 
   0.009732500    -0.1202408    0.2594733     0.0000002    0.0000008     0.0000000    0.0000011     1.0005740   -0.0014407 
   0.009982000    -0.1127671    0.2625664     0.0000003   -0.0000009     0.0000000   -0.0000003     1.0005180   -0.0014336 
   0.010231500    -0.1051716    0.2654302     0.0000000   -0.0000001    -0.0000006   -0.0000005     1.0004780   -0.0014055 
   0.010481000    -0.0974789    0.2681042    -0.0000008   -0.0000004     0.0000003    0.0000003     1.0005350   -0.0014482 
   0.010730500    -0.0896988    0.2705588     0.0000008    0.0000001    -0.0000003    0.0000000     1.0005410   -0.0013745 
   0.010980000    -0.0819066    0.2728380    -0.0000007    0.0000000    -0.0000004   -0.0000002     1.0004860   -0.0014342 
   0.011229500    -0.0740263    0.2748432     0.0000000   -0.0000002    -0.0000009   -0.0000007     1.0004420   -0.0014021 
   0.011479000    -0.0660686    0.2766816    -0.0000010   -0.0000006    -0.0000004    0.0000018     1.0004330   -0.0014296 
   0.011728500    -0.0580508    0.2782817     0.0000007   -0.0000001     0.0000000   -0.0000010     1.0004510   -0.0014968 
   0.011978000    -0.0500570    0.2795944    -0.0000004    0.0000003     0.0000001   -0.0000012     1.0003850   -0.0014443 
   0.012227500    -0.0420042    0.2807208     0.0000003    0.0000001    -0.0000001   -0.0000007     1.0004150   -0.0014912 
   0.012477000    -0.0338858    0.2815782     0.0000003   -0.0000002     0.0000008    0.0000010     1.0004260   -0.0014714 
   0.012726500    -0.0257110    0.2822101     0.0000002    0.0000007    -0.0000002    0.0000007     1.0004590   -0.0015063 
   0.012976000    -0.0175642    0.2826050     0.0000001   -0.0000008    -0.0000013    0.0000000     1.0004480   -0.0014993 
   0.013225500    -0.0094922    0.2827584     0.0000011    0.0000006     0.0000002    0.0000011     1.0004120   -0.0015239 
   0.013475000    -0.0014236    0.2826783     0.0000013   -0.0000002     0.0000002   -0.0000006     1.0004540   -0.0014879 
   0.013724500     0.0066205    0.2823884     0.0000008    0.0000003     0.0000001    0.0000000     1.0004580   -0.0015048 
   0.013974000     0.0147347    0.2818787     0.0000003    0.0000004    -0.0000006   -0.0000008     1.0004330   -0.0014449 
   0.014223500     0.0228799    0.2811109    -0.0000010    0.0000018    -0.0000005    0.0000002     1.0003510   -0.0014657 
   0.014473000     0.0308971    0.2801764     0.0000000   -0.0000003    -0.0000003   -0.0000009     1.0003810   -0.0015303 
   0.014722500     0.0389289    0.2789766     0.0000015   -0.0000006    -0.0000007   -0.0000006     1.0004630   -0.0015192 
   0.014972000     0.0469378    0.2775334    -0.0000004    0.0000009     0.0000011    0.0000000     1.0003290   -0.0016052 
   0.015221500     0.0548752    0.2758563     0.0000002   -0.0000009     0.0000015   -0.0000003     1.0004250   -0.0016072 
   0.015471000     0.0627209    0.2739904     0.0000002    0.0000009    -0.0000001    0.0000004     1.0003960   -0.0016129 
   0.015720500     0.0704822    0.2718782     0.0000005    0.0000008    -0.0000003   -0.0000002     1.0003550   -0.0016930 
   0.015970000     0.0782499    0.2696053     0.0000001    0.0000005    -0.0000011   -0.0000002     1.0003230   -0.0015282 
   0.016219500     0.0859711    0.2670526     0.0000000    0.0000012     0.0000002    0.0000005     1.0002860   -0.0016117 
   0.016469000     0.0935860    0.2642981     0.0000016    0.0000004     0.0000002   -0.0000006     1.0003020   -0.0016407 
   0.016718500     0.1011442    0.2613333     0.0000009    0.0000001    -0.0000010   -0.0000001     1.0003310   -0.0016071 
   0.016968000     0.1086071    0.2581644     0.0000002   -0.0000012    -0.0000001    0.0000002     1.0003540   -0.0016377 
   0.017217500     0.1159581    0.2547821     0.0000000   -0.0000009     0.0000004   -0.0000005     1.0002430   -0.0016047 
   0.017467000     0.1232685    0.2511515    -0.0000005    0.0000001    -0.0000003    0.0000001     1.0003120   -0.0016521 
   0.017716500     0.1304845    0.2473025     0.0000002    0.0000003     0.0000013    0.0000009     1.0002010   -0.0016808 
   0.017966000     0.1375499    0.2432691    -0.0000001   -0.0000006    -0.0000001    0.0000000     1.0002840   -0.0016215 
   0.018215500     0.1444826    0.2390708    -0.0000001    0.0000005     0.0000006    0.0000003     1.0002200   -0.0016777 
   0.018465000     0.1512272    0.2346546    -0.0000005   -0.0000004    -0.0000004    0.0000008     1.0002100   -0.0017218 
   0.018714500     0.1578473    0.2300444     0.0000002    0.0000004     0.0000007   -0.0000014     1.0002290   -0.0016658 
   0.018964000     0.1643748    0.2252499    -0.0000006   -0.0000010     0.0000004   -0.0000003     1.0002760   -0.0016488 
   0.019213500     0.1707424    0.2202659     0.0000003    0.0000005     0.0000008    0.0000001     1.0002320   -0.0016827 
   0.019463000     0.1769538    0.2151596    -0.0000001   -0.0000009     0.0000010   -0.0000002     1.0001570   -0.0017506 
   0.019712500     0.1830395    0.2098454     0.0000003   -0.0000009    -0.0000005    0.0000000     1.0001630   -0.0017979 
   0.019962000     0.1889801    0.2043392    -0.0000006   -0.0000005     0.0000001   -0.0000003     1.0001600   -0.0017899 
   0.020211500     0.1947644    0.1986827     0.0000000   -0.0000008    -0.0000003    0.0000002     1.0002070   -0.0018102 
   0.020461000     0.2004043    0.1928573     0.0000012    0.0000009     0.0000000   -0.0000004     1.0001220   -0.0018009 
   0.020710500     0.2058470    0.1868850     0.0000008   -0.0000003    -0.0000004    0.0000005     1.0000610   -0.0018438 
   0.020960000     0.2111490    0.1807817     0.0000001   -0.0000013     0.0000008    0.0000003     1.0000660   -0.0018704 
   0.021209500     0.2162791    0.1744923    -0.0000008    0.0000001     0.0000004   -0.0000008     1.0001620   -0.0018328 
   0.021459000     0.2213034    0.1680587     0.0000000   -0.0000004     0.0000000   -0.0000003     1.0001100   -0.0018493 
   0.021708500     0.2260572    0.1614704     0.0000004    0.0000011    -0.0000007   -0.0000004     1.0001670   -0.0018837 
   0.021958000     0.2306025    0.1547530     0.0000002   -0.0000008    -0.0000006   -0.0000009     1.0000970   -0.0019204 
   0.022207500     0.2349945    0.1478787    -0.0000003   -0.0000013     0.0000000    0.0000003     1.0000690   -0.0019130 
   0.022457000     0.2393131    0.1408031    -0.0000004   -0.0000004    -0.0000002    0.0000001     1.0000730   -0.0019282 
   0.022706500     0.2432874    0.1336767    -0.0000005   -0.0000009     0.0000005    0.0000001     0.9999769   -0.0018781 
   0.022956000     0.2470499    0.1265062     0.0000008   -0.0000011    -0.0000004    0.0000004     1.0000920   -0.0018137 
   0.023205500     0.2505628    0.1192334    -0.0000012    0.0000000     0.0000000   -0.0000007     0.9999782   -0.0019061 
   0.023455000     0.2538659    0.1118212     0.0000013    0.0000003    -0.0000002    0.0000008     1.0000040   -0.0019242 
   0.023704500     0.2569827    0.1043346     0.0000013    0.0000006     0.0000010    0.0000000     1.0000380   -0.0020154 
   0.023954000     0.2598761    0.0968225     0.0000012    0.0000004     0.0000000    0.0000008     0.9999360   -0.0019581 
   0.024203500     0.2625034    0.0892590     0.0000008   -0.0000004    -0.0000008    0.0000005     0.9999226   -0.0019707 
   0.024453000     0.2649552    0.0816132    -0.0000015   -0.0000021    -0.0000013    0.0000013     0.9999181   -0.0019757 
   0.024702500     0.2671841    0.0738639    -0.0000005    0.0000001     0.0000006    0.0000016     0.9999740   -0.0020163 
   0.024952000     0.2692470    0.0660467     0.0000009    0.0000002     0.0000008   -0.0000004     0.9999508   -0.0019848 
   0.025201500     0.2711096    0.0584142    -0.0000003    0.0000026     0.0000000    0.0000000     1.0003150   -0.0016773 
   0.025451000     0.2726409    0.0502998    -0.0000005    0.0000018    -0.0000003    0.0000002     0.9999152   -0.0019494 
   0.025700500     0.2739644    0.0423042    -0.0000011   -0.0000009     0.0000000   -0.0000003     0.9999377   -0.0020273 
   0.025950000     0.2751155    0.0342899    -0.0000009    0.0000007     0.0000006   -0.0000004     0.9999258   -0.0019535 
   0.026199500     0.2759775    0.0262420    -0.0000004    0.0000010     0.0000005   -0.0000012     0.9998491   -0.0020198 
   0.026449000     0.2766405    0.0181723     0.0000015   -0.0000005     0.0000011    0.0000001     0.9999549   -0.0020413 
   0.026698500     0.2771325    0.0100224    -0.0000006   -0.0000002     0.0000007    0.0000010     1.0000130   -0.0020616 
   0.026948000     0.2773444    0.0018667    -0.0000001    0.0000005    -0.0000012   -0.0000005     0.9998740   -0.0020299 
   0.027197500     0.2773139   -0.0063268    -0.0000011    0.0000008     0.0000000    0.0000009     0.9998295   -0.0020166 
   0.027447000     0.2770145   -0.0144239     0.0000000   -0.0000001    -0.0000015    0.0000001     0.9997961   -0.0020814 
   0.027696500     0.2765218   -0.0225160     0.0000000   -0.0000001    -0.0000012    0.0000006     0.9998173   -0.0020380 
   0.027946000     0.2758178   -0.0305541     0.0000001    0.0000002     0.0000001   -0.0000007     0.9997818   -0.0020722 
   0.028195500     0.2748375   -0.0386261     0.0000006   -0.0000001    -0.0000002    0.0000006     0.9998530   -0.0020940 
   0.028445000     0.2736242   -0.0466200     0.0000012    0.0000004     0.0000015   -0.0000005     0.9997811   -0.0020753 
   0.028694500     0.2722426   -0.0545590    -0.0000005    0.0000002     0.0000006    0.0000009     0.9998053   -0.0020692 
   0.028944000     0.2706549   -0.0624590     0.0000007   -0.0000012     0.0000008    0.0000005     0.9997833   -0.0021215 
   0.029193500     0.2687659   -0.0703346     0.0000006    0.0000006     0.0000001   -0.0000011     0.9996787   -0.0021862 
   0.029443000     0.2666810   -0.0781594     0.0000013   -0.0000005    -0.0000002    0.0000006     0.9997323   -0.0020667 
   0.029692500     0.2643533   -0.0859053     0.0000003   -0.0000016     0.0000007   -0.0000016     0.9996253   -0.0021248 
   0.029942000     0.2618110   -0.0936071     0.0000004    0.0000011    -0.0000002    0.0000002     0.9996237   -0.0021935 
   0.030191500     0.2589998   -0.1012411     0.0000001   -0.0000005     0.0000006    0.0000002     0.9997010   -0.0021561 
   0.030441000     0.2559809   -0.1087869     0.0000004    0.0000003     0.0000002   -0.0000005     0.9996619   -0.0020955 
   0.030690500     0.2527643   -0.1162531     0.0000003   -0.0000012    -0.0000002   -0.0000010     0.9996354   -0.0022429 
   0.030940000     0.2493734   -0.1235836     0.0000001    0.0000001    -0.0000002   -0.0000014     0.9996634   -0.0022380 
   0.031189500     0.2457770   -0.1308548     0.0000004    0.0000000    -0.0000001    0.0000006     0.9996977   -0.0022628 
   0.031439000     0.2419629   -0.1379832    -0.0000003   -0.0000013    -0.0000015    0.0000000     0.9996655   -0.0022183 
   0.031688500     0.2379239   -0.1449551    -0.0000005   -0.0000005     0.0000010   -0.0000002     0.9996486   -0.0022170 
   0.031938000     0.2337428   -0.1518102     0.0000006   -0.0000008     0.0000001   -0.0000014     0.9995145   -0.0023612 
   0.032187500     0.2293745   -0.1585377     0.0000009    0.0000001     0.0000003   -0.0000004     0.9996349   -0.0022927 
   0.032437000     0.2248537   -0.1651211     0.0000013   -0.0000005     0.0000000   -0.0000015     0.9996057   -0.0022571 
   0.032686500     0.2198863   -0.1712421    -0.0000001    0.0000003     0.0000015    0.0000000     0.9994670   -0.0021175 
   0.032936000     0.2151283   -0.1778829    -0.0000002    0.0000006     0.0000006    0.0000001     0.9995488   -0.0023182 
   0.033185500     0.2098367   -0.1837259     0.0000006   -0.0000024     0.0000001    0.0000003     0.9994048   -0.0021651 
   0.033435000     0.2045892   -0.1900934     0.0000004    0.0000007     0.0000004    0.0000004     0.9995452   -0.0023519 
   0.033684500     0.1991017   -0.1959866    -0.0000007    0.0000017     0.0000003    0.0000003     0.9995508   -0.0023205 
   0.033934000     0.1933829   -0.2017598     0.0000007    0.0000003    -0.0000004   -0.0000014     0.9996365   -0.0023796 
   0.034183500     0.1875313   -0.2073452    -0.0000005   -0.0000015     0.0000001   -0.0000002     0.9995307   -0.0024135 
   0.034433000     0.1815561   -0.2127585    -0.0000008    0.0000008     0.0000007    0.0000005     0.9995562   -0.0024161 
   0.034682500     0.1754248   -0.2180120    -0.0000006   -0.0000009    -0.0000008   -0.0000004     0.9995000   -0.0024400 
   0.034932000     0.1691769   -0.2230948     0.0000002   -0.0000005     0.0000001   -0.0000004     0.9995798   -0.0023831 
   0.035181500     0.1627654   -0.2279200    -0.0000005    0.0000005     0.0000010   -0.0000004     0.9995419   -0.0024764 
   0.035431000     0.1562059   -0.2326093    -0.0000001   -0.0000004     0.0000009    0.0000005     0.9994953   -0.0024330 
   0.035680500     0.1496124   -0.2371144    -0.0000003   -0.0000007     0.0000007    0.0000006     0.9994755   -0.0024701 
   0.035930000     0.1428951   -0.2413934     0.0000000   -0.0000004    -0.0000005   -0.0000005     0.9994748   -0.0024396 
   0.036179500     0.1359817   -0.2454789     0.0000002    0.0000004    -0.0000006    0.0000005     0.9995053   -0.0024379 
   0.036429000     0.1289505   -0.2493668     0.0000005   -0.0000002    -0.0000011    0.0000008     0.9994937   -0.0024548 
   0.036678500     0.1218272   -0.2530501     0.0000008    0.0000000     0.0000001   -0.0000002     0.9995116   -0.0024697 
   0.036928000     0.1146197   -0.2565134     0.0000010    0.0000009    -0.0000003    0.0000002     0.9995472   -0.0025386 
   0.037177500     0.1072247   -0.2597466    -0.0000011   -0.0000002    -0.0000006    0.0000004     0.9995376   -0.0024952 
   0.037427000     0.0997588   -0.2627994     0.0000003    0.0000005     0.0000001   -0.0000005     0.9995453   -0.0025402 
   0.037676500     0.0922334   -0.2656379     0.0000012   -0.0000001     0.0000000    0.0000001     0.9994778   -0.0024914 
   0.037926000     0.0845693   -0.2683323     0.0000008    0.0000001     0.0000004    0.0000007     0.9994436   -0.0024983 
   0.038175500     0.0769386   -0.2707586     0.0000008    0.0000006    -0.0000002    0.0000012     0.9995078   -0.0025395 
   0.038425000     0.0692273   -0.2729331     0.0000007    0.0000000    -0.0000004   -0.0000009     0.9995235   -0.0025285 
   0.038674500     0.0614642   -0.2748900     0.0000011    0.0000002    -0.0000006   -0.0000010     0.9994810   -0.0025882 
   0.038924000     0.0536482   -0.2766404    -0.0000002    0.0000004     0.0000000   -0.0000001     0.9994187   -0.0026084 
   0.039173500     0.0458248   -0.2781441     0.0000000   -0.0000003     0.0000011    0.0000003     0.9994992   -0.0026224 
   0.039423000     0.0379909   -0.2794792     0.0000005    0.0000000    -0.0000008   -0.0000013     0.9994651   -0.0026329 
   0.039672500     0.0303094   -0.2804462    -0.0000013   -0.0000007     0.0000001    0.0000005     0.9992236   -0.0025176 
   0.039922000     0.0224367   -0.2813720     0.0000005   -0.0000006    -0.0000006   -0.0000008     0.9997412   -0.0023760 
