! MS46122B
! 1746301/73750021
! 11/3/2023 2:26:20 PM
! C:\USERS\SPEGWAL\DOWNLOADS\SAURABH\REACH\NODES\FRONT END\MEASUREMENTS\MEASURED S-PARAMETERS_03-11-2023\MS3-MS4_MS1_CABLE\91OHMS_SOURCE_S11.S2P
! CHANNEL.1
! TR.MEASUREMENT
! CORRECTED.DATA
# GHZ S RI R 50.0
! FREQ.GHZ         S11RE         S11IM         S21RE         S21IM         S12RE         S12IM         S22RE         S22IM         
!; PortSelection: Port_12
   0.001000000     0.2989089   -0.0441737    -0.0000017   -0.0000023    -0.0000006    0.0000010     1.0031980   -0.0014734 
   0.001249500     0.2985047   -0.0534313    -0.0000002    0.0000007     0.0000008    0.0000010     1.0018510   -0.0016712 
   0.001499000     0.2973875   -0.0622075    -0.0000004   -0.0000005    -0.0000017    0.0000009     1.0018320   -0.0015422 
   0.001748500     0.2958137   -0.0706742     0.0000003   -0.0000001    -0.0000018   -0.0000006     1.0018060   -0.0014355 
   0.001998000     0.2938538   -0.0789773    -0.0000008    0.0000007    -0.0000002   -0.0000003     1.0017650   -0.0013788 
   0.002247500     0.2894741   -0.0837810    -0.0000003    0.0000001    -0.0000004   -0.0000001     1.0019390   -0.0016832 
   0.002497000     0.2869524   -0.0919178    -0.0000005    0.0000004    -0.0000007    0.0000001     1.0018580   -0.0017080 
   0.002746500     0.2842078   -0.0999590    -0.0000001    0.0000017     0.0000010    0.0000005     1.0018260   -0.0015865 
   0.002996000     0.2811343   -0.1078558     0.0000003    0.0000002    -0.0000001   -0.0000009     1.0018300   -0.0017039 
   0.003245500     0.2778561   -0.1156873     0.0000008    0.0000003     0.0000005    0.0000000     1.0017320   -0.0015622 
   0.003495000     0.2743682   -0.1234069     0.0000001    0.0000015    -0.0000010    0.0000009     1.0017080   -0.0015936 
   0.003744500     0.2706766   -0.1310707     0.0000010   -0.0000017     0.0000001   -0.0000005     1.0017140   -0.0015814 
   0.003994000     0.2668029   -0.1386252     0.0000019    0.0000006    -0.0000002    0.0000008     1.0016860   -0.0015341 
   0.004243500     0.2626883   -0.1460249    -0.0000008    0.0000015     0.0000000    0.0000008     1.0018260   -0.0018833 
   0.004493000     0.2583196   -0.1533590    -0.0000006   -0.0000006    -0.0000001    0.0000003     1.0017700   -0.0019477 
   0.004742500     0.2537679   -0.1605924     0.0000015    0.0000008     0.0000006   -0.0000005     1.0017490   -0.0018806 
   0.004992000     0.2490317   -0.1676234    -0.0000012    0.0000011     0.0000001   -0.0000005     1.0016630   -0.0017860 
   0.005241500     0.2440577   -0.1745734    -0.0000007   -0.0000011     0.0000001   -0.0000006     1.0015770   -0.0017514 
   0.005491000     0.2388646   -0.1813726    -0.0000002   -0.0000011    -0.0000014   -0.0000009     1.0014830   -0.0017127 
   0.005740500     0.2335069   -0.1880182    -0.0000003   -0.0000008     0.0000007   -0.0000008     1.0014200   -0.0017004 
   0.005990000     0.2279819   -0.1944548    -0.0000006   -0.0000005    -0.0000003   -0.0000006     1.0013400   -0.0016371 
   0.006239500     0.2223311   -0.2007239     0.0000006    0.0000001    -0.0000008    0.0000006     1.0011450   -0.0015889 
   0.006489000     0.2164879   -0.2067835     0.0000005   -0.0000005     0.0000009   -0.0000012     1.0009900   -0.0015543 
   0.006738500     0.2104056   -0.2127245     0.0000009    0.0000004    -0.0000003   -0.0000008     1.0008290   -0.0014322 
   0.006988000     0.2042325   -0.2185460     0.0000006    0.0000005    -0.0000001    0.0000000     1.0007700   -0.0013911 
   0.007237500     0.1979396   -0.2241632     0.0000008   -0.0000002    -0.0000003   -0.0000004     1.0006650   -0.0013503 
   0.007487000     0.1914304   -0.2296570    -0.0000006    0.0000001    -0.0000004   -0.0000003     1.0005090   -0.0013058 
   0.007736500     0.1848031   -0.2349939    -0.0000005    0.0000002     0.0000001   -0.0000007     1.0005570   -0.0013610 
   0.007986000     0.1780085   -0.2401767     0.0000002    0.0000003     0.0000006    0.0000006     1.0005830   -0.0013486 
   0.008235500     0.1710882   -0.2451746     0.0000003    0.0000003     0.0000002   -0.0000007     1.0006230   -0.0013304 
   0.008485000     0.1641059   -0.2500632     0.0000008    0.0000002    -0.0000005   -0.0000007     1.0005940   -0.0013840 
   0.008734500     0.1569157   -0.2547151     0.0000000    0.0000007    -0.0000012   -0.0000002     1.0005870   -0.0014142 
   0.008984000     0.1495855   -0.2591515    -0.0000004    0.0000005     0.0000009    0.0000009     1.0005620   -0.0013888 
   0.009233500     0.1422867   -0.2632393    -0.0000006   -0.0000003     0.0000011   -0.0000016     1.0005580   -0.0014527 
   0.009483000     0.1347171   -0.2673123     0.0000002   -0.0000006     0.0000002   -0.0000003     1.0005910   -0.0014308 
   0.009732500     0.1269915   -0.2711597     0.0000007    0.0000001     0.0000001   -0.0000007     1.0005830   -0.0014633 
   0.009982000     0.1191549   -0.2747933     0.0000004   -0.0000003    -0.0000005   -0.0000004     1.0005530   -0.0014868 
   0.010231500     0.1112200   -0.2781482     0.0000013   -0.0000010     0.0000010   -0.0000007     1.0004850   -0.0014124 
   0.010481000     0.1032107   -0.2813466     0.0000008    0.0000007    -0.0000007    0.0000017     1.0005330   -0.0014797 
   0.010730500     0.0951343   -0.2842881    -0.0000009    0.0000003     0.0000001    0.0000003     1.0006050   -0.0014134 
   0.010980000     0.0869901   -0.2870166     0.0000001   -0.0000004    -0.0000002    0.0000005     1.0005110   -0.0014329 
   0.011229500     0.0787854   -0.2894658    -0.0000002    0.0000003    -0.0000004   -0.0000004     1.0004790   -0.0014450 
   0.011479000     0.0705555   -0.2916666    -0.0000007    0.0000000    -0.0000003    0.0000022     1.0004530   -0.0014749 
   0.011728500     0.0623282   -0.2936227    -0.0000004   -0.0000005     0.0000002    0.0000000     1.0004530   -0.0014849 
   0.011978000     0.0539525   -0.2953652    -0.0000008   -0.0000006    -0.0000002   -0.0000004     1.0004410   -0.0015403 
   0.012227500     0.0455717   -0.2969023     0.0000010   -0.0000002    -0.0000011   -0.0000006     1.0004430   -0.0014812 
   0.012477000     0.0371167   -0.2981433    -0.0000007    0.0000006     0.0000005    0.0000004     1.0004390   -0.0015203 
   0.012726500     0.0286187   -0.2991554    -0.0000002   -0.0000004    -0.0000008    0.0000005     1.0004580   -0.0015385 
   0.012976000     0.0200961   -0.2999179     0.0000002    0.0000000     0.0000005   -0.0000004     1.0004610   -0.0014771 
   0.013225500     0.0116286   -0.3004307     0.0000000    0.0000001    -0.0000007   -0.0000001     1.0005060   -0.0015520 
   0.013475000     0.0030860   -0.3007160     0.0000004    0.0000003    -0.0000008    0.0000008     1.0004720   -0.0015410 
   0.013724500    -0.0055335   -0.3007016    -0.0000008   -0.0000010    -0.0000009   -0.0000001     1.0004480   -0.0015406 
   0.013974000    -0.0141024   -0.3005277     0.0000003   -0.0000015     0.0000002    0.0000002     1.0004370   -0.0015246 
   0.014223500    -0.0226762   -0.3001287    -0.0000004   -0.0000013    -0.0000003    0.0000000     1.0003480   -0.0015378 
   0.014473000    -0.0311951   -0.2994480     0.0000009   -0.0000007     0.0000003   -0.0000002     1.0003550   -0.0016529 
   0.014722500    -0.0396804   -0.2985053     0.0000010    0.0000004     0.0000010   -0.0000009     1.0004370   -0.0015536 
   0.014972000    -0.0481501   -0.2973217    -0.0000001    0.0000018    -0.0000006    0.0000000     1.0003420   -0.0016293 
   0.015221500    -0.0565063   -0.2959173     0.0000012    0.0000005     0.0000014   -0.0000009     1.0004460   -0.0015966 
   0.015471000    -0.0647896   -0.2942580    -0.0000003   -0.0000005     0.0000002   -0.0000009     1.0003940   -0.0016145 
   0.015720500    -0.0729675   -0.2924600     0.0000005   -0.0000009     0.0000002    0.0000011     1.0003570   -0.0017039 
   0.015970000    -0.0811911   -0.2903403    -0.0000003    0.0000000    -0.0000008    0.0000000     1.0003450   -0.0015282 
   0.016219500    -0.0893362   -0.2879673     0.0000000    0.0000005     0.0000000    0.0000001     1.0002930   -0.0016647 
   0.016469000    -0.0974183   -0.2853687    -0.0000007    0.0000017     0.0000004    0.0000000     1.0003230   -0.0016497 
   0.016718500    -0.1054381   -0.2825584     0.0000019    0.0000001     0.0000004   -0.0000006     1.0003460   -0.0016274 
   0.016968000    -0.1133999   -0.2794195     0.0000001    0.0000008    -0.0000009    0.0000009     1.0002910   -0.0015915 
   0.017217500    -0.1212352   -0.2761297     0.0000002    0.0000000     0.0000004    0.0000006     1.0002100   -0.0016633 
   0.017467000    -0.1290361   -0.2726068     0.0000001    0.0000007     0.0000007   -0.0000006     1.0003150   -0.0016793 
   0.017716500    -0.1367603   -0.2689409    -0.0000001   -0.0000002    -0.0000013   -0.0000002     1.0002330   -0.0017286 
   0.017966000    -0.1442919   -0.2650499     0.0000016    0.0000008    -0.0000002    0.0000002     1.0002910   -0.0016743 
   0.018215500    -0.1516843   -0.2609114    -0.0000004   -0.0000008    -0.0000006    0.0000003     1.0002110   -0.0017346 
   0.018465000    -0.1588938   -0.2565756     0.0000000    0.0000002    -0.0000004    0.0000005     1.0002020   -0.0017276 
   0.018714500    -0.1660207   -0.2520553    -0.0000002   -0.0000013    -0.0000001    0.0000001     1.0002370   -0.0017187 
   0.018964000    -0.1730034   -0.2473427     0.0000001    0.0000004    -0.0000007    0.0000006     1.0001720   -0.0017130 
   0.019213500    -0.1798205   -0.2425430     0.0000008   -0.0000002     0.0000013   -0.0000002     1.0002110   -0.0017311 
   0.019463000    -0.1865352   -0.2374327    -0.0000003    0.0000007    -0.0000008    0.0000008     1.0001450   -0.0017153 
   0.019712500    -0.1930711   -0.2321413    -0.0000008    0.0000004    -0.0000001    0.0000005     1.0001840   -0.0018007 
   0.019962000    -0.1994549   -0.2266763    -0.0000001   -0.0000006    -0.0000004    0.0000007     1.0002080   -0.0018062 
   0.020211500    -0.2057057   -0.2209935     0.0000011   -0.0000001    -0.0000017   -0.0000005     1.0002340   -0.0018201 
   0.020461000    -0.2117762   -0.2151622     0.0000004    0.0000005    -0.0000010   -0.0000003     1.0001420   -0.0018483 
   0.020710500    -0.2176978   -0.2091038     0.0000003    0.0000001     0.0000015   -0.0000003     1.0000780   -0.0018620 
   0.020960000    -0.2235582   -0.2028356     0.0000004   -0.0000001    -0.0000001   -0.0000006     1.0000200   -0.0019394 
   0.021209500    -0.2291669   -0.1964422     0.0000005    0.0000004     0.0000010   -0.0000013     1.0000860   -0.0018808 
   0.021459000    -0.2345717   -0.1899391     0.0000001    0.0000000    -0.0000006    0.0000010     1.0000740   -0.0018684 
   0.021708500    -0.2397450   -0.1833044    -0.0000006    0.0000000     0.0000005    0.0000006     1.0001250   -0.0019386 
   0.021958000    -0.2447740   -0.1765010    -0.0000007    0.0000006    -0.0000008   -0.0000003     1.0000790   -0.0019175 
   0.022207500    -0.2495863   -0.1696003    -0.0000006   -0.0000002    -0.0000003   -0.0000003     1.0000510   -0.0019272 
   0.022457000    -0.2542685   -0.1624524     0.0000007   -0.0000010    -0.0000006   -0.0000004     0.9999988   -0.0019569 
   0.022706500    -0.2586901   -0.1553858    -0.0000002    0.0000008    -0.0000011   -0.0000003     1.0000370   -0.0019426 
   0.022956000    -0.2628433   -0.1481511    -0.0000005   -0.0000012     0.0000008    0.0000008     1.0000410   -0.0019252 
   0.023205500    -0.2667691   -0.1407961    -0.0000011   -0.0000001    -0.0000010   -0.0000015     0.9999954   -0.0019295 
   0.023455000    -0.2705590   -0.1333473    -0.0000001   -0.0000008     0.0000016   -0.0000003     0.9999609   -0.0019926 
   0.023704500    -0.2740962   -0.1258064    -0.0000003    0.0000008     0.0000004    0.0000004     1.0000490   -0.0019866 
   0.023954000    -0.2773927   -0.1181295    -0.0000004    0.0000007     0.0000004   -0.0000003     0.9999161   -0.0019612 
   0.024203500    -0.2805213   -0.1103121     0.0000000    0.0000001     0.0000006    0.0000003     0.9999574   -0.0020025 
   0.024453000    -0.2834092   -0.1024782     0.0000004   -0.0000008     0.0000010    0.0000008     0.9999403   -0.0019932 
   0.024702500    -0.2860689   -0.0945817     0.0000003    0.0000003    -0.0000012    0.0000018     0.9999576   -0.0020753 
   0.024952000    -0.2884944   -0.0865232     0.0000007    0.0000006     0.0000001   -0.0000002     0.9999409   -0.0020166 
   0.025201500    -0.2905683   -0.0785432     0.0000005   -0.0000017    -0.0000009   -0.0000004     1.0003040   -0.0016092 
   0.025451000    -0.2926410   -0.0702836     0.0000004    0.0000008    -0.0000007    0.0000014     0.9999067   -0.0020484 
   0.025700500    -0.2943865   -0.0621121    -0.0000009    0.0000010     0.0000005   -0.0000004     0.9999200   -0.0020432 
   0.025950000    -0.2958729   -0.0538890    -0.0000006    0.0000015    -0.0000010    0.0000011     0.9999378   -0.0020169 
   0.026199500    -0.2971219   -0.0456725     0.0000001   -0.0000006    -0.0000005   -0.0000001     0.9998751   -0.0020622 
   0.026449000    -0.2981511   -0.0373624    -0.0000006    0.0000004    -0.0000018   -0.0000014     0.9999098   -0.0020845 
   0.026698500    -0.2990052   -0.0291242    -0.0000005   -0.0000013     0.0000004    0.0000005     0.9999546   -0.0020913 
   0.026948000    -0.2995856   -0.0208334     0.0000000   -0.0000007     0.0000006   -0.0000005     0.9998823   -0.0020696 
   0.027197500    -0.2999082   -0.0124702    -0.0000006    0.0000005    -0.0000014   -0.0000005     0.9998485   -0.0020537 
   0.027447000    -0.3000109   -0.0041229     0.0000003   -0.0000012     0.0000010    0.0000011     0.9998372   -0.0020906 
   0.027696500    -0.2998788    0.0042136    -0.0000005    0.0000006    -0.0000010    0.0000012     0.9998203   -0.0021375 
   0.027946000    -0.2995602    0.0125381     0.0000004   -0.0000019    -0.0000002   -0.0000003     0.9998137   -0.0020779 
   0.028195500    -0.2989809    0.0208896     0.0000005   -0.0000002    -0.0000002    0.0000006     0.9998212   -0.0021347 
   0.028445000    -0.2981381    0.0292261     0.0000007    0.0000008     0.0000001    0.0000002     0.9998220   -0.0021075 
   0.028694500    -0.2970750    0.0375056     0.0000005   -0.0000004    -0.0000008    0.0000004     0.9998106   -0.0021077 
   0.028944000    -0.2958397    0.0457867     0.0000000    0.0000002     0.0000010    0.0000001     0.9997503   -0.0021550 
   0.029193500    -0.2943073    0.0540285     0.0000008    0.0000005     0.0000002   -0.0000004     0.9997070   -0.0022270 
   0.029443000    -0.2925538    0.0621935     0.0000003    0.0000010    -0.0000013   -0.0000007     0.9996637   -0.0021241 
   0.029692500    -0.2905561    0.0703210     0.0000015   -0.0000008    -0.0000003    0.0000006     0.9996493   -0.0021852 
   0.029942000    -0.2882944    0.0784240     0.0000003   -0.0000002     0.0000002    0.0000013     0.9996005   -0.0022405 
   0.030191500    -0.2858679    0.0863172     0.0000002   -0.0000012    -0.0000009    0.0000005     0.9997047   -0.0021928 
   0.030441000    -0.2831917    0.0942014     0.0000004    0.0000005    -0.0000001    0.0000002     0.9996586   -0.0021205 
   0.030690500    -0.2802768    0.1019754     0.0000007   -0.0000001     0.0000019    0.0000000     0.9996611   -0.0023149 
   0.030940000    -0.2771987    0.1096761     0.0000004   -0.0000013    -0.0000017    0.0000000     0.9996733   -0.0022557 
   0.031189500    -0.2738519    0.1172778    -0.0000011    0.0000003    -0.0000007   -0.0000004     0.9996967   -0.0022870 
   0.031439000    -0.2703348    0.1247549    -0.0000001    0.0000013     0.0000010   -0.0000006     0.9996583   -0.0022509 
   0.031688500    -0.2665532    0.1321544    -0.0000007    0.0000000     0.0000007    0.0000007     0.9996706   -0.0022361 
   0.031938000    -0.2626212    0.1394305     0.0000010   -0.0000010     0.0000003    0.0000007     0.9995847   -0.0023919 
   0.032187500    -0.2584758    0.1465801     0.0000013   -0.0000008     0.0000008    0.0000000     0.9996133   -0.0023042 
   0.032437000    -0.2541385    0.1536270     0.0000003   -0.0000005    -0.0000004   -0.0000006     0.9995946   -0.0022728 
   0.032686500    -0.2497309    0.1603019     0.0000002    0.0000000    -0.0000005   -0.0000001     0.9994598   -0.0021214 
   0.032936000    -0.2448635    0.1673512     0.0000010    0.0000009    -0.0000004   -0.0000012     0.9995538   -0.0023714 
   0.033185500    -0.2400654    0.1737460     0.0000022    0.0000005     0.0000008   -0.0000006     0.9994037   -0.0021519 
   0.033435000    -0.2348674    0.1805648     0.0000003    0.0000007     0.0000003   -0.0000012     0.9995670   -0.0024116 
   0.033684500    -0.2295881    0.1869659    -0.0000002   -0.0000001    -0.0000010    0.0000001     0.9995192   -0.0023406 
   0.033934000    -0.2241038    0.1931853     0.0000003   -0.0000012    -0.0000017    0.0000000     0.9995738   -0.0024119 
   0.034183500    -0.2184478    0.1992689     0.0000004   -0.0000007    -0.0000014    0.0000001     0.9995068   -0.0024721 
   0.034433000    -0.2126611    0.2052137     0.0000000    0.0000001    -0.0000006    0.0000000     0.9995493   -0.0024337 
   0.034682500    -0.2066674    0.2109728    -0.0000005   -0.0000001     0.0000002    0.0000007     0.9995283   -0.0024820 
   0.034932000    -0.2004844    0.2165801     0.0000000   -0.0000006    -0.0000003   -0.0000010     0.9995400   -0.0024671 
   0.035181500    -0.1942226    0.2219299    -0.0000005   -0.0000013    -0.0000008   -0.0000004     0.9995084   -0.0024837 
   0.035431000    -0.1877308    0.2270918    -0.0000001    0.0000001     0.0000007    0.0000012     0.9994676   -0.0024552 
   0.035680500    -0.1811381    0.2321447     0.0000007    0.0000004     0.0000012   -0.0000002     0.9995238   -0.0024670 
   0.035930000    -0.1744310    0.2369785    -0.0000005    0.0000010    -0.0000007   -0.0000017     0.9994717   -0.0024849 
   0.036179500    -0.1675171    0.2416332     0.0000015    0.0000001     0.0000001    0.0000002     0.9994975   -0.0024913 
   0.036429000    -0.1605341    0.2460681    -0.0000004    0.0000009    -0.0000005    0.0000008     0.9994830   -0.0024870 
   0.036678500    -0.1534323    0.2503311     0.0000009   -0.0000002     0.0000002    0.0000011     0.9995121   -0.0025103 
   0.036928000    -0.1461987    0.2543584    -0.0000007    0.0000003     0.0000001    0.0000003     0.9994997   -0.0025701 
   0.037177500    -0.1388932    0.2582017    -0.0000009    0.0000012    -0.0000004   -0.0000003     0.9994884   -0.0025155 
   0.037427000    -0.1314028    0.2618309    -0.0000007    0.0000005    -0.0000005    0.0000004     0.9995128   -0.0025836 
   0.037676500    -0.1238657    0.2652501     0.0000004   -0.0000003    -0.0000005    0.0000001     0.9994570   -0.0025011 
   0.037926000    -0.1162460    0.2684646     0.0000005   -0.0000003     0.0000004   -0.0000008     0.9994585   -0.0025425 
   0.038175500    -0.1085173    0.2715126    -0.0000004    0.0000009     0.0000002    0.0000001     0.9994962   -0.0025843 
   0.038425000    -0.1006854    0.2743296    -0.0000004    0.0000006     0.0000004    0.0000007     0.9994824   -0.0025131 
   0.038674500    -0.0928086    0.2769359    -0.0000004   -0.0000006    -0.0000007   -0.0000007     0.9994758   -0.0026015 
   0.038924000    -0.0848713    0.2792817     0.0000000    0.0000002    -0.0000004   -0.0000003     0.9994087   -0.0026482 
   0.039173500    -0.0768416    0.2813922     0.0000015    0.0000000    -0.0000001    0.0000001     0.9994553   -0.0026775 
   0.039423000    -0.0687327    0.2832884     0.0000004   -0.0000002    -0.0000002   -0.0000005     0.9994703   -0.0026612 
   0.039672500    -0.0606462    0.2848552     0.0000011    0.0000000     0.0000002   -0.0000008     0.9992325   -0.0024596 
   0.039922000    -0.0524589    0.2864172     0.0000002    0.0000014     0.0000011   -0.0000007     0.9997466   -0.0023963 
