! MS46122B
! 1746301/73750021
! 11/3/2023 2:25:42 PM
! C:\USERS\SPEGWAL\DOWNLOADS\SAURABH\REACH\NODES\FRONT END\MEASUREMENTS\MEASURED S-PARAMETERS_03-11-2023\MS3-MS4_MS1_CABLE\36OHMS_SOURCE_S11.S2P
! CHANNEL.1
! TR.MEASUREMENT
! CORRECTED.DATA
# GHZ S RI R 50.0
! FREQ.GHZ         S11RE         S11IM         S21RE         S21IM         S12RE         S12IM         S22RE         S22IM         
!; PortSelection: Port_12
   0.001000000    -0.1552530    0.0255216     0.0000045   -0.0000009     0.0000029   -0.0000027     1.0026990   -0.0018569 
   0.001249500    -0.1543979    0.0302154     0.0000012    0.0000004    -0.0000023    0.0000001     1.0018750   -0.0016274 
   0.001499000    -0.1533410    0.0346643     0.0000008    0.0000007    -0.0000002    0.0000008     1.0018350   -0.0015472 
   0.001748500    -0.1521577    0.0389413     0.0000005    0.0000006     0.0000007   -0.0000002     1.0018970   -0.0013609 
   0.001998000    -0.1507434    0.0431448     0.0000016    0.0000008    -0.0000002   -0.0000019     1.0017590   -0.0013891 
   0.002247500    -0.1484988    0.0459797    -0.0000002   -0.0000009     0.0000001   -0.0000011     1.0019570   -0.0017689 
   0.002497000    -0.1468684    0.0500100    -0.0000002   -0.0000005     0.0000002    0.0000004     1.0018600   -0.0016897 
   0.002746500    -0.1451081    0.0539652    -0.0000002   -0.0000012     0.0000014    0.0000004     1.0018210   -0.0015437 
   0.002996000    -0.1432305    0.0578606     0.0000003    0.0000004     0.0000002   -0.0000009     1.0018340   -0.0016848 
   0.003245500    -0.1412288    0.0617148    -0.0000003   -0.0000001    -0.0000003    0.0000005     1.0017430   -0.0015660 
   0.003495000    -0.1391474    0.0655017    -0.0000013   -0.0000001     0.0000002    0.0000003     1.0017340   -0.0015899 
   0.003744500    -0.1369829    0.0692030    -0.0000003   -0.0000008     0.0000013   -0.0000004     1.0016890   -0.0015347 
   0.003994000    -0.1347254    0.0728674     0.0000000    0.0000007     0.0000010    0.0000001     1.0016330   -0.0015507 
   0.004243500    -0.1323784    0.0764892    -0.0000002   -0.0000004     0.0000009   -0.0000002     1.0017700   -0.0018349 
   0.004493000    -0.1299178    0.0799834     0.0000000   -0.0000006    -0.0000005   -0.0000004     1.0017510   -0.0018864 
   0.004742500    -0.1273777    0.0834266    -0.0000013   -0.0000003    -0.0000004    0.0000004     1.0017410   -0.0018443 
   0.004992000    -0.1247259    0.0867855     0.0000001   -0.0000014    -0.0000004    0.0000011     1.0016740   -0.0017815 
   0.005241500    -0.1220030    0.0900748     0.0000000   -0.0000008    -0.0000006    0.0000001     1.0015950   -0.0017408 
   0.005491000    -0.1191856    0.0932840    -0.0000006    0.0000013    -0.0000004   -0.0000006     1.0015200   -0.0016943 
   0.005740500    -0.1162656    0.0964044     0.0000000   -0.0000003    -0.0000006   -0.0000004     1.0014260   -0.0016782 
   0.005990000    -0.1132740    0.0994103    -0.0000009    0.0000003     0.0000004   -0.0000001     1.0013700   -0.0015752 
   0.006239500    -0.1102119    0.1023418    -0.0000018   -0.0000009    -0.0000009    0.0000001     1.0012430   -0.0015191 
   0.006489000    -0.1071132    0.1051818    -0.0000011   -0.0000011     0.0000005    0.0000021     1.0010150   -0.0014997 
   0.006738500    -0.1039391    0.1078980     0.0000005   -0.0000012    -0.0000012    0.0000001     1.0008460   -0.0014250 
   0.006988000    -0.1006396    0.1105911     0.0000000   -0.0000002    -0.0000006    0.0000002     1.0007620   -0.0013803 
   0.007237500    -0.0972784    0.1131513     0.0000003    0.0000004     0.0000001   -0.0000002     1.0006610   -0.0013183 
   0.007487000    -0.0938173    0.1156623     0.0000005    0.0000000    -0.0000006   -0.0000001     1.0005290   -0.0012877 
   0.007736500    -0.0903259    0.1180689    -0.0000005   -0.0000017    -0.0000002    0.0000004     1.0005660   -0.0013321 
   0.007986000    -0.0867856    0.1203920     0.0000005   -0.0000014    -0.0000001    0.0000001     1.0005930   -0.0013488 
   0.008235500    -0.0832077    0.1226060    -0.0000012    0.0000004    -0.0000006   -0.0000012     1.0006280   -0.0013259 
   0.008485000    -0.0795781    0.1247303     0.0000002   -0.0000005     0.0000003   -0.0000006     1.0006030   -0.0013603 
   0.008734500    -0.0758727    0.1267516    -0.0000007   -0.0000018     0.0000009    0.0000001     1.0005770   -0.0014214 
   0.008984000    -0.0721372    0.1287076    -0.0000012    0.0000000    -0.0000008    0.0000017     1.0005530   -0.0013685 
   0.009233500    -0.0684381    0.1304160    -0.0000009    0.0000002     0.0000003   -0.0000001     1.0005520   -0.0014337 
   0.009483000    -0.0646035    0.1321159    -0.0000011    0.0000002     0.0000007    0.0000005     1.0005600   -0.0013742 
   0.009732500    -0.0606960    0.1337266     0.0000001    0.0000005    -0.0000010   -0.0000003     1.0005790   -0.0014543 
   0.009982000    -0.0567860    0.1351980    -0.0000013    0.0000012     0.0000017    0.0000001     1.0005490   -0.0014725 
   0.010231500    -0.0528276    0.1365700     0.0000000    0.0000000     0.0000012    0.0000001     1.0004720   -0.0013858 
   0.010481000    -0.0488610    0.1378401    -0.0000005    0.0000004     0.0000007    0.0000011     1.0005160   -0.0014821 
   0.010730500    -0.0448513    0.1389773     0.0000006   -0.0000001    -0.0000002    0.0000001     1.0005200   -0.0014472 
   0.010980000    -0.0407662    0.1400654     0.0000004   -0.0000015     0.0000000    0.0000001     1.0005210   -0.0014790 
   0.011229500    -0.0366943    0.1409695     0.0000003   -0.0000010    -0.0000008   -0.0000001     1.0004720   -0.0014256 
   0.011479000    -0.0325911    0.1417923     0.0000012    0.0000006    -0.0000003    0.0000005     1.0004400   -0.0014595 
   0.011728500    -0.0284380    0.1424646    -0.0000006    0.0000004    -0.0000013    0.0000001     1.0004500   -0.0015232 
   0.011978000    -0.0242702    0.1430179     0.0000012    0.0000003    -0.0000009   -0.0000007     1.0004440   -0.0014824 
   0.012227500    -0.0200627    0.1434628     0.0000002   -0.0000004     0.0000000   -0.0000002     1.0004300   -0.0014802 
   0.012477000    -0.0158934    0.1437903    -0.0000003   -0.0000001    -0.0000006    0.0000003     1.0004430   -0.0014578 
   0.012726500    -0.0116992    0.1439931     0.0000001    0.0000002    -0.0000002   -0.0000014     1.0004810   -0.0015396 
   0.012976000    -0.0075352    0.1440665    -0.0000003   -0.0000013     0.0000007    0.0000011     1.0004880   -0.0014794 
   0.013225500    -0.0033810    0.1440299    -0.0000007    0.0000004    -0.0000006   -0.0000001     1.0005140   -0.0015109 
   0.013475000     0.0007810    0.1438670     0.0000010   -0.0000003    -0.0000003    0.0000009     1.0004910   -0.0014834 
   0.013724500     0.0049185    0.1435945     0.0000004   -0.0000008     0.0000000    0.0000000     1.0004330   -0.0015174 
   0.013974000     0.0090900    0.1432135    -0.0000006    0.0000004    -0.0000004   -0.0000002     1.0003960   -0.0015570 
   0.014223500     0.0132147    0.1427541    -0.0000005    0.0000002     0.0000003    0.0000005     1.0003910   -0.0015480 
   0.014473000     0.0173524    0.1421808     0.0000004    0.0000001     0.0000002   -0.0000010     1.0003960   -0.0015512 
   0.014722500     0.0214383    0.1414378    -0.0000009   -0.0000008    -0.0000012    0.0000001     1.0004030   -0.0015303 
   0.014972000     0.0255308    0.1405692     0.0000016   -0.0000002     0.0000006    0.0000005     1.0003880   -0.0015802 
   0.015221500     0.0295713    0.1395938    -0.0000006    0.0000003     0.0000004    0.0000001     1.0003510   -0.0016152 
   0.015471000     0.0335492    0.1384924    -0.0000017   -0.0000003    -0.0000001    0.0000004     1.0003690   -0.0016370 
   0.015720500     0.0374691    0.1372958     0.0000001    0.0000001    -0.0000009   -0.0000015     1.0003720   -0.0017212 
   0.015970000     0.0414154    0.1359795    -0.0000004    0.0000000     0.0000002    0.0000002     1.0003240   -0.0015201 
   0.016219500     0.0453104    0.1345432    -0.0000002   -0.0000016     0.0000000   -0.0000001     1.0003180   -0.0016709 
   0.016469000     0.0491696    0.1329970     0.0000002    0.0000000     0.0000011   -0.0000001     1.0003460   -0.0016389 
   0.016718500     0.0529883    0.1313410     0.0000009   -0.0000005    -0.0000006    0.0000006     1.0003360   -0.0016039 
   0.016968000     0.0567404    0.1295892    -0.0000006   -0.0000001     0.0000003    0.0000004     1.0003370   -0.0015834 
   0.017217500     0.0604680    0.1277067     0.0000016    0.0000001     0.0000002    0.0000008     1.0002330   -0.0016296 
   0.017467000     0.0641489    0.1257509    -0.0000001   -0.0000010    -0.0000002   -0.0000008     1.0002930   -0.0016757 
   0.017716500     0.0677825    0.1236697    -0.0000011    0.0000003    -0.0000002   -0.0000006     1.0001860   -0.0017552 
   0.017966000     0.0713512    0.1214772    -0.0000009   -0.0000005     0.0000002   -0.0000018     1.0003330   -0.0016212 
   0.018215500     0.0748695    0.1191976     0.0000012   -0.0000008    -0.0000003   -0.0000002     1.0002550   -0.0017007 
   0.018465000     0.0782669    0.1168280     0.0000002   -0.0000001    -0.0000009   -0.0000001     1.0002350   -0.0017317 
   0.018714500     0.0815821    0.1143546     0.0000005   -0.0000005     0.0000010    0.0000000     1.0002590   -0.0017176 
   0.018964000     0.0848379    0.1118102     0.0000006   -0.0000003    -0.0000004    0.0000006     1.0001960   -0.0016728 
   0.019213500     0.0880102    0.1091525    -0.0000001    0.0000009     0.0000003    0.0000008     1.0002710   -0.0017033 
   0.019463000     0.0911143    0.1064292     0.0000000    0.0000011    -0.0000001    0.0000007     1.0002050   -0.0017633 
   0.019712500     0.0941627    0.1036100    -0.0000004    0.0000000    -0.0000003    0.0000000     1.0002040   -0.0018006 
   0.019962000     0.0970983    0.1007417     0.0000008    0.0000006    -0.0000005   -0.0000005     1.0001780   -0.0018041 
   0.020211500     0.0999606    0.0977215    -0.0000009   -0.0000009    -0.0000001    0.0000000     1.0002450   -0.0018314 
   0.020461000     0.1027368    0.0946436    -0.0000008    0.0000005     0.0000003    0.0000001     1.0001320   -0.0018328 
   0.020710500     0.1054234    0.0914905     0.0000023    0.0000003     0.0000001    0.0000011     1.0001270   -0.0018379 
   0.020960000     0.1080312    0.0882652     0.0000002   -0.0000007    -0.0000005    0.0000001     1.0000830   -0.0019438 
   0.021209500     0.1105225    0.0849485    -0.0000006   -0.0000017     0.0000009   -0.0000001     1.0001180   -0.0018312 
   0.021459000     0.1129158    0.0816122    -0.0000002   -0.0000008    -0.0000001   -0.0000023     1.0001280   -0.0018481 
   0.021708500     0.1152247    0.0781927     0.0000005    0.0000003    -0.0000005    0.0000011     1.0001080   -0.0018784 
   0.021958000     0.1174397    0.0746864    -0.0000003   -0.0000003     0.0000002   -0.0000005     1.0001290   -0.0019355 
   0.022207500     0.1195467    0.0711050    -0.0000010   -0.0000003     0.0000003    0.0000010     1.0000700   -0.0019114 
   0.022457000     0.1216690    0.0674485     0.0000012    0.0000006    -0.0000008    0.0000008     1.0000290   -0.0019457 
   0.022706500     0.1235840    0.0637436    -0.0000002   -0.0000004    -0.0000006    0.0000000     1.0000510   -0.0019019 
   0.022956000     0.1253621    0.0599874     0.0000005    0.0000002     0.0000002    0.0000011     1.0000580   -0.0018513 
   0.023205500     0.1270474    0.0562015     0.0000005    0.0000020    -0.0000002    0.0000002     1.0000210   -0.0018942 
   0.023455000     0.1286418    0.0523557     0.0000007   -0.0000008    -0.0000005    0.0000007     0.9999736   -0.0019450 
   0.023704500     0.1301368    0.0484882     0.0000008    0.0000000    -0.0000001    0.0000004     1.0000320   -0.0020203 
   0.023954000     0.1314947    0.0445957     0.0000011    0.0000000     0.0000003   -0.0000010     0.9999272   -0.0019525 
   0.024203500     0.1327343    0.0406668    -0.0000001    0.0000009    -0.0000001   -0.0000003     0.9999771   -0.0019613 
   0.024453000     0.1338852    0.0367179     0.0000000   -0.0000011     0.0000004   -0.0000001     0.9999399   -0.0019431 
   0.024702500     0.1349127    0.0327536    -0.0000004   -0.0000003    -0.0000006   -0.0000002     0.9999589   -0.0019903 
   0.024952000     0.1358175    0.0287280     0.0000000    0.0000005    -0.0000002   -0.0000016     0.9999661   -0.0019898 
   0.025201500     0.1365668    0.0248178    -0.0000010    0.0000000    -0.0000005   -0.0000020     1.0003250   -0.0016543 
   0.025451000     0.1372774    0.0206212     0.0000014   -0.0000007    -0.0000001   -0.0000005     0.9999009   -0.0019596 
   0.025700500     0.1378237    0.0165113     0.0000003    0.0000001    -0.0000013   -0.0000004     0.9999502   -0.0020106 
   0.025950000     0.1382670    0.0124002     0.0000006    0.0000000     0.0000002   -0.0000003     0.9999515   -0.0019602 
   0.026199500     0.1385728    0.0082685    -0.0000008   -0.0000004     0.0000010   -0.0000009     0.9998569   -0.0020116 
   0.026449000     0.1387798    0.0041625    -0.0000002   -0.0000011    -0.0000003   -0.0000001     0.9999207   -0.0020203 
   0.026698500     0.1388759    0.0000137     0.0000002   -0.0000004     0.0000004   -0.0000009     0.9999788   -0.0020732 
   0.026948000     0.1388273   -0.0040970     0.0000000   -0.0000017    -0.0000017   -0.0000003     0.9999143   -0.0020798 
   0.027197500     0.1386964   -0.0082535    -0.0000007   -0.0000005     0.0000004    0.0000007     0.9998932   -0.0020530 
   0.027447000     0.1384268   -0.0123645     0.0000004    0.0000000    -0.0000007   -0.0000010     0.9998522   -0.0020788 
   0.027696500     0.1380644   -0.0164784     0.0000011   -0.0000012    -0.0000012   -0.0000001     0.9998433   -0.0020926 
   0.027946000     0.1376068   -0.0205879     0.0000006   -0.0000005     0.0000005    0.0000005     0.9998043   -0.0021096 
   0.028195500     0.1369747   -0.0246707    -0.0000003    0.0000005     0.0000001    0.0000012     0.9998456   -0.0020722 
   0.028445000     0.1362501   -0.0287527    -0.0000007   -0.0000005    -0.0000003   -0.0000009     0.9998034   -0.0021148 
   0.028694500     0.1353847   -0.0327996     0.0000007    0.0000004     0.0000002   -0.0000001     0.9998081   -0.0021222 
   0.028944000     0.1344128   -0.0368083     0.0000009    0.0000000     0.0000009    0.0000010     0.9997649   -0.0021541 
   0.029193500     0.1333394   -0.0407948    -0.0000001   -0.0000006     0.0000009   -0.0000002     0.9997182   -0.0022107 
   0.029443000     0.1321634   -0.0447578     0.0000001    0.0000015    -0.0000003    0.0000004     0.9996993   -0.0021204 
   0.029692500     0.1308548   -0.0486806     0.0000007    0.0000004    -0.0000007   -0.0000005     0.9996929   -0.0021738 
   0.029942000     0.1294589   -0.0525926    -0.0000001   -0.0000001    -0.0000009   -0.0000002     0.9996077   -0.0021892 
   0.030191500     0.1279588   -0.0564215    -0.0000001   -0.0000015     0.0000002   -0.0000002     0.9997255   -0.0022344 
   0.030441000     0.1263137   -0.0601979    -0.0000010    0.0000002    -0.0000003   -0.0000002     0.9997111   -0.0021513 
   0.030690500     0.1245608   -0.0639466    -0.0000004   -0.0000006    -0.0000005    0.0000009     0.9996492   -0.0022747 
   0.030940000     0.1227242   -0.0676369     0.0000003   -0.0000009     0.0000004    0.0000001     0.9996777   -0.0022611 
   0.031189500     0.1207779   -0.0712999     0.0000015   -0.0000008     0.0000009   -0.0000013     0.9997172   -0.0022954 
   0.031439000     0.1187133   -0.0749063     0.0000008    0.0000001    -0.0000010   -0.0000003     0.9996871   -0.0022583 
   0.031688500     0.1165564   -0.0784178    -0.0000013   -0.0000013    -0.0000014    0.0000011     0.9996716   -0.0022368 
   0.031938000     0.1143365   -0.0818839     0.0000022    0.0000004    -0.0000005    0.0000000     0.9995690   -0.0023558 
   0.032187500     0.1119923   -0.0852353    -0.0000003    0.0000007     0.0000000    0.0000004     0.9996170   -0.0022904 
   0.032437000     0.1095713   -0.0885313    -0.0000002   -0.0000004    -0.0000003    0.0000003     0.9996198   -0.0022372 
   0.032686500     0.1070405   -0.0916124     0.0000001   -0.0000013    -0.0000001    0.0000012     0.9994912   -0.0021387 
   0.032936000     0.1044008   -0.0949037     0.0000011   -0.0000007    -0.0000008   -0.0000016     0.9995640   -0.0023655 
   0.033185500     0.1016738   -0.0978593    -0.0000007    0.0000003    -0.0000006    0.0000014     0.9994535   -0.0021286 
   0.033435000     0.0988741   -0.1010085     0.0000005    0.0000007    -0.0000010    0.0000015     0.9995609   -0.0023928 
   0.033684500     0.0959677   -0.1039442     0.0000017   -0.0000010    -0.0000003    0.0000001     0.9995062   -0.0023485 
   0.033934000     0.0929678   -0.1067978    -0.0000001    0.0000004    -0.0000014    0.0000009     0.9995779   -0.0024036 
   0.034183500     0.0899151   -0.1095382    -0.0000004   -0.0000002    -0.0000008   -0.0000001     0.9995332   -0.0024663 
   0.034433000     0.0867863   -0.1122376    -0.0000007    0.0000006     0.0000001   -0.0000001     0.9994959   -0.0024673 
   0.034682500     0.0835916   -0.1148056    -0.0000004   -0.0000012     0.0000004    0.0000000     0.9994894   -0.0024635 
   0.034932000     0.0803400   -0.1172780     0.0000010    0.0000000    -0.0000005   -0.0000002     0.9995695   -0.0024389 
   0.035181500     0.0770069   -0.1196305    -0.0000010    0.0000004     0.0000002    0.0000002     0.9995233   -0.0024789 
   0.035431000     0.0736097   -0.1219110     0.0000004    0.0000010     0.0000012   -0.0000011     0.9994949   -0.0024628 
   0.035680500     0.0701640   -0.1240868     0.0000005   -0.0000004    -0.0000011    0.0000000     0.9995262   -0.0024830 
   0.035930000     0.0666272   -0.1261623     0.0000013    0.0000004    -0.0000001    0.0000007     0.9995077   -0.0024531 
   0.036179500     0.0630473   -0.1281386     0.0000000    0.0000000    -0.0000005    0.0000008     0.9995297   -0.0024702 
   0.036429000     0.0593740   -0.1300248    -0.0000005    0.0000001     0.0000002   -0.0000015     0.9994916   -0.0024770 
   0.036678500     0.0556624   -0.1318039    -0.0000009    0.0000001    -0.0000003    0.0000005     0.9995143   -0.0025054 
   0.036928000     0.0519444   -0.1334685     0.0000001   -0.0000015    -0.0000011   -0.0000004     0.9995245   -0.0025565 
   0.037177500     0.0481479   -0.1350482    -0.0000008   -0.0000001    -0.0000013   -0.0000003     0.9995453   -0.0025214 
   0.037427000     0.0443594   -0.1364908     0.0000004    0.0000004     0.0000005    0.0000008     0.9995407   -0.0025642 
   0.037676500     0.0405402   -0.1378137     0.0000007   -0.0000007     0.0000015   -0.0000004     0.9994896   -0.0024819 
   0.037926000     0.0366357   -0.1390491     0.0000003    0.0000004    -0.0000003   -0.0000001     0.9994385   -0.0025249 
   0.038175500     0.0327122   -0.1401755    -0.0000001   -0.0000019    -0.0000022   -0.0000006     0.9995209   -0.0025896 
   0.038425000     0.0287611   -0.1411726    -0.0000007    0.0000010    -0.0000002    0.0000002     0.9995074   -0.0025544 
   0.038674500     0.0247787   -0.1420456    -0.0000015   -0.0000003     0.0000006    0.0000001     0.9994975   -0.0026190 
   0.038924000     0.0207621   -0.1428444     0.0000002   -0.0000007     0.0000001    0.0000006     0.9994622   -0.0025985 
   0.039173500     0.0167486   -0.1434945     0.0000009   -0.0000005     0.0000015   -0.0000012     0.9995065   -0.0026372 
   0.039423000     0.0127254   -0.1440493    -0.0000002    0.0000006    -0.0000002   -0.0000012     0.9994991   -0.0026515 
   0.039672500     0.0087634   -0.1444691     0.0000010   -0.0000010     0.0000007    0.0000010     0.9992908   -0.0023881 
   0.039922000     0.0047464   -0.1448247    -0.0000003    0.0000010    -0.0000004    0.0000000     0.9997548   -0.0024077 
