! MS46122B
! 1746301/73750021
! 11/3/2023 2:29:42 PM
! C:\USERS\SPEGWAL\DOWNLOADS\SAURABH\REACH\NODES\FRONT END\MEASUREMENTS\MEASURED S-PARAMETERS_03-11-2023\MS3-MS4_MS1_CABLE\OPEN_SOURCE_S11.S2P
! CHANNEL.1
! TR.MEASUREMENT
! CORRECTED.DATA
# GHZ S RI R 50.0
! FREQ.GHZ         S11RE         S11IM         S21RE         S21IM         S12RE         S12IM         S22RE         S22IM         
!; PortSelection: Port_12
   0.001000000     0.8534571   -0.4844073    -0.0000039    0.0000023     0.0000011   -0.0000020     1.0016700   -0.0021572 
   0.001249500     0.7776273   -0.5955666    -0.0000003   -0.0000015     0.0000009   -0.0000017     1.0019030   -0.0016865 
   0.001499000     0.6905009   -0.6955820     0.0000015    0.0000013    -0.0000007    0.0000000     1.0019310   -0.0015806 
   0.001748500     0.5912759   -0.7835305    -0.0000009    0.0000012    -0.0000006    0.0000010     1.0018980   -0.0014259 
   0.001998000     0.4819053   -0.8568060     0.0000011   -0.0000001    -0.0000004    0.0000006     1.0017820   -0.0014407 
   0.002247500     0.3678916   -0.9166316     0.0000009    0.0000012    -0.0000006   -0.0000001     1.0019780   -0.0017544 
   0.002497000     0.2443154   -0.9567441    -0.0000005   -0.0000008     0.0000001   -0.0000002     1.0019800   -0.0016855 
   0.002746500     0.1174945   -0.9790976     0.0000000    0.0000010    -0.0000010   -0.0000002     1.0019440   -0.0017577 
   0.002996000    -0.0102146   -0.9835120    -0.0000003    0.0000007     0.0000009   -0.0000008     1.0019080   -0.0017189 
   0.003245500    -0.1359553   -0.9709705     0.0000005    0.0000003    -0.0000006   -0.0000004     1.0017830   -0.0015962 
   0.003495000    -0.2576129   -0.9420688    -0.0000003   -0.0000012    -0.0000013    0.0000005     1.0018660   -0.0016031 
   0.003744500    -0.3740595   -0.8979862     0.0000017   -0.0000005     0.0000006    0.0000007     1.0017920   -0.0015987 
   0.003994000    -0.4833937   -0.8397680    -0.0000002    0.0000007     0.0000002   -0.0000008     1.0017000   -0.0015816 
   0.004243500    -0.5838984   -0.7684488     0.0000006    0.0000001     0.0000022    0.0000007     1.0017930   -0.0018568 
   0.004493000    -0.6741842   -0.6852311     0.0000008    0.0000007     0.0000001   -0.0000001     1.0017850   -0.0019228 
   0.004742500    -0.7529658   -0.5917714    -0.0000017   -0.0000016    -0.0000012   -0.0000012     1.0017940   -0.0018680 
   0.004992000    -0.8189325   -0.4894675    -0.0000012    0.0000016    -0.0000007    0.0000000     1.0016880   -0.0018214 
   0.005241500    -0.8711330   -0.3801280     0.0000004    0.0000008     0.0000004    0.0000017     1.0016230   -0.0017748 
   0.005491000    -0.9090824   -0.2654936     0.0000012    0.0000006     0.0000002    0.0000006     1.0015610   -0.0017537 
   0.005740500    -0.9321644   -0.1472269     0.0000012   -0.0000004    -0.0000006    0.0000000     1.0014200   -0.0017191 
   0.005990000    -0.9401302   -0.0273801    -0.0000008   -0.0000014    -0.0000004   -0.0000001     1.0013740   -0.0016504 
   0.006239500    -0.9329548    0.0919756     0.0000009    0.0000000    -0.0000003    0.0000012     1.0011890   -0.0015951 
   0.006489000    -0.9107695    0.2089636     0.0000000   -0.0000011     0.0000006    0.0000006     1.0010300   -0.0015478 
   0.006738500    -0.8742090    0.3220116     0.0000004    0.0000001    -0.0000004   -0.0000012     1.0008470   -0.0014781 
   0.006988000    -0.8236659    0.4294212     0.0000010    0.0000008    -0.0000003    0.0000010     1.0007680   -0.0014319 
   0.007237500    -0.7600901    0.5292739    -0.0000003   -0.0000003    -0.0000001    0.0000003     1.0006840   -0.0013562 
   0.007487000    -0.6848609    0.6201262     0.0000008   -0.0000002     0.0000007   -0.0000002     1.0005530   -0.0013466 
   0.007736500    -0.5990753    0.7004096     0.0000002    0.0000015    -0.0000007   -0.0000005     1.0005800   -0.0013428 
   0.007986000    -0.5039478    0.7692525     0.0000002    0.0000000    -0.0000002   -0.0000001     1.0005970   -0.0013539 
   0.008235500    -0.4009659    0.8254817     0.0000009    0.0000007     0.0000009    0.0000008     1.0006190   -0.0013514 
   0.008485000    -0.2922421    0.8685238    -0.0000012    0.0000001    -0.0000009    0.0000006     1.0006250   -0.0014249 
   0.008734500    -0.1790522    0.8974140    -0.0000005    0.0000004     0.0000004    0.0000005     1.0005950   -0.0014250 
   0.008984000    -0.0633416    0.9118175     0.0000004   -0.0000006    -0.0000008   -0.0000001     1.0005720   -0.0014010 
   0.009233500     0.0533443    0.9115810    -0.0000002    0.0000002    -0.0000013    0.0000001     1.0005770   -0.0014636 
   0.009483000     0.1688711    0.8969549     0.0000004   -0.0000015     0.0000004   -0.0000002     1.0005950   -0.0014105 
   0.009732500     0.2820590    0.8678195     0.0000005   -0.0000003    -0.0000007    0.0000009     1.0006190   -0.0014816 
   0.009982000     0.3906975    0.8246166     0.0000005   -0.0000010     0.0000001    0.0000003     1.0005650   -0.0014600 
   0.010231500     0.4930408    0.7681906    -0.0000007   -0.0000012    -0.0000002    0.0000010     1.0005060   -0.0014130 
   0.010481000     0.5873284    0.6991150     0.0000006    0.0000002     0.0000007    0.0000000     1.0005270   -0.0014741 
   0.010730500     0.6723071    0.6184113     0.0000009   -0.0000009     0.0000003    0.0000006     1.0005560   -0.0014803 
   0.010980000     0.7466372    0.5274232    -0.0000003    0.0000018     0.0000000    0.0000003     1.0005230   -0.0014747 
   0.011229500     0.8087779    0.4277548     0.0000002   -0.0000008     0.0000004   -0.0000006     1.0004870   -0.0014336 
   0.011479000     0.8578465    0.3205855     0.0000007   -0.0000013     0.0000002    0.0000001     1.0004750   -0.0015065 
   0.011728500     0.8927122    0.2080331    -0.0000007    0.0000003    -0.0000001   -0.0000001     1.0004620   -0.0015486 
   0.011978000     0.9128132    0.0917623     0.0000004    0.0000000     0.0000003   -0.0000002     1.0004660   -0.0015346 
   0.012227500     0.9177923   -0.0262697    -0.0000002   -0.0000002    -0.0000004    0.0000010     1.0004350   -0.0014937 
   0.012477000     0.9075794   -0.1442324     0.0000005   -0.0000005     0.0000018    0.0000004     1.0004650   -0.0014980 
   0.012726500     0.8821161   -0.2598660    -0.0000002   -0.0000009     0.0000006   -0.0000006     1.0005170   -0.0014755 
   0.012976000     0.8421461   -0.3711542     0.0000009    0.0000002    -0.0000010    0.0000006     1.0004850   -0.0014946 
   0.013225500     0.7880852   -0.4763509    -0.0000012    0.0000000    -0.0000003    0.0000011     1.0004870   -0.0015589 
   0.013475000     0.7208351   -0.5737091     0.0000013   -0.0000003     0.0000003   -0.0000001     1.0004900   -0.0015745 
   0.013724500     0.6414471   -0.6615844     0.0000018    0.0000005    -0.0000009    0.0000004     1.0004900   -0.0015193 
   0.013974000     0.5513914   -0.7384121     0.0000001   -0.0000002    -0.0000004    0.0000013     1.0004340   -0.0015209 
   0.014223500     0.4524447   -0.8030474     0.0000006   -0.0000003     0.0000009   -0.0000002     1.0003950   -0.0015836 
   0.014473000     0.3458570   -0.8540171     0.0000003   -0.0000007    -0.0000004    0.0000003     1.0004120   -0.0015945 
   0.014722500     0.2339415   -0.8905202    -0.0000006    0.0000001    -0.0000004    0.0000002     1.0004620   -0.0015634 
   0.014972000     0.1182083   -0.9125516     0.0000011   -0.0000008     0.0000013   -0.0000002     1.0003170   -0.0016279 
   0.015221500     0.0010962   -0.9193926    -0.0000010   -0.0000003    -0.0000001    0.0000001     1.0004430   -0.0016168 
   0.015471000    -0.1156775   -0.9110935    -0.0000009   -0.0000004     0.0000000    0.0000000     1.0003830   -0.0016657 
   0.015720500    -0.2300825   -0.8879944    -0.0000010   -0.0000013    -0.0000001    0.0000010     1.0003800   -0.0017320 
   0.015970000    -0.3403217   -0.8503572     0.0000002   -0.0000001     0.0000005    0.0000003     1.0003650   -0.0015735 
   0.016219500    -0.4446195   -0.7991102     0.0000010   -0.0000004     0.0000009   -0.0000004     1.0003140   -0.0017032 
   0.016469000    -0.5412513   -0.7349554    -0.0000002    0.0000008    -0.0000005   -0.0000008     1.0003320   -0.0016932 
   0.016718500    -0.6286713   -0.6594290    -0.0000001    0.0000003     0.0000000   -0.0000010     1.0003530   -0.0016885 
   0.016968000    -0.7054595   -0.5736154     0.0000007   -0.0000003    -0.0000005    0.0000003     1.0003380   -0.0016218 
   0.017217500    -0.7703368   -0.4790957    -0.0000015    0.0000011    -0.0000003    0.0000007     1.0002280   -0.0016452 
   0.017467000    -0.8227856   -0.3774720     0.0000002    0.0000004     0.0000002   -0.0000006     1.0003060   -0.0017079 
   0.017716500    -0.8618506   -0.2701616    -0.0000002    0.0000000    -0.0000003    0.0000007     1.0002360   -0.0017116 
   0.017966000    -0.8871416   -0.1591045     0.0000009   -0.0000010    -0.0000005   -0.0000011     1.0003580   -0.0017269 
   0.018215500    -0.8980615   -0.0460443    -0.0000011    0.0000017     0.0000006    0.0000002     1.0002340   -0.0017412 
   0.018465000    -0.8947664    0.0670742    -0.0000002   -0.0000007     0.0000003   -0.0000001     1.0002030   -0.0017581 
   0.018714500    -0.8771453    0.1788718    -0.0000003    0.0000001     0.0000004    0.0000001     1.0002610   -0.0017468 
   0.018964000    -0.8457859    0.2874568    -0.0000005    0.0000002     0.0000004    0.0000002     1.0001770   -0.0017495 
   0.019213500    -0.8011945    0.3910352    -0.0000001    0.0000001     0.0000004    0.0000011     1.0002580   -0.0017203 
   0.019463000    -0.7440616    0.4878769    -0.0000003    0.0000005    -0.0000003    0.0000008     1.0001830   -0.0018247 
   0.019712500    -0.6752427    0.5769341    -0.0000005   -0.0000016     0.0000009   -0.0000001     1.0002310   -0.0018369 
   0.019962000    -0.5961487    0.6564923    -0.0000008    0.0000000     0.0000006   -0.0000011     1.0001760   -0.0018207 
   0.020211500    -0.5076088    0.7253851     0.0000003   -0.0000007    -0.0000003    0.0000010     1.0002050   -0.0018961 
   0.020461000    -0.4110170    0.7829019    -0.0000005    0.0000002    -0.0000001    0.0000001     1.0001180   -0.0018933 
   0.020710500    -0.3078901    0.8277097     0.0000009    0.0000005    -0.0000001   -0.0000006     1.0001060   -0.0018848 
   0.020960000    -0.2001529    0.8593941    -0.0000001    0.0000011     0.0000001    0.0000014     1.0000760   -0.0019679 
   0.021209500    -0.0891908    0.8770037    -0.0000007   -0.0000001    -0.0000003    0.0000006     1.0001250   -0.0019119 
   0.021459000     0.0232513    0.8806600    -0.0000006   -0.0000002     0.0000008    0.0000005     1.0001260   -0.0019065 
   0.021708500     0.1352695    0.8700649    -0.0000002    0.0000000    -0.0000007    0.0000012     1.0001630   -0.0019562 
   0.021958000     0.2454082    0.8454681     0.0000002    0.0000019     0.0000002    0.0000000     1.0000900   -0.0019685 
   0.022207500     0.3515319    0.8071287    -0.0000005   -0.0000006    -0.0000004   -0.0000005     1.0000510   -0.0019751 
   0.022457000     0.4520960    0.7555314     0.0000002   -0.0000001     0.0000020    0.0000001     1.0000440   -0.0019968 
   0.022706500     0.5452877    0.6914931    -0.0000007    0.0000007    -0.0000002    0.0000003     1.0000510   -0.0019709 
   0.022956000     0.6298816    0.6161495    -0.0000002    0.0000001     0.0000000   -0.0000005     1.0000960   -0.0019000 
   0.023205500     0.7043705    0.5301973     0.0000000    0.0000000     0.0000004    0.0000004     0.9999966   -0.0019770 
   0.023455000     0.7672255    0.4354396     0.0000000   -0.0000001    -0.0000011    0.0000013     0.9999483   -0.0020340 
   0.023704500     0.8174370    0.3336289    -0.0000006    0.0000015     0.0000011    0.0000011     1.0000360   -0.0020445 
   0.023954000     0.8542813    0.2257828     0.0000001    0.0000008     0.0000007   -0.0000009     0.9998764   -0.0019848 
   0.024203500     0.8768986    0.1142359    -0.0000010   -0.0000004    -0.0000002    0.0000005     0.9999534   -0.0020370 
   0.024453000     0.8849803    0.0006052     0.0000003   -0.0000010     0.0000000    0.0000004     0.9999546   -0.0020127 
   0.024702500     0.8784575   -0.1134102     0.0000004    0.0000001    -0.0000005    0.0000006     0.9999673   -0.0020848 
   0.024952000     0.8573714   -0.2255152    -0.0000007    0.0000011    -0.0000002    0.0000004     0.9999702   -0.0020093 
   0.025201500     0.8221228   -0.3338934     0.0000014   -0.0000009     0.0000004    0.0000003     1.0003240   -0.0016112 
   0.025451000     0.7727768   -0.4369172     0.0000003   -0.0000003     0.0000003   -0.0000002     0.9998744   -0.0019618 
   0.025700500     0.7107527   -0.5327134    -0.0000008   -0.0000007    -0.0000003   -0.0000004     0.9999462   -0.0020673 
   0.025950000     0.6369247   -0.6196607    -0.0000002    0.0000004    -0.0000010   -0.0000006     0.9999359   -0.0020236 
   0.026199500     0.5526686   -0.6962692     0.0000005   -0.0000005     0.0000009   -0.0000002     0.9998691   -0.0020946 
   0.026449000     0.4593692   -0.7612724     0.0000006   -0.0000005     0.0000006   -0.0000005     0.9999039   -0.0021075 
   0.026698500     0.3586052   -0.8136055     0.0000010   -0.0000011    -0.0000001    0.0000003     0.9999812   -0.0021404 
   0.026948000     0.2522075   -0.8524937    -0.0000001   -0.0000009     0.0000002   -0.0000001     0.9998776   -0.0021066 
   0.027197500     0.1416975   -0.8772929    -0.0000001   -0.0000003     0.0000007   -0.0000005     0.9998577   -0.0020847 
   0.027447000     0.0292358   -0.8878077    -0.0000012    0.0000000     0.0000009   -0.0000015     0.9998007   -0.0021147 
   0.027696500    -0.0833462   -0.8836950     0.0000007   -0.0000007    -0.0000008   -0.0000010     0.9998272   -0.0021503 
   0.027946000    -0.1941806   -0.8653742    -0.0000001    0.0000002    -0.0000001    0.0000005     0.9998193   -0.0021785 
   0.028195500    -0.3015533   -0.8330773     0.0000002    0.0000000     0.0000008    0.0000005     0.9998454   -0.0021426 
   0.028445000    -0.4036457   -0.7873439    -0.0000003    0.0000008    -0.0000008   -0.0000001     0.9998015   -0.0021570 
   0.028694500    -0.4990025   -0.7293829    -0.0000009   -0.0000001     0.0000005    0.0000003     0.9997848   -0.0021509 
   0.028944000    -0.5859105   -0.6598983     0.0000001   -0.0000009    -0.0000002    0.0000006     0.9997353   -0.0022183 
   0.029193500    -0.6630700   -0.5802246    -0.0000008    0.0000006     0.0000001    0.0000002     0.9997988   -0.0021651 
   0.029443000    -0.7293026   -0.4916815     0.0000002   -0.0000005     0.0000004    0.0000001     0.9997222   -0.0021464 
   0.029692500    -0.7838477   -0.3957580     0.0000005    0.0000005    -0.0000002   -0.0000002     0.9996396   -0.0021871 
   0.029942000    -0.8256621   -0.2938581     0.0000010    0.0000008    -0.0000004    0.0000001     0.9996263   -0.0022555 
   0.030191500    -0.8542153   -0.1879032    -0.0000003   -0.0000006    -0.0000003   -0.0000007     0.9996893   -0.0022596 
   0.030441000    -0.8692479   -0.0792140     0.0000006   -0.0000011    -0.0000001   -0.0000014     0.9996537   -0.0021734 
   0.030690500    -0.8705387    0.0299385    -0.0000010    0.0000000    -0.0000002    0.0000009     0.9996567   -0.0023150 
   0.030940000    -0.8583007    0.1383415    -0.0000003    0.0000002     0.0000010    0.0000003     0.9996611   -0.0022972 
   0.031189500    -0.8324322    0.2444895    -0.0000006    0.0000004    -0.0000002   -0.0000005     0.9996566   -0.0023115 
   0.031439000    -0.7937711    0.3463041    -0.0000004    0.0000005    -0.0000009    0.0000009     0.9996359   -0.0022907 
   0.031688500    -0.7427533    0.4423351    -0.0000006    0.0000002     0.0000001   -0.0000006     0.9996239   -0.0022903 
   0.031938000    -0.6800384    0.5313127     0.0000003   -0.0000002    -0.0000007   -0.0000003     0.9995691   -0.0024156 
   0.032187500    -0.6069273    0.6116453     0.0000003    0.0000009    -0.0000014    0.0000002     0.9995726   -0.0023465 
   0.032437000    -0.5243603    0.6822244    -0.0000015   -0.0000002    -0.0000004    0.0000003     0.9996095   -0.0023179 
   0.032686500    -0.4333480    0.7421566     0.0000010    0.0000004     0.0000002   -0.0000013     0.9994460   -0.0021412 
   0.032936000    -0.3355393    0.7900118    -0.0000015    0.0000007     0.0000000    0.0000000     0.9995216   -0.0023957 
   0.033185500    -0.2325289    0.8254420     0.0000002   -0.0000007     0.0000005   -0.0000007     0.9993618   -0.0022006 
   0.033435000    -0.1257658    0.8474539     0.0000008    0.0000001    -0.0000002    0.0000003     0.9995442   -0.0024210 
   0.033684500    -0.0168235    0.8559566     0.0000002    0.0000000    -0.0000007   -0.0000003     0.9995414   -0.0023642 
   0.033934000     0.0923891    0.8506742    -0.0000014   -0.0000005     0.0000015    0.0000004     0.9995357   -0.0024587 
   0.034183500     0.2001899    0.8317251    -0.0000003    0.0000002    -0.0000009    0.0000002     0.9995003   -0.0025011 
   0.034433000     0.3049310    0.7991159    -0.0000004    0.0000002     0.0000003    0.0000011     0.9995628   -0.0024544 
   0.034682500     0.4048867    0.7534771     0.0000005    0.0000000    -0.0000015   -0.0000006     0.9994813   -0.0024988 
   0.034932000     0.4980320    0.6954424     0.0000008    0.0000000     0.0000003    0.0000007     0.9995354   -0.0024588 
   0.035181500     0.5834637    0.6258287     0.0000008   -0.0000002    -0.0000002    0.0000008     0.9994934   -0.0025015 
   0.035431000     0.6594234    0.5456470    -0.0000007   -0.0000016    -0.0000002    0.0000009     0.9994743   -0.0024607 
   0.035680500     0.7248239    0.4563805    -0.0000012   -0.0000006    -0.0000001   -0.0000002     0.9994962   -0.0024883 
   0.035930000     0.7781180    0.3594087    -0.0000004   -0.0000007    -0.0000007    0.0000003     0.9994796   -0.0025025 
   0.036179500     0.8186225    0.2561170     0.0000003   -0.0000006    -0.0000005   -0.0000008     0.9995004   -0.0025157 
   0.036429000     0.8455291    0.1485578    -0.0000001   -0.0000012    -0.0000015    0.0000015     0.9994676   -0.0025197 
   0.036678500     0.8583184    0.0379143     0.0000000    0.0000003    -0.0000013   -0.0000015     0.9995112   -0.0025168 
   0.036928000     0.8568082   -0.0730600    -0.0000004    0.0000003    -0.0000013    0.0000010     0.9995004   -0.0025834 
   0.037177500     0.8408185   -0.1832597    -0.0000011   -0.0000002     0.0000017    0.0000004     0.9995008   -0.0025558 
   0.037427000     0.8108296   -0.2905152     0.0000015    0.0000010    -0.0000005   -0.0000008     0.9995242   -0.0026253 
   0.037676500     0.7672709   -0.3926711    -0.0000003    0.0000017    -0.0000007    0.0000003     0.9994512   -0.0025281 
   0.037926000     0.7105290   -0.4887456     0.0000006    0.0000003    -0.0000007    0.0000005     0.9994552   -0.0025735 
   0.038175500     0.6421649   -0.5764157     0.0000001   -0.0000005     0.0000017    0.0000006     0.9995012   -0.0026206 
   0.038425000     0.5629264   -0.6543843     0.0000006   -0.0000006     0.0000009    0.0000003     0.9994937   -0.0025457 
   0.038674500     0.4745038   -0.7214956    -0.0000003    0.0000010     0.0000000   -0.0000001     0.9994675   -0.0026537 
   0.038924000     0.3782485   -0.7764366     0.0000004    0.0000007     0.0000004   -0.0000007     0.9994209   -0.0026379 
   0.039173500     0.2755296   -0.8184348     0.0000001    0.0000014     0.0000001   -0.0000013     0.9994640   -0.0026754 
   0.039423000     0.1688246   -0.8468844    -0.0000009   -0.0000005    -0.0000002   -0.0000008     0.9994463   -0.0026989 
   0.039672500     0.0594182   -0.8613605     0.0000001    0.0000007     0.0000005   -0.0000001     0.9992484   -0.0024559 
   0.039922000    -0.0504655   -0.8615605     0.0000012    0.0000005     0.0000007    0.0000004     0.9997333   -0.0024184 
