! MS46122B
! 1746301/73750021
! 11/3/2023 2:31:09 PM
! C:\USERS\SPEGWAL\DOWNLOADS\SAURABH\REACH\NODES\FRONT END\MEASUREMENTS\MEASURED S-PARAMETERS_03-11-2023\MS3-MS4_MS1_CABLE\10OHMS_SOURCE_S11.S2P
! CHANNEL.1
! TR.MEASUREMENT
! CORRECTED.DATA
# GHZ S RI R 50.0
! FREQ.GHZ         S11RE         S11IM         S21RE         S21IM         S12RE         S12IM         S22RE         S22IM         
!; PortSelection: Port_12
   0.001000000    -0.5455048    0.3422806    -0.0000039   -0.0000020    -0.0000010   -0.0000006     1.0015270   -0.0030104 
   0.001249500    -0.4957449    0.4103882    -0.0000011   -0.0000003     0.0000001   -0.0000007     1.0020240   -0.0016336 
   0.001499000    -0.4375440    0.4711762     0.0000009    0.0000007     0.0000005   -0.0000001     1.0019630   -0.0015903 
   0.001748500    -0.3722675    0.5235150     0.0000002   -0.0000010    -0.0000001    0.0000000     1.0018950   -0.0014597 
   0.001998000    -0.3010014    0.5670812     0.0000003   -0.0000002    -0.0000016    0.0000005     1.0018450   -0.0014297 
   0.002247500    -0.2248790    0.5957776     0.0000000   -0.0000003    -0.0000006    0.0000009     1.0019990   -0.0017363 
   0.002497000    -0.1458637    0.6192487     0.0000005    0.0000016     0.0000008   -0.0000005     1.0019880   -0.0016984 
   0.002746500    -0.0647870    0.6322474     0.0000007   -0.0000002    -0.0000005    0.0000004     1.0019280   -0.0016316 
   0.002996000     0.0172415    0.6348688    -0.0000008   -0.0000010    -0.0000008   -0.0000006     1.0018880   -0.0017441 
   0.003245500     0.0990313    0.6269274     0.0000015   -0.0000012    -0.0000004    0.0000003     1.0018510   -0.0015745 
   0.003495000     0.1786586    0.6088428    -0.0000005   -0.0000018     0.0000005   -0.0000002     1.0019220   -0.0016331 
   0.003744500     0.2554332    0.5805538     0.0000000   -0.0000004    -0.0000004   -0.0000002     1.0017580   -0.0015771 
   0.003994000     0.3275755    0.5427935     0.0000004    0.0000011    -0.0000002   -0.0000003     1.0017550   -0.0015742 
   0.004243500     0.3944894    0.4960199    -0.0000011   -0.0000004    -0.0000009   -0.0000003     1.0018560   -0.0019229 
   0.004493000     0.4545438    0.4413002    -0.0000002   -0.0000012    -0.0000011   -0.0000006     1.0018040   -0.0019281 
   0.004742500     0.5069653    0.3793499    -0.0000010    0.0000006     0.0000003    0.0000005     1.0018040   -0.0018805 
   0.004992000     0.5509789    0.3113990    -0.0000003   -0.0000008    -0.0000001   -0.0000012     1.0016970   -0.0018186 
   0.005241500     0.5860075    0.2383680     0.0000008    0.0000000    -0.0000004   -0.0000005     1.0016340   -0.0017747 
   0.005491000     0.6112542    0.1616031    -0.0000007    0.0000003     0.0000001   -0.0000003     1.0015450   -0.0017616 
   0.005740500     0.6266841    0.0821895     0.0000000    0.0000012    -0.0000002   -0.0000001     1.0014830   -0.0017201 
   0.005990000     0.6317248    0.0016062     0.0000007    0.0000015    -0.0000009    0.0000001     1.0013930   -0.0016786 
   0.006239500     0.6265999   -0.0786881    -0.0000012    0.0000004     0.0000002   -0.0000001     1.0011830   -0.0016210 
   0.006489000     0.6112499   -0.1577518     0.0000000    0.0000007    -0.0000005   -0.0000008     1.0010230   -0.0015594 
   0.006738500     0.5859809   -0.2337805     0.0000002   -0.0000013     0.0000002   -0.0000015     1.0008770   -0.0014580 
   0.006988000     0.5511068   -0.3063045    -0.0000015    0.0000009     0.0000006   -0.0000003     1.0007500   -0.0014522 
   0.007237500     0.5075711   -0.3736500    -0.0000010   -0.0000011     0.0000018    0.0000004     1.0006480   -0.0013487 
   0.007487000     0.4556174   -0.4349293     0.0000012   -0.0000001     0.0000010   -0.0000007     1.0005500   -0.0013458 
   0.007736500     0.3967160   -0.4889286    -0.0000008   -0.0000007    -0.0000003   -0.0000007     1.0006120   -0.0013889 
   0.007986000     0.3310233   -0.5350100    -0.0000006    0.0000011     0.0000006   -0.0000008     1.0006170   -0.0013678 
   0.008235500     0.2602873   -0.5722504    -0.0000012    0.0000001    -0.0000003    0.0000006     1.0006340   -0.0013734 
   0.008485000     0.1852966   -0.6001935     0.0000000    0.0000001    -0.0000008   -0.0000006     1.0006210   -0.0014017 
   0.008734500     0.1074895   -0.6181756    -0.0000001    0.0000009    -0.0000001   -0.0000004     1.0006060   -0.0014649 
   0.008984000     0.0281544   -0.6261697     0.0000001   -0.0000001     0.0000008    0.0000006     1.0005470   -0.0014187 
   0.009233500    -0.0510199   -0.6236125     0.0000004   -0.0000007    -0.0000003   -0.0000010     1.0005610   -0.0014444 
   0.009483000    -0.1295117   -0.6112973    -0.0000005    0.0000008     0.0000002    0.0000004     1.0006140   -0.0014504 
   0.009732500    -0.2057641   -0.5886777     0.0000001   -0.0000010    -0.0000008    0.0000010     1.0005940   -0.0015070 
   0.009982000    -0.2779872   -0.5567209    -0.0000002   -0.0000004     0.0000004   -0.0000003     1.0005390   -0.0014752 
   0.010231500    -0.3454396   -0.5159778     0.0000003   -0.0000016     0.0000002   -0.0000002     1.0005610   -0.0014154 
   0.010481000    -0.4069445   -0.4669867    -0.0000006    0.0000001    -0.0000001   -0.0000001     1.0005580   -0.0014728 
   0.010730500    -0.4615937   -0.4108006     0.0000013   -0.0000013    -0.0000003    0.0000005     1.0006100   -0.0014332 
   0.010980000    -0.5086958   -0.3479042    -0.0000012    0.0000008    -0.0000002   -0.0000016     1.0005240   -0.0014679 
   0.011229500    -0.5470028   -0.2801332    -0.0000007    0.0000001     0.0000005    0.0000000     1.0005040   -0.0014131 
   0.011479000    -0.5764761   -0.2081738    -0.0000003    0.0000019    -0.0000011    0.0000000     1.0004590   -0.0015173 
   0.011728500    -0.5963324   -0.1332221     0.0000006   -0.0000011     0.0000002    0.0000006     1.0004640   -0.0015684 
   0.011978000    -0.6068459   -0.0565482    -0.0000006    0.0000007    -0.0000011    0.0000002     1.0004080   -0.0015148 
   0.012227500    -0.6073036    0.0208003     0.0000008   -0.0000008    -0.0000008   -0.0000012     1.0004460   -0.0015431 
   0.012477000    -0.5979973    0.0971839     0.0000014   -0.0000003    -0.0000002   -0.0000003     1.0004320   -0.0015651 
   0.012726500    -0.5792167    0.1717285    -0.0000002    0.0000001     0.0000014    0.0000010     1.0004970   -0.0015606 
   0.012976000    -0.5512046    0.2430973    -0.0000006    0.0000003     0.0000020    0.0000003     1.0004710   -0.0015270 
   0.013225500    -0.5145941    0.3102095     0.0000005    0.0000000    -0.0000008    0.0000012     1.0005010   -0.0015834 
   0.013475000    -0.4696648    0.3722349    -0.0000010   -0.0000010     0.0000007   -0.0000005     1.0004480   -0.0015341 
   0.013724500    -0.4175217    0.4277568     0.0000001   -0.0000002     0.0000006    0.0000012     1.0004480   -0.0015188 
   0.013974000    -0.3587595    0.4764827     0.0000001   -0.0000009    -0.0000010    0.0000000     1.0004220   -0.0016300 
   0.014223500    -0.2946058    0.5172317    -0.0000005    0.0000007     0.0000003    0.0000004     1.0003240   -0.0017612 
   0.014473000    -0.2256284    0.5495662     0.0000000    0.0000000    -0.0000002    0.0000004     1.0004150   -0.0016042 
   0.014722500    -0.1532981    0.5729190     0.0000010    0.0000003     0.0000004   -0.0000004     1.0004590   -0.0015979 
   0.014972000    -0.0784840    0.5869780     0.0000009   -0.0000012    -0.0000004   -0.0000006     1.0003270   -0.0016435 
   0.015221500    -0.0026018    0.5914400    -0.0000003    0.0000009     0.0000010    0.0000001     1.0004570   -0.0016465 
   0.015471000     0.0732938    0.5862220    -0.0000016    0.0000006     0.0000002    0.0000001     1.0003930   -0.0016697 
   0.015720500     0.1475511    0.5716022     0.0000006    0.0000000     0.0000002   -0.0000001     1.0003890   -0.0017790 
   0.015970000     0.2197292    0.5475050    -0.0000003   -0.0000004    -0.0000006   -0.0000007     1.0003600   -0.0015961 
   0.016219500     0.2880923    0.5144807     0.0000003    0.0000000    -0.0000006    0.0000009     1.0003320   -0.0016873 
   0.016469000     0.3520225    0.4729765    -0.0000007   -0.0000002     0.0000002   -0.0000001     1.0003190   -0.0016996 
   0.016718500     0.4100842    0.4237236    -0.0000003   -0.0000012     0.0000000    0.0000002     1.0003700   -0.0016420 
   0.016968000     0.4614612    0.3674642     0.0000007    0.0000000    -0.0000004    0.0000001     1.0003270   -0.0016296 
   0.017217500     0.5051569    0.3051182     0.0000004   -0.0000013    -0.0000006    0.0000003     1.0002450   -0.0016883 
   0.017467000     0.5405268    0.2375222     0.0000005   -0.0000003    -0.0000006   -0.0000008     1.0002790   -0.0017181 
   0.017716500     0.5670895    0.1659228     0.0000000    0.0000001     0.0000001    0.0000006     1.0001940   -0.0017842 
   0.017966000     0.5842216    0.0915027     0.0000014    0.0000008    -0.0000001    0.0000002     1.0003210   -0.0017181 
   0.018215500     0.5916170    0.0155143     0.0000001   -0.0000003     0.0000002   -0.0000006     1.0001620   -0.0017701 
   0.018465000     0.5893366   -0.0607054    -0.0000001   -0.0000003     0.0000001   -0.0000002     1.0002600   -0.0017679 
   0.018714500     0.5770545   -0.1360085     0.0000001    0.0000006     0.0000005    0.0000001     1.0002460   -0.0017611 
   0.018964000     0.5554799   -0.2092208    -0.0000013    0.0000002    -0.0000008   -0.0000001     1.0001760   -0.0017468 
   0.019213500     0.5243948   -0.2790596    -0.0000006   -0.0000006    -0.0000003    0.0000005     1.0002550   -0.0017643 
   0.019463000     0.4847265   -0.3441266     0.0000002    0.0000004     0.0000001    0.0000008     1.0001690   -0.0017900 
   0.019712500     0.4371079   -0.4036747    -0.0000015    0.0000006    -0.0000006    0.0000010     1.0001520   -0.0018817 
   0.019962000     0.3822793   -0.4563985    -0.0000008   -0.0000003    -0.0000004    0.0000007     1.0001600   -0.0018562 
   0.020211500     0.3211588   -0.5016994    -0.0000009   -0.0000004     0.0000009    0.0000000     1.0002250   -0.0018991 
   0.020461000     0.2544402   -0.5388082    -0.0000002    0.0000002     0.0000003    0.0000011     1.0001300   -0.0019100 
   0.020710500     0.1839889   -0.5669586     0.0000001   -0.0000007    -0.0000012    0.0000002     1.0000530   -0.0019338 
   0.020960000     0.1105178   -0.5857493     0.0000004    0.0000015     0.0000002   -0.0000005     1.0000770   -0.0019556 
   0.021209500     0.0353134   -0.5949310     0.0000009    0.0000017    -0.0000007    0.0000001     1.0001260   -0.0019277 
   0.021459000    -0.0401301   -0.5944470     0.0000005   -0.0000023    -0.0000003   -0.0000009     1.0000920   -0.0019076 
   0.021708500    -0.1152010   -0.5842125     0.0000008    0.0000000    -0.0000001    0.0000000     1.0001340   -0.0019584 
   0.021958000    -0.1878558   -0.5645972     0.0000001   -0.0000014    -0.0000003    0.0000004     1.0000830   -0.0019396 
   0.022207500    -0.2572600   -0.5359135    -0.0000001    0.0000004     0.0000001   -0.0000004     1.0001040   -0.0020073 
   0.022457000    -0.3225024   -0.4985871     0.0000013    0.0000000    -0.0000007   -0.0000007     1.0000580   -0.0020094 
   0.022706500    -0.3822449   -0.4536282    -0.0000002    0.0000003    -0.0000006   -0.0000004     1.0000340   -0.0019692 
   0.022956000    -0.4356046   -0.4011394    -0.0000001   -0.0000007     0.0000009   -0.0000009     1.0000450   -0.0019418 
   0.023205500    -0.4815960   -0.3426647    -0.0000004   -0.0000003     0.0000003   -0.0000004     0.9999784   -0.0019602 
   0.023455000    -0.5198988   -0.2789946    -0.0000004   -0.0000002    -0.0000002    0.0000008     0.9999801   -0.0020057 
   0.023704500    -0.5496265   -0.2110860     0.0000003    0.0000007     0.0000003    0.0000000     0.9999785   -0.0020901 
   0.023954000    -0.5705926   -0.1401159     0.0000004   -0.0000003     0.0000007   -0.0000013     0.9998856   -0.0019962 
   0.024203500    -0.5823449   -0.0670681     0.0000008   -0.0000010    -0.0000006    0.0000004     0.9999686   -0.0020481 
   0.024453000    -0.5847571    0.0065857     0.0000001    0.0000003    -0.0000001    0.0000002     0.9999124   -0.0020019 
   0.024702500    -0.5778902    0.0800396     0.0000009   -0.0000006    -0.0000002   -0.0000015     0.9999349   -0.0020419 
   0.024952000    -0.5619065    0.1516513    -0.0000005   -0.0000005     0.0000002    0.0000002     0.9999287   -0.0020110 
   0.025201500    -0.5367060    0.2204936    -0.0000001   -0.0000002     0.0000008   -0.0000002     1.0003250   -0.0017005 
   0.025451000    -0.5034162    0.2859878     0.0000006    0.0000002     0.0000003   -0.0000014     0.9998815   -0.0019919 
   0.025700500    -0.4619873    0.3465683    -0.0000008    0.0000002     0.0000016   -0.0000003     0.9999236   -0.0020607 
   0.025950000    -0.4133826    0.4014288     0.0000005    0.0000003    -0.0000001   -0.0000001     0.9999129   -0.0020601 
   0.026199500    -0.3581451    0.4496803     0.0000002    0.0000000     0.0000005    0.0000004     0.9998572   -0.0020419 
   0.026449000    -0.2975590    0.4905086     0.0000002    0.0000006     0.0000000   -0.0000011     0.9998521   -0.0021083 
   0.026698500    -0.2320724    0.5234676     0.0000001   -0.0000001     0.0000003    0.0000012     0.9999331   -0.0021125 
   0.026948000    -0.1630679    0.5477778    -0.0000006   -0.0000009    -0.0000001    0.0000016     0.9998444   -0.0021001 
   0.027197500    -0.0913858    0.5632662     0.0000004    0.0000007    -0.0000018    0.0000001     0.9998354   -0.0020791 
   0.027447000    -0.0183955    0.5695278     0.0000001    0.0000001     0.0000001    0.0000002     0.9998123   -0.0021208 
   0.027696500     0.0549649    0.5665206    -0.0000002   -0.0000009    -0.0000010    0.0000014     0.9998072   -0.0021217 
   0.027946000     0.1271143    0.5542619    -0.0000014    0.0000011     0.0000002   -0.0000010     0.9997800   -0.0022361 
   0.028195500     0.1974636    0.5326742    -0.0000008   -0.0000003     0.0000013   -0.0000006     0.9998086   -0.0021698 
   0.028445000     0.2643348    0.5024707     0.0000000   -0.0000003    -0.0000004    0.0000005     0.9997711   -0.0021552 
   0.028694500     0.3270941    0.4639699    -0.0000011    0.0000014     0.0000004   -0.0000005     0.9997995   -0.0021390 
   0.028944000     0.3843368    0.4176781     0.0000002    0.0000006    -0.0000008   -0.0000009     0.9998071   -0.0021535 
   0.029193500     0.4353595    0.3645355     0.0000008    0.0000002    -0.0000008   -0.0000010     0.9997175   -0.0021847 
   0.029443000     0.4789832    0.3052323     0.0000015    0.0000005    -0.0000006   -0.0000002     0.9996747   -0.0021985 
   0.029692500     0.5148137    0.2408542     0.0000003    0.0000008     0.0000003   -0.0000004     0.9996032   -0.0022130 
   0.029942000     0.5421360    0.1721219    -0.0000015   -0.0000004    -0.0000001    0.0000001     0.9995939   -0.0022571 
   0.030191500     0.5602531    0.1005860    -0.0000008    0.0000000    -0.0000009   -0.0000001     0.9996693   -0.0022442 
   0.030441000     0.5691715    0.0272986     0.0000011    0.0000000     0.0000002   -0.0000010     0.9996583   -0.0021440 
   0.030690500     0.5684550   -0.0465368     0.0000007    0.0000006    -0.0000003   -0.0000008     0.9996276   -0.0023229 
   0.030940000     0.5584697   -0.1195406     0.0000015    0.0000006    -0.0000010   -0.0000002     0.9996356   -0.0023029 
   0.031189500     0.5389174   -0.1910965     0.0000003    0.0000002     0.0000003   -0.0000016     0.9996488   -0.0023214 
   0.031439000     0.5104935   -0.2591621     0.0000001   -0.0000004    -0.0000001   -0.0000014     0.9996290   -0.0023106 
   0.031688500     0.4735923   -0.3229349    -0.0000001   -0.0000001     0.0000001    0.0000012     0.9996269   -0.0022985 
   0.031938000     0.4287648   -0.3815425     0.0000018    0.0000000     0.0000002    0.0000022     0.9996017   -0.0023179 
   0.032187500     0.3769300   -0.4336731    -0.0000002    0.0000001     0.0000007    0.0000008     0.9995677   -0.0023459 
   0.032437000     0.3185422   -0.4789125    -0.0000016   -0.0000009    -0.0000005   -0.0000005     0.9995703   -0.0023063 
   0.032686500     0.2553821   -0.5157895     0.0000007   -0.0000004    -0.0000006   -0.0000010     0.9994285   -0.0021135 
   0.032936000     0.1876736   -0.5448082    -0.0000006   -0.0000001     0.0000008   -0.0000004     0.9995347   -0.0023985 
   0.033185500     0.1170592   -0.5643138     0.0000006    0.0000010    -0.0000004   -0.0000002     0.9993830   -0.0021776 
   0.033435000     0.0447125   -0.5751824     0.0000004    0.0000003    -0.0000010    0.0000005     0.9995208   -0.0024482 
   0.033684500    -0.0286444   -0.5763341     0.0000010   -0.0000002     0.0000004   -0.0000001     0.9995171   -0.0023998 
   0.033934000    -0.1010224   -0.5682011     0.0000000    0.0000007    -0.0000001    0.0000002     0.9995682   -0.0024344 
   0.034183500    -0.1718548   -0.5509561    -0.0000004    0.0000002    -0.0000009    0.0000007     0.9994540   -0.0024773 
   0.034433000    -0.2396092   -0.5248565    -0.0000021    0.0000010     0.0000003   -0.0000005     0.9995120   -0.0024846 
   0.034682500    -0.3034067   -0.4905013    -0.0000008    0.0000002    -0.0000001   -0.0000013     0.9994768   -0.0024718 
   0.034932000    -0.3623994   -0.4482820    -0.0000003   -0.0000003     0.0000018   -0.0000004     0.9995398   -0.0025041 
   0.035181500    -0.4152125   -0.3989628     0.0000002   -0.0000002    -0.0000014   -0.0000001     0.9994659   -0.0025087 
   0.035431000    -0.4614270   -0.3434905    -0.0000002   -0.0000007     0.0000009   -0.0000015     0.9994416   -0.0024864 
   0.035680500    -0.5000570   -0.2828848     0.0000001   -0.0000007     0.0000011   -0.0000010     0.9994537   -0.0024740 
   0.035930000    -0.5305968   -0.2179063     0.0000001   -0.0000001     0.0000002   -0.0000022     0.9994574   -0.0025124 
   0.036179500    -0.5527924   -0.1497342    -0.0000010    0.0000001    -0.0000002    0.0000001     0.9994830   -0.0025026 
   0.036429000    -0.5661516   -0.0793924     0.0000004   -0.0000006    -0.0000006   -0.0000007     0.9994448   -0.0025426 
   0.036678500    -0.5706037   -0.0081146    -0.0000001   -0.0000003     0.0000006   -0.0000002     0.9994798   -0.0025389 
   0.036928000    -0.5660454    0.0632721    -0.0000005    0.0000004    -0.0000012   -0.0000008     0.9994742   -0.0026047 
   0.037177500    -0.5526418    0.1331160    -0.0000007    0.0000002     0.0000005   -0.0000003     0.9994705   -0.0025639 
   0.037427000    -0.5304095    0.2007896    -0.0000001   -0.0000009     0.0000002   -0.0000008     0.9994664   -0.0026631 
   0.037676500    -0.5000107    0.2650995    -0.0000002    0.0000006     0.0000013   -0.0000004     0.9994366   -0.0025646 
   0.037926000    -0.4617532    0.3250726     0.0000000   -0.0000003     0.0000010    0.0000005     0.9994221   -0.0025852 
   0.038175500    -0.4163632    0.3797963    -0.0000009   -0.0000010    -0.0000001   -0.0000007     0.9994659   -0.0026257 
   0.038425000    -0.3643742    0.4284290     0.0000014    0.0000002    -0.0000002    0.0000007     0.9994713   -0.0025626 
   0.038674500    -0.3069733    0.4700030     0.0000003   -0.0000004     0.0000004   -0.0000002     0.9994460   -0.0026635 
   0.038924000    -0.2445999    0.5039384    -0.0000008    0.0000015    -0.0000002    0.0000002     0.9994108   -0.0026601 
   0.039173500    -0.1785436    0.5299621     0.0000003   -0.0000005     0.0000003   -0.0000005     0.9994503   -0.0026862 
   0.039423000    -0.1095555    0.5474531    -0.0000013    0.0000005     0.0000002    0.0000003     0.9994457   -0.0026974 
   0.039672500    -0.0392560    0.5558751     0.0000001    0.0000003     0.0000008   -0.0000011     0.9991803   -0.0025116 
   0.039922000     0.0319171    0.5558662    -0.0000006    0.0000002    -0.0000008   -0.0000012     0.9997456   -0.0024351 
