! MS46122B
! 1746301/73750021
! 11/3/2023 2:31:58 PM
! C:\USERS\SPEGWAL\DOWNLOADS\SAURABH\REACH\NODES\FRONT END\MEASUREMENTS\MEASURED S-PARAMETERS_03-11-2023\MS3-MS4_MS1_CABLE\250OHMS_SOURCE_S11.S2P
! CHANNEL.1
! TR.MEASUREMENT
! CORRECTED.DATA
# GHZ S RI R 50.0
! FREQ.GHZ         S11RE         S11IM         S21RE         S21IM         S12RE         S12IM         S22RE         S22IM         
!; PortSelection: Port_12
   0.001000000     0.5778345   -0.3609835    -0.0000042    0.0000009     0.0000008    0.0000009     1.0023310   -0.0015473 
   0.001249500     0.5261263   -0.4330972     0.0000010    0.0000002    -0.0000013    0.0000002     1.0019730   -0.0017095 
   0.001499000     0.4656348   -0.4960975     0.0000010    0.0000001     0.0000003    0.0000001     1.0019720   -0.0016088 
   0.001748500     0.3973647   -0.5496994    -0.0000002    0.0000014     0.0000011    0.0000015     1.0019180   -0.0014890 
   0.001998000     0.3234647   -0.5934263    -0.0000002    0.0000001     0.0000005   -0.0000009     1.0018690   -0.0014583 
   0.002247500     0.2492756   -0.6199964     0.0000011    0.0000011    -0.0000011    0.0000008     1.0020510   -0.0017452 
   0.002497000     0.1676850   -0.6444078    -0.0000010    0.0000003    -0.0000005   -0.0000002     1.0020010   -0.0017212 
   0.002746500     0.0840846   -0.6580116     0.0000013    0.0000003     0.0000000   -0.0000012     1.0019650   -0.0016378 
   0.002996000    -0.0003809   -0.6606479    -0.0000008    0.0000005     0.0000007    0.0000002     1.0019620   -0.0017309 
   0.003245500    -0.0841775   -0.6528007     0.0000000   -0.0000015    -0.0000001    0.0000010     1.0018670   -0.0015819 
   0.003495000    -0.1660429   -0.6342341    -0.0000001    0.0000009     0.0000000    0.0000004     1.0018010   -0.0016559 
   0.003744500    -0.2443280   -0.6057518     0.0000000    0.0000003    -0.0000001   -0.0000007     1.0017680   -0.0015969 
   0.003994000    -0.3182406   -0.5674543     0.0000009    0.0000001     0.0000000    0.0000000     1.0017780   -0.0015848 
   0.004243500    -0.3862829   -0.5204095     0.0000002   -0.0000011     0.0000006    0.0000008     1.0018500   -0.0018890 
   0.004493000    -0.4475704   -0.4652156    -0.0000003   -0.0000013     0.0000004   -0.0000015     1.0018840   -0.0020071 
   0.004742500    -0.5011460   -0.4028403     0.0000004    0.0000011     0.0000008    0.0000008     1.0018130   -0.0018862 
   0.004992000    -0.5462946   -0.3345845     0.0000004   -0.0000011    -0.0000004   -0.0000005     1.0017560   -0.0018960 
   0.005241500    -0.5821431   -0.2612375     0.0000010    0.0000016     0.0000002    0.0000002     1.0016390   -0.0017800 
   0.005491000    -0.6085172   -0.1843207     0.0000003   -0.0000006    -0.0000006   -0.0000003     1.0015550   -0.0017455 
   0.005740500    -0.6246574   -0.1046649     0.0000011    0.0000007     0.0000001    0.0000000     1.0015560   -0.0017110 
   0.005990000    -0.6305771   -0.0240788     0.0000009   -0.0000006    -0.0000003   -0.0000004     1.0013820   -0.0016719 
   0.006239500    -0.6264323    0.0563967     0.0000004   -0.0000001    -0.0000012    0.0000010     1.0012100   -0.0016265 
   0.006489000    -0.6119400    0.1354426    -0.0000003   -0.0000002     0.0000011   -0.0000003     1.0010710   -0.0015691 
   0.006738500    -0.5877901    0.2118323    -0.0000003   -0.0000003     0.0000004    0.0000009     1.0008850   -0.0014715 
   0.006988000    -0.5540959    0.2843670    -0.0000005    0.0000009     0.0000003   -0.0000015     1.0008240   -0.0014008 
   0.007237500    -0.5115757    0.3519815     0.0000007    0.0000004    -0.0000003    0.0000005     1.0006970   -0.0013705 
   0.007487000    -0.4611333    0.4134611     0.0000006    0.0000003    -0.0000008    0.0000004     1.0005340   -0.0013334 
   0.007736500    -0.4033494    0.4678641     0.0000006   -0.0000007    -0.0000004   -0.0000005     1.0006000   -0.0013845 
   0.007986000    -0.3392574    0.5145103     0.0000000    0.0000006     0.0000007   -0.0000001     1.0006300   -0.0013851 
   0.008235500    -0.2698499    0.5526766     0.0000005   -0.0000005     0.0000000   -0.0000008     1.0006570   -0.0013417 
   0.008485000    -0.1963791    0.5817891    -0.0000005    0.0000000    -0.0000007    0.0000004     1.0006320   -0.0013836 
   0.008734500    -0.1198273    0.6012265     0.0000005   -0.0000003    -0.0000004   -0.0000016     1.0006600   -0.0013875 
   0.008984000    -0.0417767    0.6110553     0.0000002   -0.0000004     0.0000007    0.0000001     1.0005590   -0.0014945 
   0.009233500     0.0367800    0.6106272     0.0000002    0.0000003     0.0000003   -0.0000003     1.0005950   -0.0014499 
   0.009483000     0.1148984    0.6004979     0.0000004    0.0000007     0.0000010   -0.0000008     1.0006190   -0.0014350 
   0.009732500     0.1911576    0.5806671    -0.0000002   -0.0000001    -0.0000003    0.0000013     1.0006090   -0.0014816 
   0.009982000     0.2643429    0.5511171    -0.0000004    0.0000004    -0.0000004   -0.0000010     1.0006070   -0.0014817 
   0.010231500     0.3328699    0.5127748    -0.0000005    0.0000010    -0.0000006   -0.0000004     1.0005860   -0.0014520 
   0.010481000     0.3963240    0.4658854     0.0000006   -0.0000010     0.0000015    0.0000002     1.0005600   -0.0014919 
   0.010730500     0.4531639    0.4112605    -0.0000001    0.0000011    -0.0000014   -0.0000002     1.0006220   -0.0014833 
   0.010980000     0.5026837    0.3497045     0.0000002    0.0000003     0.0000005    0.0000009     1.0005460   -0.0015049 
   0.011229500     0.5440366    0.2824634    -0.0000006   -0.0000001     0.0000006    0.0000004     1.0005150   -0.0014553 
   0.011479000     0.5763950    0.2102165     0.0000009    0.0000000    -0.0000003   -0.0000004     1.0004770   -0.0014991 
   0.011728500     0.5992113    0.1347686     0.0000005   -0.0000001     0.0000005    0.0000000     1.0004670   -0.0015263 
   0.011978000     0.6122200    0.0565827    -0.0000002    0.0000004    -0.0000008    0.0000003     1.0004730   -0.0015743 
   0.012227500     0.6150708   -0.0224861     0.0000017   -0.0000007    -0.0000006   -0.0000002     1.0004580   -0.0014858 
   0.012477000     0.6077586   -0.1014651    -0.0000001    0.0000013     0.0000005    0.0000012     1.0004730   -0.0015484 
   0.012726500     0.5903198   -0.1788956     0.0000001    0.0000001    -0.0000012    0.0000011     1.0004910   -0.0014943 
   0.012976000     0.5632179   -0.2533434     0.0000007    0.0000007    -0.0000009   -0.0000011     1.0005390   -0.0015456 
   0.013225500     0.5266392   -0.3235038     0.0000003    0.0000001     0.0000006    0.0000000     1.0005150   -0.0015378 
   0.013475000     0.4814243   -0.3884629     0.0000000   -0.0000001     0.0000005   -0.0000004     1.0004990   -0.0015077 
   0.013724500     0.4280900   -0.4471769     0.0000005    0.0000013    -0.0000003    0.0000011     1.0004950   -0.0015459 
   0.013974000     0.3677033   -0.4983721     0.0000002   -0.0000007    -0.0000007    0.0000004     1.0004690   -0.0015332 
   0.014223500     0.3013568   -0.5414085    -0.0000001    0.0000009    -0.0000014    0.0000001     1.0003900   -0.0016657 
   0.014473000     0.2298880   -0.5753958    -0.0000008   -0.0000005    -0.0000002   -0.0000010     1.0004140   -0.0015834 
   0.014722500     0.1550290   -0.6000397     0.0000005   -0.0000004     0.0000004    0.0000004     1.0004990   -0.0015752 
   0.014972000     0.0774459   -0.6147997    -0.0000001   -0.0000004     0.0000005   -0.0000022     1.0003230   -0.0016549 
   0.015221500    -0.0012679   -0.6192545    -0.0000008    0.0000009    -0.0000009    0.0000004     1.0004680   -0.0016125 
   0.015471000    -0.0793929   -0.6137759    -0.0000003   -0.0000005    -0.0000009   -0.0000003     1.0004050   -0.0016405 
   0.015720500    -0.1562846   -0.5982634    -0.0000003   -0.0000007     0.0000005   -0.0000001     1.0003610   -0.0017294 
   0.015970000    -0.2302727   -0.5732391     0.0000003    0.0000011    -0.0000013    0.0000005     1.0003810   -0.0015892 
   0.016219500    -0.3005250   -0.5388683    -0.0000003   -0.0000009    -0.0000006    0.0000007     1.0003500   -0.0016888 
   0.016469000    -0.3656597   -0.4957123    -0.0000008   -0.0000003     0.0000008    0.0000007     1.0003400   -0.0017070 
   0.016718500    -0.4244616   -0.4451506     0.0000011    0.0000000    -0.0000005   -0.0000003     1.0003410   -0.0016630 
   0.016968000    -0.4762949   -0.3873399    -0.0000002    0.0000004    -0.0000004    0.0000015     1.0003390   -0.0016122 
   0.017217500    -0.5202619   -0.3237937     0.0000010    0.0000003    -0.0000009    0.0000003     1.0002390   -0.0016989 
   0.017467000    -0.5558512   -0.2551157     0.0000007    0.0000014     0.0000007   -0.0000001     1.0003320   -0.0017223 
   0.017716500    -0.5822433   -0.1825963    -0.0000012   -0.0000002     0.0000001   -0.0000002     1.0002220   -0.0017546 
   0.017966000    -0.5993056   -0.1077124    -0.0000002    0.0000006    -0.0000001    0.0000001     1.0002880   -0.0016729 
   0.018215500    -0.6067098   -0.0312646     0.0000001    0.0000002     0.0000007    0.0000000     1.0002190   -0.0017474 
   0.018465000    -0.6043120    0.0452659     0.0000002    0.0000007    -0.0000001   -0.0000005     1.0002310   -0.0017743 
   0.018714500    -0.5924018    0.1208179    -0.0000007    0.0000005    -0.0000004    0.0000008     1.0002230   -0.0017560 
   0.018964000    -0.5710120    0.1942683     0.0000002    0.0000006     0.0000000    0.0000005     1.0002120   -0.0017900 
   0.019213500    -0.5405873    0.2641704     0.0000006   -0.0000006     0.0000010   -0.0000002     1.0002550   -0.0017366 
   0.019463000    -0.5017522    0.3297708     0.0000006    0.0000004    -0.0000011   -0.0000005     1.0001830   -0.0017724 
   0.019712500    -0.4549577    0.3897123     0.0000004    0.0000006     0.0000004    0.0000001     1.0002100   -0.0018219 
   0.019962000    -0.4010476    0.4432794     0.0000000   -0.0000003     0.0000002    0.0000005     1.0001790   -0.0018380 
   0.020211500    -0.3408278    0.4896400     0.0000012    0.0000001    -0.0000005    0.0000001     1.0002220   -0.0018723 
   0.020461000    -0.2751737    0.5281523     0.0000000    0.0000004    -0.0000009   -0.0000011     1.0001740   -0.0019020 
   0.020710500    -0.2051537    0.5579951    -0.0000005   -0.0000001    -0.0000003   -0.0000011     1.0000540   -0.0018836 
   0.020960000    -0.1320408    0.5788767     0.0000000    0.0000000     0.0000001   -0.0000014     1.0000730   -0.0019419 
   0.021209500    -0.0570081    0.5901548    -0.0000013    0.0000002     0.0000003   -0.0000009     1.0001470   -0.0019114 
   0.021459000     0.0190682    0.5919577     0.0000001   -0.0000004     0.0000004   -0.0000003     1.0001380   -0.0019398 
   0.021708500     0.0947738    0.5840595    -0.0000002   -0.0000004     0.0000001   -0.0000009     1.0001220   -0.0019377 
   0.021958000     0.1688857    0.5666989     0.0000003    0.0000006    -0.0000001    0.0000008     1.0001570   -0.0019501 
   0.022207500     0.2403833    0.5400681    -0.0000004    0.0000003    -0.0000020    0.0000004     1.0000570   -0.0019713 
   0.022457000     0.3078592    0.5045592    -0.0000002   -0.0000011    -0.0000009    0.0000001     1.0001130   -0.0020115 
   0.022706500     0.3703090    0.4607037    -0.0000005   -0.0000005     0.0000006    0.0000002     1.0000260   -0.0019056 
   0.022956000     0.4267014    0.4092267    -0.0000012    0.0000002     0.0000016    0.0000000     1.0000670   -0.0019047 
   0.023205500     0.4760846    0.3508929     0.0000007   -0.0000009    -0.0000008    0.0000007     1.0000320   -0.0019290 
   0.023455000     0.5176203    0.2867997     0.0000003    0.0000005     0.0000012    0.0000013     0.9999582   -0.0020052 
   0.023704500     0.5508363    0.2177615    -0.0000007    0.0000000     0.0000007   -0.0000013     0.9999990   -0.0020940 
   0.023954000     0.5748421    0.1453129     0.0000003   -0.0000002     0.0000003    0.0000005     0.9999048   -0.0019748 
   0.024203500     0.5891591    0.0700652    -0.0000004   -0.0000004    -0.0000002   -0.0000007     0.9999601   -0.0020109 
   0.024453000     0.5940107   -0.0063314    -0.0000013   -0.0000009    -0.0000006    0.0000011     0.9999431   -0.0020186 
   0.024702500     0.5888310   -0.0827940    -0.0000007   -0.0000009    -0.0000005   -0.0000002     0.9999666   -0.0020314 
   0.024952000     0.5739697   -0.1578935    -0.0000002   -0.0000009    -0.0000004    0.0000003     0.9999613   -0.0020023 
   0.025201500     0.5497803   -0.2304316    -0.0000007    0.0000001     0.0000009    0.0000004     1.0003260   -0.0016867 
   0.025451000     0.5161223   -0.2993298     0.0000001   -0.0000006     0.0000000   -0.0000006     0.9998830   -0.0020490 
   0.025700500     0.4740981   -0.3634499     0.0000004   -0.0000003    -0.0000007    0.0000005     0.9999591   -0.0020372 
   0.025950000     0.4240281   -0.4214678     0.0000000   -0.0000001     0.0000001   -0.0000002     0.9999270   -0.0019969 
   0.026199500     0.3673005   -0.4724461    -0.0000013    0.0000006     0.0000000   -0.0000002     0.9998645   -0.0020682 
   0.026449000     0.3043811   -0.5157681    -0.0000010   -0.0000003    -0.0000006    0.0000005     0.9998896   -0.0020888 
   0.026698500     0.2365827   -0.5506119     0.0000000    0.0000003     0.0000004   -0.0000004     0.9999979   -0.0021219 
   0.026948000     0.1649587   -0.5765179     0.0000014   -0.0000016    -0.0000001    0.0000012     0.9998871   -0.0021233 
   0.027197500     0.0904390   -0.5928769    -0.0000003    0.0000005     0.0000000    0.0000009     0.9997959   -0.0020912 
   0.027447000     0.0149283   -0.5996988    -0.0000021    0.0000004    -0.0000006    0.0000005     0.9998304   -0.0021187 
   0.027696500    -0.0609025   -0.5967076     0.0000003    0.0000004    -0.0000016   -0.0000004     0.9998314   -0.0021236 
   0.027946000    -0.1354129   -0.5841181     0.0000011   -0.0000003     0.0000000   -0.0000010     0.9997990   -0.0021965 
   0.028195500    -0.2078270   -0.5623214    -0.0000001   -0.0000010     0.0000003    0.0000002     0.9998541   -0.0021030 
   0.028445000    -0.2766635   -0.5312371    -0.0000019   -0.0000002    -0.0000001   -0.0000003     0.9998052   -0.0021326 
   0.028694500    -0.3407904   -0.4919103     0.0000001   -0.0000004     0.0000000    0.0000004     0.9998137   -0.0021269 
   0.028944000    -0.3993849   -0.4448531    -0.0000003    0.0000006     0.0000000   -0.0000003     0.9997278   -0.0022283 
   0.029193500    -0.4513246   -0.3908312    -0.0000014    0.0000002     0.0000000   -0.0000001     0.9997749   -0.0021897 
   0.029443000    -0.4960245   -0.3308845    -0.0000020   -0.0000003     0.0000008    0.0000001     0.9996929   -0.0021602 
   0.029692500    -0.5326791   -0.2657888     0.0000006   -0.0000008     0.0000003    0.0000002     0.9996464   -0.0022150 
   0.029942000    -0.5606414   -0.1966530     0.0000009   -0.0000006     0.0000005    0.0000001     0.9996061   -0.0022564 
   0.030191500    -0.5797505   -0.1247091     0.0000001   -0.0000016     0.0000002    0.0000004     0.9996822   -0.0022346 
   0.030441000    -0.5895714   -0.0513017     0.0000000   -0.0000002     0.0000011    0.0000000     0.9996544   -0.0021885 
   0.030690500    -0.5899648    0.0228963    -0.0000002    0.0000009     0.0000000   -0.0000008     0.9996650   -0.0023475 
   0.030940000    -0.5811366    0.0962073     0.0000001    0.0000005     0.0000000    0.0000002     0.9996713   -0.0023097 
   0.031189500    -0.5631524    0.1680099     0.0000009   -0.0000010    -0.0000027    0.0000005     0.9996882   -0.0023269 
   0.031439000    -0.5363662    0.2368248    -0.0000004   -0.0000005     0.0000005    0.0000004     0.9996173   -0.0022956 
   0.031688500    -0.5011820    0.3017026     0.0000000    0.0000001     0.0000001    0.0000002     0.9996518   -0.0022862 
   0.031938000    -0.4582802    0.3613894    -0.0000010   -0.0000011     0.0000014   -0.0000007     0.9994876   -0.0024119 
   0.032187500    -0.4080506    0.4153663    -0.0000003    0.0000007     0.0000010   -0.0000005     0.9995829   -0.0023483 
   0.032437000    -0.3515593    0.4625018     0.0000000    0.0000005     0.0000005   -0.0000012     0.9995671   -0.0023284 
   0.032686500    -0.2894078    0.5021250     0.0000000   -0.0000004     0.0000010   -0.0000004     0.9994428   -0.0021776 
   0.032936000    -0.2228947    0.5339310     0.0000004    0.0000000     0.0000000    0.0000002     0.9995278   -0.0023799 
   0.033185500    -0.1530482    0.5567573    -0.0000001   -0.0000002     0.0000023   -0.0000008     0.9994192   -0.0021606 
   0.033435000    -0.0806130    0.5709386    -0.0000003   -0.0000017     0.0000006    0.0000004     0.9995020   -0.0024499 
   0.033684500    -0.0068659    0.5756519     0.0000003    0.0000015    -0.0000016   -0.0000003     0.9995151   -0.0023845 
   0.033934000     0.0668542    0.5710699    -0.0000001    0.0000011     0.0000003   -0.0000013     0.9995520   -0.0024555 
   0.034183500     0.1393511    0.5571243     0.0000001   -0.0000015    -0.0000009    0.0000007     0.9994835   -0.0024648 
   0.034433000     0.2096036    0.5340893    -0.0000008   -0.0000011    -0.0000002   -0.0000006     0.9995348   -0.0024676 
   0.034682500     0.2764931    0.5023955     0.0000018   -0.0000001    -0.0000005    0.0000002     0.9994795   -0.0024852 
   0.034932000     0.3386734    0.4622925     0.0000002    0.0000002     0.0000012    0.0000005     0.9995271   -0.0024697 
   0.035181500     0.3955104    0.4147020    -0.0000009   -0.0000004    -0.0000005    0.0000020     0.9995074   -0.0025295 
   0.035431000     0.4457654    0.3598421    -0.0000004    0.0000004    -0.0000008    0.0000005     0.9994574   -0.0024990 
   0.035680500     0.4885395    0.2992603    -0.0000003   -0.0000011    -0.0000001    0.0000013     0.9994568   -0.0025597 
   0.035930000     0.5233546    0.2336093    -0.0000007    0.0000000     0.0000008    0.0000009     0.9994984   -0.0025224 
   0.036179500     0.5494897    0.1639664     0.0000003   -0.0000001    -0.0000011    0.0000013     0.9995087   -0.0025508 
   0.036429000     0.5664397    0.0916203     0.0000006   -0.0000011     0.0000014   -0.0000020     0.9994671   -0.0025394 
   0.036678500     0.5740305    0.0172586    -0.0000013    0.0000006     0.0000003   -0.0000009     0.9995079   -0.0025653 
   0.036928000     0.5720249   -0.0570446    -0.0000001    0.0000004     0.0000000    0.0000004     0.9995196   -0.0026272 
   0.037177500     0.5603659   -0.1306453     0.0000005    0.0000008    -0.0000017    0.0000004     0.9994820   -0.0025543 
   0.037427000     0.5393515   -0.2021332    -0.0000002    0.0000007    -0.0000012    0.0000002     0.9994839   -0.0026301 
   0.037676500     0.5093817   -0.2701283     0.0000001    0.0000007    -0.0000004    0.0000001     0.9994344   -0.0025455 
   0.037926000     0.4706487   -0.3341093     0.0000024   -0.0000004    -0.0000002    0.0000010     0.9994383   -0.0025813 
   0.038175500     0.4243253   -0.3922417    -0.0000011   -0.0000001     0.0000004   -0.0000016     0.9994877   -0.0026416 
   0.038425000     0.3707834   -0.4438974     0.0000012   -0.0000012     0.0000008    0.0000022     0.9994822   -0.0026464 
   0.038674500     0.3112078   -0.4881740     0.0000008   -0.0000004     0.0000002    0.0000009     0.9994603   -0.0026779 
   0.038924000     0.2464324   -0.5244170    -0.0000005   -0.0000002    -0.0000012   -0.0000011     0.9994010   -0.0026653 
   0.039173500     0.1773136   -0.5519882    -0.0000002   -0.0000006     0.0000010    0.0000004     0.9994626   -0.0026730 
   0.039423000     0.1057337   -0.5704260    -0.0000005    0.0000008     0.0000008   -0.0000006     0.9994382   -0.0027004 
   0.039672500     0.0324982   -0.5794804     0.0000012    0.0000006     0.0000015    0.0000013     0.9992232   -0.0024403 
   0.039922000    -0.0412332   -0.5791603    -0.0000005   -0.0000003     0.0000004   -0.0000004     0.9997225   -0.0024156 
