! MS46122B
! 1746301/73750021
! 11/3/2023 2:30:27 PM
! C:\USERS\SPEGWAL\DOWNLOADS\SAURABH\REACH\NODES\FRONT END\MEASUREMENTS\MEASURED S-PARAMETERS_03-11-2023\MS3-MS4_MS1_CABLE\SHORT_SOURCE_S11.S2P
! CHANNEL.1
! TR.MEASUREMENT
! CORRECTED.DATA
# GHZ S RI R 50.0
! FREQ.GHZ         S11RE         S11IM         S21RE         S21IM         S12RE         S12IM         S22RE         S22IM         
!; PortSelection: Port_12
   0.001000000    -0.8256455    0.4993777    -0.0000043    0.0000012    -0.0000036    0.0000002     1.0017540   -0.0027351 
   0.001249500    -0.7536174    0.6014895     0.0000017    0.0000001     0.0000001    0.0000004     1.0019300   -0.0016826 
   0.001499000    -0.6690694    0.6933580     0.0000017    0.0000003     0.0000002   -0.0000001     1.0019070   -0.0015992 
   0.001748500    -0.5735304    0.7736440     0.0000003   -0.0000019    -0.0000008    0.0000006     1.0018680   -0.0014747 
   0.001998000    -0.4690710    0.8410359     0.0000005    0.0000010     0.0000004   -0.0000023     1.0018300   -0.0014464 
   0.002247500    -0.3542670    0.8878762     0.0000001    0.0000007     0.0000003    0.0000004     1.0019990   -0.0017191 
   0.002497000    -0.2370901    0.9254838     0.0000003   -0.0000005     0.0000005    0.0000006     1.0019400   -0.0017349 
   0.002746500    -0.1162191    0.9476808    -0.0000001   -0.0000006    -0.0000006   -0.0000001     1.0019340   -0.0016312 
   0.002996000     0.0066096    0.9543185    -0.0000005   -0.0000007    -0.0000007    0.0000007     1.0019050   -0.0017158 
   0.003245500     0.1291323    0.9451287    -0.0000001   -0.0000002     0.0000000   -0.0000008     1.0019080   -0.0016008 
   0.003495000     0.2489924    0.9205413    -0.0000005   -0.0000016    -0.0000005    0.0000001     1.0018730   -0.0016195 
   0.003744500     0.3640942    0.8804551    -0.0000010   -0.0000009     0.0000017    0.0000004     1.0017570   -0.0015839 
   0.003994000     0.4727585    0.8260610     0.0000000    0.0000004     0.0000007    0.0000004     1.0018090   -0.0015470 
   0.004243500     0.5738447    0.7582773    -0.0000008    0.0000003    -0.0000005    0.0000002     1.0018430   -0.0019226 
   0.004493000     0.6654216    0.6781868    -0.0000002    0.0000002    -0.0000018    0.0000001     1.0018380   -0.0019989 
   0.004742500     0.7459715    0.5871721     0.0000017    0.0000004    -0.0000009   -0.0000005     1.0017590   -0.0018853 
   0.004992000     0.8143721    0.4867741     0.0000003    0.0000003     0.0000000    0.0000015     1.0017190   -0.0018949 
   0.005241500     0.8697605    0.3785044     0.0000005   -0.0000002     0.0000006   -0.0000007     1.0016120   -0.0017882 
   0.005491000     0.9108673    0.2636485     0.0000001    0.0000001     0.0000011    0.0000006     1.0015200   -0.0017705 
   0.005740500     0.9371617    0.1444285    -0.0000003    0.0000004     0.0000004   -0.0000003     1.0015180   -0.0017231 
   0.005990000     0.9480253    0.0229673    -0.0000001    0.0000006     0.0000009   -0.0000001     1.0013780   -0.0016647 
   0.006239500     0.9428900   -0.0985178    -0.0000002    0.0000002    -0.0000001    0.0000008     1.0011930   -0.0016156 
   0.006489000     0.9220980   -0.2179696    -0.0000008   -0.0000009     0.0000006    0.0000005     1.0010280   -0.0015894 
   0.006738500     0.8859437   -0.3335718    -0.0000008   -0.0000007     0.0000000    0.0000002     1.0008660   -0.0014873 
   0.006988000     0.8355896   -0.4439434    -0.0000001    0.0000005    -0.0000004    0.0000009     1.0007900   -0.0014171 
   0.007237500     0.7716749   -0.5467537     0.0000000   -0.0000006    -0.0000004    0.0000011     1.0006790   -0.0013702 
   0.007487000     0.6951071   -0.6405936    -0.0000006    0.0000003     0.0000002    0.0000015     1.0005490   -0.0013221 
   0.007736500     0.6071817   -0.7237546     0.0000000   -0.0000006    -0.0000003    0.0000005     1.0005520   -0.0013758 
   0.007986000     0.5093303   -0.7948918     0.0000013    0.0000001    -0.0000001   -0.0000003     1.0005980   -0.0013863 
   0.008235500     0.4033045   -0.8527201    -0.0000004    0.0000021     0.0000005    0.0000001     1.0006240   -0.0013827 
   0.008485000     0.2905587   -0.8966125    -0.0000001   -0.0000001    -0.0000004   -0.0000002     1.0006180   -0.0014040 
   0.008734500     0.1732325   -0.9253275    -0.0000010   -0.0000005     0.0000012   -0.0000003     1.0005870   -0.0014762 
   0.008984000     0.0535835   -0.9387366    -0.0000001   -0.0000011     0.0000002    0.0000000     1.0005680   -0.0014156 
   0.009233500    -0.0662955   -0.9365852    -0.0000012   -0.0000004     0.0000004    0.0000000     1.0005930   -0.0014802 
   0.009483000    -0.1850436   -0.9189982     0.0000005    0.0000003     0.0000010    0.0000010     1.0005920   -0.0014515 
   0.009732500    -0.3003020   -0.8859596    -0.0000007    0.0000004    -0.0000002    0.0000004     1.0006000   -0.0015172 
   0.009982000    -0.4099886   -0.8389136     0.0000025   -0.0000006    -0.0000004   -0.0000011     1.0005550   -0.0014919 
   0.010231500    -0.5121898   -0.7782709    -0.0000005   -0.0000003    -0.0000013    0.0000001     1.0005040   -0.0014487 
   0.010481000    -0.6055717   -0.7051485    -0.0000007   -0.0000001     0.0000002    0.0000004     1.0005310   -0.0014924 
   0.010730500    -0.6884553   -0.6210382    -0.0000011    0.0000005    -0.0000003    0.0000010     1.0005940   -0.0014614 
   0.010980000    -0.7598745   -0.5269918     0.0000007   -0.0000003    -0.0000007   -0.0000008     1.0005270   -0.0014815 
   0.011229500    -0.8183879   -0.4253653     0.0000007   -0.0000004     0.0000005   -0.0000002     1.0004890   -0.0014559 
   0.011479000    -0.8633614   -0.3174565     0.0000002   -0.0000015     0.0000017   -0.0000001     1.0004960   -0.0014607 
   0.011728500    -0.8941641   -0.2050095    -0.0000007    0.0000011     0.0000004    0.0000002     1.0004530   -0.0015253 
   0.011978000    -0.9104071   -0.0901269     0.0000011   -0.0000002    -0.0000007    0.0000013     1.0004690   -0.0015689 
   0.012227500    -0.9120423    0.0258332     0.0000005   -0.0000010     0.0000000   -0.0000002     1.0004720   -0.0015146 
   0.012477000    -0.8990271    0.1405717     0.0000012    0.0000008     0.0000003    0.0000000     1.0004590   -0.0015593 
   0.012726500    -0.8719590    0.2524865    -0.0000004    0.0000001     0.0000003    0.0000008     1.0004730   -0.0015056 
   0.012976000    -0.8309436    0.3599780     0.0000004    0.0000006    -0.0000004    0.0000003     1.0004800   -0.0015167 
   0.013225500    -0.7769762    0.4609210     0.0000002    0.0000005     0.0000004    0.0000001     1.0004840   -0.0015362 
   0.013475000    -0.7107229    0.5544337    -0.0000001   -0.0000005    -0.0000002    0.0000005     1.0004640   -0.0015681 
   0.013724500    -0.6335002    0.6388366     0.0000016    0.0000005     0.0000000   -0.0000005     1.0004430   -0.0015320 
   0.013974000    -0.5463454    0.7127132    -0.0000003    0.0000002     0.0000008   -0.0000002     1.0004250   -0.0015529 
   0.014223500    -0.4507471    0.7750671    -0.0000013   -0.0000001     0.0000004    0.0000002     1.0003940   -0.0015573 
   0.014473000    -0.3485082    0.8249291     0.0000005    0.0000003    -0.0000004   -0.0000007     1.0003820   -0.0016142 
   0.014722500    -0.2404438    0.8614674    -0.0000001    0.0000000    -0.0000008   -0.0000001     1.0004590   -0.0015941 
   0.014972000    -0.1285588    0.8841331     0.0000001   -0.0000006     0.0000005    0.0000004     1.0003420   -0.0016659 
   0.015221500    -0.0147771    0.8926851    -0.0000006    0.0000008     0.0000008    0.0000001     1.0003990   -0.0016681 
   0.015471000     0.0992081    0.8867255    -0.0000001   -0.0000002    -0.0000003    0.0000001     1.0003600   -0.0016803 
   0.015720500     0.2115434    0.8664964     0.0000004   -0.0000009    -0.0000006    0.0000001     1.0003460   -0.0017705 
   0.015970000     0.3204181    0.8321529     0.0000014    0.0000001    -0.0000005   -0.0000010     1.0003510   -0.0015983 
   0.016219500     0.4242856    0.7842748     0.0000008   -0.0000009     0.0000005   -0.0000010     1.0003120   -0.0016642 
   0.016469000     0.5215927    0.7233634     0.0000001    0.0000000     0.0000001    0.0000000     1.0003240   -0.0017109 
   0.016718500     0.6104791    0.6507267    -0.0000006   -0.0000003    -0.0000004    0.0000002     1.0003840   -0.0016877 
   0.016968000     0.6894541    0.5673457     0.0000000   -0.0000006     0.0000009   -0.0000004     1.0003470   -0.0016347 
   0.017217500     0.7570630    0.4742121     0.0000014   -0.0000004    -0.0000005   -0.0000001     1.0002350   -0.0016805 
   0.017467000     0.8123693    0.3730735     0.0000013    0.0000005     0.0000009   -0.0000001     1.0003150   -0.0017084 
   0.017716500     0.8542144    0.2654836     0.0000009    0.0000004    -0.0000012    0.0000018     1.0002000   -0.0017755 
   0.017966000     0.8820586    0.1534954    -0.0000004   -0.0000005    -0.0000003    0.0000009     1.0002760   -0.0016957 
   0.018215500     0.8951463    0.0385612    -0.0000001    0.0000016     0.0000003   -0.0000009     1.0002330   -0.0017705 
   0.018465000     0.8932912   -0.0770106    -0.0000003   -0.0000008     0.0000003   -0.0000002     1.0002220   -0.0017595 
   0.018714500     0.8766462   -0.1913145     0.0000005   -0.0000008     0.0000010   -0.0000006     1.0002530   -0.0017643 
   0.018964000     0.8452998   -0.3027259    -0.0000001    0.0000002     0.0000001   -0.0000007     1.0002080   -0.0017175 
   0.019213500     0.7997386   -0.4092607    -0.0000010    0.0000009    -0.0000016   -0.0000009     1.0001960   -0.0017770 
   0.019463000     0.7411122   -0.5090503     0.0000008    0.0000009    -0.0000003   -0.0000007     1.0002060   -0.0018234 
   0.019712500     0.6699000   -0.6001926     0.0000003    0.0000015    -0.0000002    0.0000007     1.0001920   -0.0018387 
   0.019962000     0.5875769   -0.6812785     0.0000005    0.0000004     0.0000003   -0.0000002     1.0001630   -0.0018584 
   0.020211500     0.4955808   -0.7509152    -0.0000015    0.0000000    -0.0000002   -0.0000013     1.0002280   -0.0018771 
   0.020461000     0.3951676   -0.8081622    -0.0000003    0.0000001    -0.0000004   -0.0000013     1.0001480   -0.0018763 
   0.020710500     0.2887252   -0.8517719     0.0000002   -0.0000006     0.0000001   -0.0000004     1.0000730   -0.0019002 
   0.020960000     0.1775328   -0.8812433    -0.0000015   -0.0000006    -0.0000002    0.0000007     1.0000560   -0.0019525 
   0.021209500     0.0638389   -0.8961923    -0.0000012    0.0000000    -0.0000001    0.0000004     1.0001240   -0.0019006 
   0.021459000    -0.0505625   -0.8963813     0.0000010    0.0000018     0.0000010    0.0000008     1.0001450   -0.0018769 
   0.021708500    -0.1640542   -0.8817325    -0.0000003    0.0000002     0.0000004   -0.0000009     1.0001090   -0.0019607 
   0.021958000    -0.2741323   -0.8528627    -0.0000002   -0.0000003     0.0000004    0.0000001     1.0001020   -0.0019302 
   0.022207500    -0.3795131   -0.8102304    -0.0000006    0.0000000    -0.0000007    0.0000004     1.0000400   -0.0019778 
   0.022457000    -0.4783595   -0.7546459    -0.0000003    0.0000003    -0.0000003   -0.0000015     1.0000310   -0.0019563 
   0.022706500    -0.5687022   -0.6871257    -0.0000003    0.0000002    -0.0000011    0.0000000     0.9999883   -0.0019426 
   0.022956000    -0.6497492   -0.6087416     0.0000003    0.0000000     0.0000009   -0.0000005     1.0000480   -0.0019649 
   0.023205500    -0.7198441   -0.5209172     0.0000008    0.0000014    -0.0000001    0.0000006     0.9999960   -0.0019591 
   0.023455000    -0.7783262   -0.4254131    -0.0000005   -0.0000006    -0.0000004   -0.0000008     0.9999543   -0.0020065 
   0.023704500    -0.8240212   -0.3233756     0.0000003    0.0000001     0.0000003   -0.0000011     1.0000110   -0.0020341 
   0.023954000    -0.8563290   -0.2168819     0.0000002   -0.0000002    -0.0000013   -0.0000012     0.9998944   -0.0019849 
   0.024203500    -0.8749322   -0.1071865     0.0000001   -0.0000002     0.0000007   -0.0000008     0.9999456   -0.0020336 
   0.024453000    -0.8796647    0.0038576    -0.0000002   -0.0000001     0.0000011    0.0000005     0.9999111   -0.0020039 
   0.024702500    -0.8702411    0.1142556    -0.0000007    0.0000002    -0.0000006    0.0000001     0.9999834   -0.0020900 
   0.024952000    -0.8472064    0.2224267     0.0000006    0.0000004     0.0000005    0.0000001     0.9999247   -0.0020550 
   0.025201500    -0.8106810    0.3267775    -0.0000010   -0.0000002     0.0000002   -0.0000010     1.0003260   -0.0016715 
   0.025451000    -0.7616118    0.4252175    -0.0000014   -0.0000010     0.0000006    0.0000006     0.9999076   -0.0020482 
   0.025700500    -0.7004420    0.5170882     0.0000004    0.0000006     0.0000010    0.0000003     0.9999394   -0.0020756 
   0.025950000    -0.6284139    0.6004156     0.0000009   -0.0000007     0.0000005    0.0000003     0.9999517   -0.0020746 
   0.026199500    -0.5465212    0.6741019    -0.0000002   -0.0000002    -0.0000006    0.0000000     0.9998703   -0.0020557 
   0.026449000    -0.4559214    0.7369800     0.0000003   -0.0000003    -0.0000009    0.0000003     0.9999133   -0.0021139 
   0.026698500    -0.3582904    0.7878407     0.0000006    0.0000000    -0.0000007    0.0000006     0.9999808   -0.0020892 
   0.026948000    -0.2550303    0.8260624     0.0000002    0.0000007    -0.0000011    0.0000005     0.9998607   -0.0020984 
   0.027197500    -0.1473641    0.8509849    -0.0000009   -0.0000005     0.0000004   -0.0000005     0.9998623   -0.0020787 
   0.027447000    -0.0374869    0.8622397    -0.0000010   -0.0000007    -0.0000007   -0.0000004     0.9998214   -0.0021245 
   0.027696500     0.0728964    0.8596237     0.0000001    0.0000008     0.0000002    0.0000003     0.9998249   -0.0021321 
   0.027946000     0.1824370    0.8428905    -0.0000001    0.0000005     0.0000000   -0.0000007     0.9998178   -0.0021596 
   0.028195500     0.2890452    0.8123633    -0.0000001    0.0000006    -0.0000007   -0.0000003     0.9998094   -0.0021459 
   0.028445000     0.3908831    0.7684029    -0.0000015   -0.0000010    -0.0000004    0.0000007     0.9997799   -0.0021642 
   0.028694500     0.4866920    0.7118681     0.0000003   -0.0000002    -0.0000003   -0.0000003     0.9997908   -0.0021452 
   0.028944000     0.5744805    0.6433032     0.0000003    0.0000001    -0.0000002   -0.0000009     0.9997681   -0.0021869 
   0.029193500     0.6529331    0.5640916     0.0000006   -0.0000009    -0.0000005    0.0000005     0.9997588   -0.0021726 
   0.029443000     0.7206272    0.4756904    -0.0000010    0.0000004    -0.0000010    0.0000004     0.9997119   -0.0021518 
   0.029692500     0.7764596    0.3789496     0.0000005    0.0000001    -0.0000005   -0.0000001     0.9996132   -0.0022337 
   0.029942000     0.8195071    0.2756216     0.0000001   -0.0000010    -0.0000011   -0.0000001     0.9996094   -0.0022663 
   0.030191500     0.8490144    0.1675397    -0.0000010    0.0000010     0.0000003    0.0000002     0.9996876   -0.0022316 
   0.030441000     0.8643201    0.0564832    -0.0000006   -0.0000002    -0.0000003    0.0000013     0.9996206   -0.0021862 
   0.030690500     0.8651551   -0.0556203     0.0000000   -0.0000006     0.0000007   -0.0000012     0.9996476   -0.0023398 
   0.030940000     0.8514906   -0.1668352     0.0000006   -0.0000009    -0.0000008    0.0000011     0.9996531   -0.0023175 
   0.031189500     0.8233262   -0.2757444     0.0000015    0.0000007     0.0000002    0.0000008     0.9996722   -0.0023409 
   0.031439000     0.7815743   -0.3798004     0.0000012    0.0000007    -0.0000003   -0.0000011     0.9996499   -0.0023229 
   0.031688500     0.7266267   -0.4775106     0.0000010   -0.0000002    -0.0000003   -0.0000001     0.9996455   -0.0022896 
   0.031938000     0.6596576   -0.5672923    -0.0000005    0.0000011     0.0000007   -0.0000001     0.9994520   -0.0024095 
   0.032187500     0.5817643   -0.6474739     0.0000007    0.0000007     0.0000014    0.0000002     0.9996073   -0.0023679 
   0.032437000     0.4939126   -0.7169109    -0.0000011    0.0000005     0.0000006    0.0000005     0.9995876   -0.0023461 
   0.032686500     0.3982278   -0.7742192    -0.0000007   -0.0000003     0.0000002   -0.0000001     0.9994498   -0.0021307 
   0.032936000     0.2961330   -0.8188170    -0.0000002    0.0000004     0.0000002   -0.0000010     0.9995428   -0.0024096 
   0.033185500     0.1892950   -0.8496459     0.0000014    0.0000003    -0.0000006   -0.0000004     0.9994093   -0.0021601 
   0.033435000     0.0797373   -0.8666944    -0.0000003    0.0000007    -0.0000002   -0.0000005     0.9995524   -0.0024528 
   0.033684500    -0.0310957   -0.8693475    -0.0000006   -0.0000003     0.0000007   -0.0000007     0.9995215   -0.0024103 
   0.033934000    -0.1408409   -0.8577454     0.0000000   -0.0000002     0.0000002   -0.0000005     0.9995161   -0.0024487 
   0.034183500    -0.2481096   -0.8324725     0.0000007    0.0000002     0.0000013    0.0000006     0.9994953   -0.0024962 
   0.034433000    -0.3508615   -0.7935834     0.0000003    0.0000009    -0.0000011    0.0000005     0.9994631   -0.0025068 
   0.034682500    -0.4474545   -0.7421971    -0.0000002    0.0000021     0.0000007    0.0000014     0.9994576   -0.0025195 
   0.034932000    -0.5365484   -0.6791593     0.0000001    0.0000000    -0.0000008   -0.0000003     0.9995332   -0.0025126 
   0.035181500    -0.6167949   -0.6054396    -0.0000004   -0.0000005     0.0000008    0.0000006     0.9994882   -0.0025452 
   0.035431000    -0.6869766   -0.5222687     0.0000007    0.0000000    -0.0000007   -0.0000001     0.9994712   -0.0024979 
   0.035680500    -0.7456586   -0.4314060     0.0000005    0.0000009    -0.0000005   -0.0000008     0.9994732   -0.0025319 
   0.035930000    -0.7925308   -0.3342410     0.0000004    0.0000010    -0.0000007    0.0000014     0.9994831   -0.0025101 
   0.036179500    -0.8266534   -0.2318784     0.0000001    0.0000000    -0.0000002   -0.0000011     0.9994722   -0.0025251 
   0.036429000    -0.8474872   -0.1264155     0.0000001    0.0000002     0.0000014    0.0000003     0.9994505   -0.0025573 
   0.036678500    -0.8551739   -0.0193773     0.0000000    0.0000001     0.0000010    0.0000003     0.9994783   -0.0025759 
   0.036928000    -0.8492621    0.0875854    -0.0000001    0.0000003     0.0000005   -0.0000001     0.9995045   -0.0025949 
   0.037177500    -0.8300011    0.1928950    -0.0000003    0.0000001    -0.0000002    0.0000006     0.9994664   -0.0026128 
   0.037427000    -0.7980049    0.2946176     0.0000012   -0.0000002    -0.0000008   -0.0000001     0.9994967   -0.0026401 
   0.037676500    -0.7534409    0.3916231     0.0000016    0.0000012     0.0000016   -0.0000005     0.9994360   -0.0025602 
   0.037926000    -0.6970173    0.4822208    -0.0000010    0.0000001     0.0000009    0.0000012     0.9994260   -0.0025772 
   0.038175500    -0.6300457    0.5651174    -0.0000006   -0.0000016    -0.0000004    0.0000010     0.9994723   -0.0026515 
   0.038425000    -0.5532060    0.6388661     0.0000006    0.0000009     0.0000003   -0.0000005     0.9994977   -0.0026371 
   0.038674500    -0.4676291    0.7025616    -0.0000006   -0.0000001     0.0000003    0.0000011     0.9994544   -0.0026642 
   0.038924000    -0.3750519    0.7549134     0.0000001    0.0000005     0.0000003    0.0000012     0.9993969   -0.0026846 
   0.039173500    -0.2764504    0.7953929     0.0000004   -0.0000018     0.0000007    0.0000010     0.9994601   -0.0026941 
   0.039423000    -0.1733269    0.8232372    -0.0000010   -0.0000002     0.0000003   -0.0000002     0.9994581   -0.0027104 
   0.039672500    -0.0676281    0.8380788     0.0000016    0.0000008    -0.0000003   -0.0000004     0.9991897   -0.0025239 
   0.039922000     0.0395252    0.8394742    -0.0000008    0.0000001    -0.0000011    0.0000008     0.9997449   -0.0024318 
