! MS46122B
! 1746301/73750021
! 11/3/2023 2:20:26 PM
! C:\USERS\SPEGWAL\DOWNLOADS\SAURABH\REACH\NODES\FRONT END\MEASUREMENTS\MEASURED S-PARAMETERS_03-11-2023\MS3-MS4_MS1_CABLE\COLD50_SOURCE_S11.S2P
! CHANNEL.1
! TR.MEASUREMENT
! CORRECTED.DATA
# GHZ S RI R 50.0
! FREQ.GHZ         S11RE         S11IM         S21RE         S21IM         S12RE         S12IM         S22RE         S22IM         
!; PortSelection: Port_12
   0.001000000     0.0033241    0.0007446    -0.0000042    0.0000028     0.0000011   -0.0000016     1.0031140   -0.0013892 
   0.001249500     0.0033256    0.0007003     0.0000005   -0.0000009    -0.0000004    0.0000011     1.0017330   -0.0015756 
   0.001499000     0.0033521    0.0006462     0.0000003    0.0000004    -0.0000014   -0.0000008     1.0017210   -0.0015166 
   0.001748500     0.0033453    0.0005415     0.0000006    0.0000000     0.0000009   -0.0000008     1.0017010   -0.0013821 
   0.001998000     0.0033622    0.0004879     0.0000001    0.0000005     0.0000003    0.0000002     1.0016470   -0.0013602 
   0.002247500     0.0033529    0.0003201    -0.0000011   -0.0000019     0.0000013    0.0000016     1.0017950   -0.0016446 
   0.002497000     0.0033539    0.0002575     0.0000004    0.0000001    -0.0000008    0.0000010     1.0017500   -0.0016442 
   0.002746500     0.0033524    0.0001976     0.0000002    0.0000001     0.0000010   -0.0000001     1.0017850   -0.0015767 
   0.002996000     0.0033404    0.0001305    -0.0000010   -0.0000003    -0.0000009   -0.0000001     1.0017020   -0.0016271 
   0.003245500     0.0033401    0.0000851     0.0000009   -0.0000017    -0.0000005   -0.0000012     1.0016340   -0.0015126 
   0.003495000     0.0033363    0.0000287    -0.0000006    0.0000010    -0.0000004    0.0000014     1.0017370   -0.0015388 
   0.003744500     0.0033278   -0.0000110     0.0000004    0.0000013    -0.0000007    0.0000019     1.0015670   -0.0014845 
   0.003994000     0.0033154   -0.0000462     0.0000001   -0.0000002     0.0000006    0.0000001     1.0015960   -0.0014893 
   0.004243500     0.0033120   -0.0000688     0.0000002    0.0000010    -0.0000005   -0.0000010     1.0016630   -0.0017730 
   0.004493000     0.0033148   -0.0001074     0.0000001    0.0000004    -0.0000002   -0.0000007     1.0016410   -0.0018033 
   0.004742500     0.0032833   -0.0001207    -0.0000007    0.0000002    -0.0000008   -0.0000013     1.0016240   -0.0017777 
   0.004992000     0.0032857   -0.0001296     0.0000010    0.0000014     0.0000001    0.0000004     1.0015630   -0.0017227 
   0.005241500     0.0032761   -0.0001440    -0.0000015    0.0000004     0.0000008   -0.0000006     1.0014990   -0.0016808 
   0.005491000     0.0032576   -0.0001562     0.0000022    0.0000013    -0.0000004   -0.0000009     1.0014230   -0.0016721 
   0.005740500     0.0032530   -0.0001624     0.0000006    0.0000001     0.0000006   -0.0000002     1.0013230   -0.0016210 
   0.005990000     0.0032315   -0.0001721    -0.0000007    0.0000012    -0.0000015   -0.0000011     1.0012800   -0.0015549 
   0.006239500     0.0032451   -0.0001803     0.0000001    0.0000010     0.0000008   -0.0000010     1.0011590   -0.0014811 
   0.006489000     0.0032282   -0.0001812     0.0000000    0.0000000     0.0000011   -0.0000006     1.0009470   -0.0014957 
   0.006738500     0.0032324   -0.0001877    -0.0000005   -0.0000003     0.0000013   -0.0000002     1.0007850   -0.0014046 
   0.006988000     0.0032306   -0.0001911     0.0000010   -0.0000013    -0.0000009    0.0000004     1.0007220   -0.0013546 
   0.007237500     0.0032162   -0.0001985    -0.0000014   -0.0000002    -0.0000014    0.0000002     1.0006090   -0.0012995 
   0.007487000     0.0032181   -0.0002116     0.0000016    0.0000012     0.0000001   -0.0000007     1.0004560   -0.0012576 
   0.007736500     0.0032126   -0.0002188    -0.0000001    0.0000004    -0.0000008   -0.0000003     1.0005160   -0.0013164 
   0.007986000     0.0032051   -0.0002293    -0.0000005   -0.0000002     0.0000005    0.0000005     1.0005420   -0.0012685 
   0.008235500     0.0032033   -0.0002368    -0.0000002    0.0000004    -0.0000005   -0.0000001     1.0005650   -0.0012932 
   0.008485000     0.0032075   -0.0002446     0.0000012    0.0000001     0.0000001   -0.0000010     1.0005510   -0.0013529 
   0.008734500     0.0032075   -0.0002610     0.0000000   -0.0000013     0.0000010   -0.0000010     1.0005190   -0.0013849 
   0.008984000     0.0032252   -0.0002689     0.0000005    0.0000006     0.0000009   -0.0000002     1.0005080   -0.0013876 
   0.009233500     0.0031988   -0.0002613     0.0000003    0.0000006     0.0000008    0.0000017     1.0005200   -0.0013819 
   0.009483000     0.0032033   -0.0002904     0.0000003    0.0000001     0.0000008   -0.0000009     1.0005430   -0.0014280 
   0.009732500     0.0032147   -0.0002873    -0.0000012    0.0000002    -0.0000011    0.0000005     1.0005330   -0.0014507 
   0.009982000     0.0032084   -0.0003044     0.0000008   -0.0000013    -0.0000002   -0.0000004     1.0004950   -0.0014015 
   0.010231500     0.0032140   -0.0003181     0.0000001   -0.0000006    -0.0000009   -0.0000001     1.0004350   -0.0013595 
   0.010481000     0.0032135   -0.0003290    -0.0000005    0.0000014    -0.0000017    0.0000011     1.0004570   -0.0013740 
   0.010730500     0.0032159   -0.0003436    -0.0000009    0.0000005     0.0000005   -0.0000008     1.0005000   -0.0013825 
   0.010980000     0.0032147   -0.0003593     0.0000010   -0.0000025     0.0000002    0.0000006     1.0004610   -0.0014626 
   0.011229500     0.0032345   -0.0003604    -0.0000004   -0.0000013     0.0000010   -0.0000013     1.0004380   -0.0013973 
   0.011479000     0.0032375   -0.0003771    -0.0000004   -0.0000004    -0.0000007    0.0000006     1.0003960   -0.0014332 
   0.011728500     0.0032315   -0.0003846    -0.0000001    0.0000005     0.0000001   -0.0000007     1.0004220   -0.0014457 
   0.011978000     0.0032411   -0.0004064    -0.0000012    0.0000006    -0.0000010   -0.0000004     1.0003820   -0.0014664 
   0.012227500     0.0032380   -0.0003985     0.0000001   -0.0000002     0.0000009    0.0000004     1.0003900   -0.0014563 
   0.012477000     0.0032406   -0.0004231     0.0000005    0.0000007    -0.0000015   -0.0000002     1.0004170   -0.0014186 
   0.012726500     0.0032470   -0.0004342     0.0000017    0.0000007     0.0000005   -0.0000011     1.0004630   -0.0014607 
   0.012976000     0.0032494   -0.0004465     0.0000002    0.0000005     0.0000001    0.0000002     1.0004240   -0.0014929 
   0.013225500     0.0032469   -0.0004738    -0.0000014   -0.0000001     0.0000003   -0.0000006     1.0004600   -0.0014672 
   0.013475000     0.0032592   -0.0004801    -0.0000003    0.0000002    -0.0000003    0.0000004     1.0004670   -0.0014787 
   0.013724500     0.0032550   -0.0004998    -0.0000007   -0.0000005    -0.0000004   -0.0000011     1.0003600   -0.0014019 
   0.013974000     0.0032698   -0.0005080     0.0000008    0.0000004     0.0000004    0.0000001     1.0003790   -0.0014360 
   0.014223500     0.0032635   -0.0005304    -0.0000007   -0.0000002     0.0000006    0.0000008     1.0003570   -0.0014467 
   0.014473000     0.0032534   -0.0005508     0.0000005    0.0000004     0.0000000   -0.0000006     1.0003700   -0.0015196 
   0.014722500     0.0032600   -0.0005527    -0.0000002    0.0000005     0.0000007   -0.0000002     1.0004530   -0.0014967 
   0.014972000     0.0032602   -0.0005753    -0.0000002   -0.0000003    -0.0000003    0.0000006     1.0003250   -0.0015585 
   0.015221500     0.0032714   -0.0006001    -0.0000006    0.0000003    -0.0000007    0.0000008     1.0003420   -0.0015907 
   0.015471000     0.0032711   -0.0006189    -0.0000003    0.0000009    -0.0000009   -0.0000009     1.0003240   -0.0015926 
   0.015720500     0.0032612   -0.0006348    -0.0000001   -0.0000009    -0.0000007   -0.0000004     1.0003340   -0.0016682 
   0.015970000     0.0032694   -0.0006491    -0.0000012   -0.0000006    -0.0000013   -0.0000004     1.0003090   -0.0014918 
   0.016219500     0.0032619   -0.0006717    -0.0000002   -0.0000001     0.0000000   -0.0000001     1.0002820   -0.0015977 
   0.016469000     0.0032736   -0.0006870    -0.0000009   -0.0000004    -0.0000008   -0.0000007     1.0002720   -0.0016343 
   0.016718500     0.0032739   -0.0007083     0.0000002   -0.0000005    -0.0000009   -0.0000002     1.0002890   -0.0015546 
   0.016968000     0.0032723   -0.0007131    -0.0000014    0.0000001    -0.0000011    0.0000000     1.0003270   -0.0015743 
   0.017217500     0.0032637   -0.0007349    -0.0000004   -0.0000006     0.0000004    0.0000012     1.0002060   -0.0016024 
   0.017467000     0.0032806   -0.0007546     0.0000007    0.0000003     0.0000005    0.0000009     1.0002520   -0.0016428 
   0.017716500     0.0032726   -0.0007714     0.0000001    0.0000003     0.0000010   -0.0000006     1.0002290   -0.0016610 
   0.017966000     0.0032671   -0.0007929     0.0000005    0.0000003    -0.0000006    0.0000005     1.0003000   -0.0016190 
   0.018215500     0.0032795   -0.0008134    -0.0000016   -0.0000005     0.0000016    0.0000017     1.0001600   -0.0016996 
   0.018465000     0.0032857   -0.0008247     0.0000007    0.0000002     0.0000010    0.0000011     1.0002160   -0.0016969 
   0.018714500     0.0032790   -0.0008546    -0.0000002    0.0000002     0.0000001    0.0000002     1.0002100   -0.0016589 
   0.018964000     0.0032842   -0.0008588    -0.0000015    0.0000003    -0.0000011    0.0000004     1.0001450   -0.0016414 
   0.019213500     0.0032760   -0.0008927    -0.0000012   -0.0000006    -0.0000005   -0.0000008     1.0002110   -0.0017017 
   0.019463000     0.0032811   -0.0009126    -0.0000013    0.0000002    -0.0000003    0.0000009     1.0001220   -0.0016761 
   0.019712500     0.0032842   -0.0009414     0.0000001   -0.0000001     0.0000007    0.0000013     1.0001640   -0.0017697 
   0.019962000     0.0032825   -0.0009403    -0.0000010    0.0000005     0.0000004    0.0000002     1.0001310   -0.0017649 
   0.020211500     0.0032807   -0.0009646     0.0000004   -0.0000002     0.0000009   -0.0000001     1.0002150   -0.0017934 
   0.020461000     0.0032891   -0.0009891    -0.0000005   -0.0000011    -0.0000002    0.0000010     1.0001090   -0.0017776 
   0.020710500     0.0032823   -0.0010114     0.0000002    0.0000001     0.0000002    0.0000000     1.0000490   -0.0018223 
   0.020960000     0.0032832   -0.0010235    -0.0000006    0.0000011     0.0000004    0.0000005     1.0000400   -0.0018935 
   0.021209500     0.0032799   -0.0010682     0.0000000   -0.0000003    -0.0000006   -0.0000005     1.0001010   -0.0018009 
   0.021459000     0.0032781   -0.0010830     0.0000009    0.0000006    -0.0000004    0.0000004     1.0001420   -0.0018004 
   0.021708500     0.0033052   -0.0011063     0.0000005    0.0000004     0.0000009   -0.0000005     1.0000860   -0.0018603 
   0.021958000     0.0032873   -0.0011114     0.0000001    0.0000002     0.0000001    0.0000001     1.0001140   -0.0018526 
   0.022207500     0.0032982   -0.0011416     0.0000004   -0.0000003    -0.0000005   -0.0000005     1.0000790   -0.0019005 
   0.022457000     0.0032971   -0.0011727     0.0000005    0.0000001     0.0000006   -0.0000005     1.0000710   -0.0019078 
   0.022706500     0.0032914   -0.0011985    -0.0000003    0.0000008     0.0000008    0.0000010     0.9999933   -0.0018600 
   0.022956000     0.0033075   -0.0012164     0.0000011    0.0000004     0.0000004   -0.0000003     1.0000520   -0.0017855 
   0.023205500     0.0033100   -0.0012298    -0.0000010    0.0000016    -0.0000005   -0.0000003     0.9999719   -0.0018391 
   0.023455000     0.0032940   -0.0012626     0.0000003   -0.0000016     0.0000005    0.0000000     0.9999644   -0.0019062 
   0.023704500     0.0032947   -0.0012835     0.0000013    0.0000005     0.0000002    0.0000005     1.0000240   -0.0019526 
   0.023954000     0.0033018   -0.0012942     0.0000006    0.0000008     0.0000004   -0.0000004     0.9998884   -0.0018739 
   0.024203500     0.0033234   -0.0013146     0.0000000   -0.0000004     0.0000001    0.0000002     0.9999791   -0.0018956 
   0.024453000     0.0033043   -0.0013473    -0.0000002    0.0000000     0.0000001   -0.0000013     0.9999415   -0.0019205 
   0.024702500     0.0033072   -0.0013640    -0.0000002    0.0000004    -0.0000007   -0.0000005     0.9999527   -0.0019685 
   0.024952000     0.0033084   -0.0013890     0.0000000   -0.0000004    -0.0000013   -0.0000001     0.9999476   -0.0019322 
   0.025201500     0.0033549   -0.0013989     0.0000009   -0.0000001    -0.0000007   -0.0000011     1.0002980   -0.0016360 
   0.025451000     0.0033007   -0.0014314     0.0000008   -0.0000001     0.0000005   -0.0000001     0.9998774   -0.0018827 
   0.025700500     0.0033302   -0.0014672    -0.0000007    0.0000000    -0.0000004   -0.0000001     0.9999139   -0.0019892 
   0.025950000     0.0033201   -0.0014736     0.0000004    0.0000010    -0.0000006   -0.0000002     0.9999210   -0.0019444 
   0.026199500     0.0033234   -0.0015114     0.0000011   -0.0000007     0.0000006    0.0000000     0.9998922   -0.0019595 
   0.026449000     0.0033169   -0.0015310     0.0000005    0.0000014    -0.0000005    0.0000000     0.9998654   -0.0020112 
   0.026698500     0.0033188   -0.0015557     0.0000004    0.0000002    -0.0000005   -0.0000002     1.0000010   -0.0020383 
   0.026948000     0.0033249   -0.0015726     0.0000008    0.0000003    -0.0000008    0.0000004     0.9998200   -0.0020262 
   0.027197500     0.0033160   -0.0015899     0.0000002    0.0000009    -0.0000003    0.0000010     0.9998601   -0.0019690 
   0.027447000     0.0033252   -0.0016148     0.0000012    0.0000014     0.0000008    0.0000007     0.9998505   -0.0020415 
   0.027696500     0.0033028   -0.0016343    -0.0000003    0.0000018     0.0000007   -0.0000007     0.9998285   -0.0020282 
   0.027946000     0.0033115   -0.0016575     0.0000008   -0.0000008    -0.0000008    0.0000008     0.9998297   -0.0020837 
   0.028195500     0.0033197   -0.0016842    -0.0000003   -0.0000004    -0.0000004    0.0000004     0.9998164   -0.0020560 
   0.028445000     0.0033129   -0.0017157     0.0000005   -0.0000001    -0.0000010    0.0000005     0.9997891   -0.0020714 
   0.028694500     0.0033083   -0.0017416     0.0000009    0.0000008     0.0000006    0.0000004     0.9998166   -0.0020557 
   0.028944000     0.0033142   -0.0017579    -0.0000010    0.0000009    -0.0000022   -0.0000020     0.9997689   -0.0020828 
   0.029193500     0.0033077   -0.0017828     0.0000009    0.0000001     0.0000004    0.0000002     0.9998198   -0.0020689 
   0.029443000     0.0033142   -0.0018113     0.0000011    0.0000001     0.0000006    0.0000003     0.9997427   -0.0020523 
   0.029692500     0.0033008   -0.0018338    -0.0000013   -0.0000007     0.0000004    0.0000000     0.9996412   -0.0021329 
   0.029942000     0.0033106   -0.0018555    -0.0000002   -0.0000019    -0.0000001   -0.0000009     0.9996394   -0.0021497 
   0.030191500     0.0033084   -0.0018803    -0.0000011   -0.0000009     0.0000011    0.0000006     0.9997287   -0.0021318 
   0.030441000     0.0032926   -0.0019066    -0.0000009   -0.0000004     0.0000009    0.0000000     0.9996637   -0.0020661 
   0.030690500     0.0032977   -0.0019399     0.0000002    0.0000007    -0.0000006   -0.0000011     0.9996818   -0.0022187 
   0.030940000     0.0033024   -0.0019545     0.0000004   -0.0000005    -0.0000008    0.0000010     0.9996812   -0.0021847 
   0.031189500     0.0032987   -0.0019823     0.0000006    0.0000012    -0.0000010    0.0000006     0.9997306   -0.0022184 
   0.031439000     0.0032998   -0.0020161    -0.0000001    0.0000014     0.0000012    0.0000002     0.9996665   -0.0021861 
   0.031688500     0.0032964   -0.0020439     0.0000000    0.0000003    -0.0000006    0.0000004     0.9996502   -0.0022025 
   0.031938000     0.0032780   -0.0020708     0.0000004   -0.0000004    -0.0000003    0.0000015     0.9995802   -0.0023248 
   0.032187500     0.0032871   -0.0020824     0.0000000    0.0000000     0.0000014   -0.0000005     0.9996132   -0.0022447 
   0.032437000     0.0032965   -0.0021236    -0.0000001    0.0000007    -0.0000006    0.0000001     0.9995967   -0.0022274 
   0.032686500     0.0032415   -0.0021740    -0.0000001   -0.0000008     0.0000007    0.0000013     0.9994943   -0.0020228 
   0.032936000     0.0032800   -0.0021770    -0.0000006    0.0000006    -0.0000003    0.0000004     0.9995807   -0.0023204 
   0.033185500     0.0032288   -0.0022213     0.0000010    0.0000007    -0.0000003   -0.0000005     0.9994317   -0.0021063 
   0.033435000     0.0032796   -0.0022301     0.0000009    0.0000006     0.0000004    0.0000009     0.9995659   -0.0023398 
   0.033684500     0.0032812   -0.0022530     0.0000009    0.0000001     0.0000002    0.0000010     0.9995384   -0.0022848 
   0.033934000     0.0032851   -0.0022788    -0.0000006   -0.0000010    -0.0000008   -0.0000004     0.9996298   -0.0023664 
   0.034183500     0.0032623   -0.0023081     0.0000004   -0.0000003     0.0000000    0.0000003     0.9995297   -0.0023914 
   0.034433000     0.0032757   -0.0023478     0.0000001   -0.0000001     0.0000002   -0.0000005     0.9996268   -0.0023539 
   0.034682500     0.0032717   -0.0023665     0.0000000    0.0000011    -0.0000013    0.0000005     0.9995484   -0.0023939 
   0.034932000     0.0032696   -0.0024088     0.0000000   -0.0000014    -0.0000005    0.0000015     0.9995942   -0.0024000 
   0.035181500     0.0032757   -0.0024142    -0.0000006    0.0000002    -0.0000004    0.0000008     0.9995522   -0.0024282 
   0.035431000     0.0032650   -0.0024560    -0.0000003    0.0000004    -0.0000021    0.0000002     0.9994922   -0.0023699 
   0.035680500     0.0032618   -0.0024703    -0.0000003   -0.0000002     0.0000008    0.0000003     0.9995536   -0.0024091 
   0.035930000     0.0032663   -0.0025053     0.0000012    0.0000002    -0.0000004    0.0000007     0.9995111   -0.0024230 
   0.036179500     0.0032684   -0.0025301     0.0000006   -0.0000014     0.0000003   -0.0000006     0.9995458   -0.0024322 
   0.036429000     0.0032636   -0.0025673    -0.0000008   -0.0000005     0.0000009   -0.0000009     0.9995114   -0.0024253 
   0.036678500     0.0032579   -0.0025934    -0.0000001    0.0000008    -0.0000005    0.0000000     0.9995381   -0.0024390 
   0.036928000     0.0032630   -0.0026243    -0.0000007    0.0000003    -0.0000001   -0.0000014     0.9995207   -0.0024723 
   0.037177500     0.0032508   -0.0026478     0.0000005    0.0000006    -0.0000011    0.0000023     0.9995415   -0.0024662 
   0.037427000     0.0032486   -0.0026809    -0.0000001    0.0000005    -0.0000008    0.0000008     0.9995560   -0.0025080 
   0.037676500     0.0032652   -0.0026942    -0.0000008    0.0000014     0.0000004    0.0000011     0.9994999   -0.0024298 
   0.037926000     0.0032416   -0.0027393    -0.0000011   -0.0000001     0.0000005   -0.0000005     0.9994907   -0.0024855 
   0.038175500     0.0032489   -0.0027716    -0.0000001    0.0000001     0.0000000   -0.0000003     0.9995291   -0.0025260 
   0.038425000     0.0032508   -0.0027897     0.0000012    0.0000020     0.0000002    0.0000012     0.9995269   -0.0024713 
   0.038674500     0.0032492   -0.0028097    -0.0000004   -0.0000021    -0.0000010   -0.0000006     0.9995241   -0.0025419 
   0.038924000     0.0032454   -0.0028551     0.0000001    0.0000001    -0.0000002    0.0000000     0.9994501   -0.0025653 
   0.039173500     0.0032400   -0.0028778     0.0000011    0.0000019     0.0000008   -0.0000006     0.9995085   -0.0025850 
   0.039423000     0.0032518   -0.0029153    -0.0000009    0.0000009     0.0000007   -0.0000002     0.9994966   -0.0025915 
   0.039672500     0.0032484   -0.0029422     0.0000006   -0.0000021    -0.0000012   -0.0000002     0.9992682   -0.0024078 
   0.039922000     0.0032524   -0.0029304     0.0000001   -0.0000013     0.0000002   -0.0000005     0.9997561   -0.0023469 
