! MS46122B
! 1746301/73750021
! 11/3/2023 2:18:06 PM
! C:\USERS\SPEGWAL\DOWNLOADS\SAURABH\REACH\NODES\FRONT END\MEASUREMENTS\MEASURED S-PARAMETERS_03-11-2023\MS3-MS4_MS1_CABLE\THERMAL_SOURCE_S11.S2P
! CHANNEL.1
! TR.MEASUREMENT
! CORRECTED.DATA
# GHZ S RI R 50.0
! FREQ.GHZ         S11RE         S11IM         S21RE         S21IM         S12RE         S12IM         S22RE         S22IM         
!; PortSelection: Port_12
   0.001000000     0.0079166    0.0007415     0.0000006    0.0000018    -0.0000035   -0.0000013     1.0011540   -0.0029998 
   0.001249500     0.0080198    0.0007107     0.0000003   -0.0000012    -0.0000002    0.0000000     1.0017320   -0.0015596 
   0.001499000     0.0080564    0.0006456     0.0000011    0.0000002     0.0000010   -0.0000003     1.0016750   -0.0014717 
   0.001748500     0.0080705    0.0005713    -0.0000010    0.0000007     0.0000019    0.0000003     1.0017400   -0.0013057 
   0.001998000     0.0081223    0.0005380     0.0000014    0.0000011     0.0000001   -0.0000013     1.0016220   -0.0013067 
   0.002247500     0.0080969    0.0004194     0.0000004    0.0000000     0.0000014   -0.0000007     1.0018060   -0.0016200 
   0.002497000     0.0080974    0.0003522     0.0000007   -0.0000007     0.0000009    0.0000002     1.0017190   -0.0016259 
   0.002746500     0.0081167    0.0003088    -0.0000008   -0.0000011    -0.0000001    0.0000004     1.0017590   -0.0015982 
   0.002996000     0.0081170    0.0002498    -0.0000010    0.0000001    -0.0000004   -0.0000018     1.0016540   -0.0015282 
   0.003245500     0.0081439    0.0002077    -0.0000004   -0.0000004    -0.0000008   -0.0000005     1.0015960   -0.0014759 
   0.003495000     0.0081534    0.0001604     0.0000009    0.0000006    -0.0000008   -0.0000009     1.0015600   -0.0014864 
   0.003744500     0.0081464    0.0001212    -0.0000006    0.0000002     0.0000006   -0.0000015     1.0015480   -0.0014625 
   0.003994000     0.0081587    0.0000919    -0.0000014   -0.0000005    -0.0000018    0.0000001     1.0015100   -0.0014781 
   0.004243500     0.0081706    0.0000640     0.0000021    0.0000011    -0.0000001   -0.0000005     1.0016150   -0.0017131 
   0.004493000     0.0081855    0.0000084    -0.0000003   -0.0000006     0.0000000   -0.0000014     1.0016420   -0.0017718 
   0.004742500     0.0081898    0.0000098    -0.0000009    0.0000005    -0.0000008   -0.0000005     1.0016110   -0.0017795 
   0.004992000     0.0081929    0.0000096     0.0000004    0.0000000     0.0000005    0.0000008     1.0015830   -0.0017925 
   0.005241500     0.0081970   -0.0000021     0.0000004    0.0000029    -0.0000010    0.0000006     1.0014630   -0.0016796 
   0.005491000     0.0081948   -0.0000167     0.0000015   -0.0000026     0.0000008    0.0000014     1.0013930   -0.0016432 
   0.005740500     0.0082038   -0.0000216    -0.0000009   -0.0000007     0.0000000    0.0000001     1.0013220   -0.0016293 
   0.005990000     0.0082032   -0.0000496     0.0000002    0.0000007    -0.0000005   -0.0000006     1.0012700   -0.0015703 
   0.006239500     0.0082169   -0.0000613     0.0000001    0.0000001     0.0000008    0.0000000     1.0010780   -0.0015195 
   0.006489000     0.0082268   -0.0000626    -0.0000004    0.0000000     0.0000010   -0.0000010     1.0009220   -0.0014747 
   0.006738500     0.0082354   -0.0000741    -0.0000011    0.0000014    -0.0000002   -0.0000008     1.0007970   -0.0013763 
   0.006988000     0.0082358   -0.0000750    -0.0000003    0.0000000     0.0000001    0.0000002     1.0006780   -0.0013560 
   0.007237500     0.0082431   -0.0000986     0.0000005   -0.0000002     0.0000018    0.0000010     1.0006030   -0.0012868 
   0.007487000     0.0082510   -0.0001202     0.0000001    0.0000006     0.0000009   -0.0000001     1.0005040   -0.0012946 
   0.007736500     0.0082587   -0.0001298    -0.0000003    0.0000003    -0.0000005    0.0000002     1.0005160   -0.0013002 
   0.007986000     0.0082706   -0.0001510     0.0000003    0.0000016     0.0000002    0.0000002     1.0005500   -0.0012863 
   0.008235500     0.0082770   -0.0001653     0.0000010   -0.0000001    -0.0000006   -0.0000002     1.0005630   -0.0012881 
   0.008485000     0.0082902   -0.0001783     0.0000010   -0.0000004     0.0000011    0.0000008     1.0005550   -0.0013049 
   0.008734500     0.0083130   -0.0002128     0.0000007    0.0000000    -0.0000003    0.0000009     1.0005540   -0.0013769 
   0.008984000     0.0083300   -0.0002344    -0.0000007   -0.0000013    -0.0000008    0.0000010     1.0005120   -0.0013301 
   0.009233500     0.0083248   -0.0002203     0.0000010    0.0000010    -0.0000013   -0.0000005     1.0005390   -0.0013880 
   0.009483000     0.0083363   -0.0002551     0.0000002   -0.0000013    -0.0000008   -0.0000003     1.0005410   -0.0013190 
   0.009732500     0.0083545   -0.0002829     0.0000003    0.0000007    -0.0000006   -0.0000010     1.0005420   -0.0014203 
   0.009982000     0.0083617   -0.0003066    -0.0000002    0.0000013    -0.0000006   -0.0000005     1.0004830   -0.0014377 
   0.010231500     0.0083867   -0.0003244     0.0000002    0.0000011    -0.0000005   -0.0000008     1.0004620   -0.0013567 
   0.010481000     0.0083918   -0.0003455     0.0000007    0.0000015    -0.0000007   -0.0000001     1.0004660   -0.0014212 
   0.010730500     0.0084139   -0.0003678    -0.0000009   -0.0000002     0.0000004   -0.0000001     1.0005720   -0.0013839 
   0.010980000     0.0084231   -0.0003885    -0.0000013    0.0000001     0.0000000   -0.0000005     1.0004970   -0.0014149 
   0.011229500     0.0084381   -0.0004233     0.0000002    0.0000001     0.0000015    0.0000002     1.0004380   -0.0013958 
   0.011479000     0.0084557   -0.0004439    -0.0000007    0.0000007    -0.0000008    0.0000003     1.0004300   -0.0013835 
   0.011728500     0.0084628   -0.0004558     0.0000002   -0.0000006    -0.0000002    0.0000007     1.0004260   -0.0014487 
   0.011978000     0.0084707   -0.0004931     0.0000005    0.0000003    -0.0000012    0.0000000     1.0004080   -0.0014861 
   0.012227500     0.0084923   -0.0005040     0.0000008   -0.0000005     0.0000003   -0.0000002     1.0003950   -0.0014442 
   0.012477000     0.0085010   -0.0005300    -0.0000012    0.0000018    -0.0000004    0.0000009     1.0004490   -0.0014238 
   0.012726500     0.0085062   -0.0005616    -0.0000001    0.0000005    -0.0000004    0.0000002     1.0004280   -0.0014759 
   0.012976000     0.0085262   -0.0005953    -0.0000007    0.0000002     0.0000003    0.0000003     1.0004500   -0.0014570 
   0.013225500     0.0085362   -0.0006203    -0.0000001    0.0000000     0.0000009    0.0000004     1.0004900   -0.0014654 
   0.013475000     0.0085498   -0.0006461     0.0000006    0.0000005     0.0000000   -0.0000003     1.0004710   -0.0014876 
   0.013724500     0.0085537   -0.0006791     0.0000017   -0.0000004    -0.0000008   -0.0000001     1.0004260   -0.0015184 
   0.013974000     0.0085677   -0.0007009     0.0000000   -0.0000011    -0.0000001    0.0000006     1.0004130   -0.0014301 
   0.014223500     0.0085803   -0.0007362    -0.0000007    0.0000002    -0.0000005   -0.0000003     1.0003720   -0.0014329 
   0.014473000     0.0085949   -0.0007828     0.0000001    0.0000003    -0.0000006    0.0000005     1.0003630   -0.0015275 
   0.014722500     0.0086130   -0.0008094     0.0000003   -0.0000010    -0.0000002    0.0000003     1.0004340   -0.0014725 
   0.014972000     0.0086065   -0.0008230     0.0000008   -0.0000002     0.0000002   -0.0000014     1.0003220   -0.0015558 
   0.015221500     0.0086283   -0.0008674    -0.0000001    0.0000007     0.0000003    0.0000001     1.0003640   -0.0015254 
   0.015471000     0.0086385   -0.0008912     0.0000007    0.0000005    -0.0000002    0.0000001     1.0004030   -0.0015663 
   0.015720500     0.0086380   -0.0009184     0.0000002    0.0000005    -0.0000004   -0.0000008     1.0003250   -0.0015933 
   0.015970000     0.0086741   -0.0009581     0.0000005    0.0000002    -0.0000001   -0.0000003     1.0002720   -0.0015073 
   0.016219500     0.0086739   -0.0009956     0.0000002    0.0000003     0.0000012    0.0000003     1.0003200   -0.0015975 
   0.016469000     0.0086848   -0.0010186     0.0000002    0.0000012     0.0000007   -0.0000005     1.0003040   -0.0016617 
   0.016718500     0.0086968   -0.0010550    -0.0000011    0.0000000    -0.0000007    0.0000007     1.0003500   -0.0015510 
   0.016968000     0.0087110   -0.0010942     0.0000017    0.0000003    -0.0000011    0.0000004     1.0002920   -0.0015192 
   0.017217500     0.0087144   -0.0011238     0.0000006   -0.0000008    -0.0000003   -0.0000001     1.0002180   -0.0015365 
   0.017467000     0.0087307   -0.0011603    -0.0000001    0.0000004    -0.0000013    0.0000006     1.0002420   -0.0016085 
   0.017716500     0.0087393   -0.0012012    -0.0000002    0.0000002     0.0000007    0.0000002     1.0002240   -0.0017073 
   0.017966000     0.0087397   -0.0012327     0.0000000    0.0000004    -0.0000007    0.0000005     1.0003120   -0.0015781 
   0.018215500     0.0087635   -0.0012548    -0.0000007   -0.0000003    -0.0000003    0.0000005     1.0002350   -0.0016376 
   0.018465000     0.0087747   -0.0012820    -0.0000006   -0.0000004     0.0000011   -0.0000006     1.0002510   -0.0016735 
   0.018714500     0.0087741   -0.0013304    -0.0000004   -0.0000011    -0.0000003    0.0000001     1.0002630   -0.0016740 
   0.018964000     0.0087872   -0.0013470    -0.0000002   -0.0000006    -0.0000003   -0.0000006     1.0002810   -0.0016067 
   0.019213500     0.0087888   -0.0014005     0.0000003   -0.0000002     0.0000004   -0.0000012     1.0002350   -0.0016204 
   0.019463000     0.0087985   -0.0014281    -0.0000004   -0.0000006    -0.0000008    0.0000006     1.0001610   -0.0016666 
   0.019712500     0.0088023   -0.0014648    -0.0000007   -0.0000005    -0.0000002   -0.0000004     1.0001620   -0.0017223 
   0.019962000     0.0088257   -0.0014790     0.0000000    0.0000003     0.0000003    0.0000008     1.0001820   -0.0017334 
   0.020211500     0.0088189   -0.0015185     0.0000002   -0.0000008    -0.0000007    0.0000002     1.0002080   -0.0017325 
   0.020461000     0.0088330   -0.0015585     0.0000015    0.0000003    -0.0000002   -0.0000002     1.0001380   -0.0017628 
   0.020710500     0.0088406   -0.0015915    -0.0000008   -0.0000012     0.0000002   -0.0000010     1.0001020   -0.0017897 
   0.020960000     0.0088350   -0.0016280     0.0000006   -0.0000010     0.0000007    0.0000009     1.0000320   -0.0018434 
   0.021209500     0.0088408   -0.0016760     0.0000010    0.0000002     0.0000011   -0.0000005     1.0001500   -0.0017501 
   0.021459000     0.0088462   -0.0016972    -0.0000010   -0.0000005     0.0000004   -0.0000003     1.0001590   -0.0017785 
   0.021708500     0.0088625   -0.0017382     0.0000004    0.0000003    -0.0000007   -0.0000005     1.0001360   -0.0018038 
   0.021958000     0.0088635   -0.0017708    -0.0000008    0.0000002     0.0000001    0.0000007     1.0000880   -0.0018437 
   0.022207500     0.0088716   -0.0018050     0.0000003    0.0000005    -0.0000002   -0.0000004     1.0000820   -0.0018479 
   0.022457000     0.0088920   -0.0018553    -0.0000008    0.0000006     0.0000004   -0.0000006     1.0000590   -0.0018443 
   0.022706500     0.0088903   -0.0019044     0.0000000    0.0000004     0.0000009   -0.0000005     1.0000330   -0.0018368 
   0.022956000     0.0089033   -0.0019280     0.0000000    0.0000014    -0.0000009    0.0000005     1.0001070   -0.0017678 
   0.023205500     0.0089000   -0.0019665    -0.0000007   -0.0000014     0.0000006   -0.0000001     0.9999903   -0.0018474 
   0.023455000     0.0089160   -0.0019994     0.0000007    0.0000003     0.0000008   -0.0000006     0.9999982   -0.0018794 
   0.023704500     0.0089069   -0.0020407     0.0000004   -0.0000008    -0.0000003   -0.0000006     1.0000330   -0.0018941 
   0.023954000     0.0089178   -0.0020675    -0.0000006   -0.0000005    -0.0000004    0.0000005     0.9999607   -0.0018514 
   0.024203500     0.0089274   -0.0021124     0.0000010    0.0000000    -0.0000002   -0.0000018     0.9999631   -0.0019528 
   0.024453000     0.0089387   -0.0021485    -0.0000004    0.0000007     0.0000009    0.0000001     0.9999524   -0.0019055 
   0.024702500     0.0089235   -0.0021802    -0.0000007    0.0000000     0.0000002   -0.0000004     0.9999877   -0.0019353 
   0.024952000     0.0089401   -0.0022225     0.0000010   -0.0000002     0.0000004    0.0000001     0.9999817   -0.0019402 
   0.025201500     0.0089635   -0.0022372    -0.0000001    0.0000006    -0.0000007    0.0000006     1.0003290   -0.0015565 
   0.025451000     0.0089394   -0.0022878     0.0000002   -0.0000005     0.0000005   -0.0000007     0.9999288   -0.0019195 
   0.025700500     0.0089643   -0.0023329    -0.0000001   -0.0000003    -0.0000009   -0.0000003     0.9999552   -0.0019315 
   0.025950000     0.0089684   -0.0023620     0.0000013    0.0000004    -0.0000003   -0.0000007     0.9999194   -0.0018996 
   0.026199500     0.0089644   -0.0024176     0.0000005    0.0000013    -0.0000004    0.0000002     0.9998964   -0.0019394 
   0.026449000     0.0089685   -0.0024489    -0.0000009   -0.0000001    -0.0000003   -0.0000004     0.9999540   -0.0019109 
   0.026698500     0.0089648   -0.0024926    -0.0000009    0.0000006    -0.0000007   -0.0000008     1.0000190   -0.0019897 
   0.026948000     0.0089669   -0.0025309    -0.0000002   -0.0000011     0.0000001   -0.0000002     0.9999125   -0.0019852 
   0.027197500     0.0089650   -0.0025500     0.0000007    0.0000000     0.0000010   -0.0000008     0.9998824   -0.0019384 
   0.027447000     0.0089769   -0.0026014    -0.0000002    0.0000014     0.0000011    0.0000002     0.9998398   -0.0019926 
   0.027696500     0.0089685   -0.0026393     0.0000004    0.0000000     0.0000015   -0.0000010     0.9998630   -0.0020135 
   0.027946000     0.0089679   -0.0026807    -0.0000003   -0.0000004     0.0000004    0.0000004     0.9997835   -0.0020891 
   0.028195500     0.0089758   -0.0027330     0.0000000    0.0000015     0.0000001    0.0000002     0.9998686   -0.0020021 
   0.028445000     0.0089795   -0.0027733    -0.0000016   -0.0000002    -0.0000001   -0.0000002     0.9998133   -0.0020292 
   0.028694500     0.0089751   -0.0028157    -0.0000002    0.0000001    -0.0000003    0.0000006     0.9998107   -0.0020285 
   0.028944000     0.0089758   -0.0028448     0.0000002   -0.0000013    -0.0000012   -0.0000001     0.9997964   -0.0020620 
   0.029193500     0.0089798   -0.0028902     0.0000008   -0.0000009    -0.0000008   -0.0000011     0.9997783   -0.0020783 
   0.029443000     0.0089853   -0.0029292    -0.0000007   -0.0000004     0.0000002   -0.0000010     0.9997572   -0.0020455 
   0.029692500     0.0089833   -0.0029687    -0.0000003   -0.0000008    -0.0000001    0.0000008     0.9996991   -0.0021027 
   0.029942000     0.0089857   -0.0030140     0.0000015   -0.0000006    -0.0000012    0.0000008     0.9996799   -0.0021117 
   0.030191500     0.0089636   -0.0030579     0.0000012   -0.0000003     0.0000004   -0.0000010     0.9997084   -0.0020925 
   0.030441000     0.0089655   -0.0030902    -0.0000006    0.0000001     0.0000005    0.0000006     0.9996838   -0.0020192 
   0.030690500     0.0089735   -0.0031345    -0.0000012    0.0000006     0.0000003   -0.0000008     0.9996988   -0.0021693 
   0.030940000     0.0089772   -0.0031802     0.0000005   -0.0000008     0.0000005   -0.0000002     0.9997494   -0.0021484 
   0.031189500     0.0089793   -0.0032183     0.0000002    0.0000004     0.0000009   -0.0000011     0.9997181   -0.0022101 
   0.031439000     0.0089679   -0.0032661    -0.0000006    0.0000005    -0.0000012    0.0000001     0.9997049   -0.0021838 
   0.031688500     0.0089581   -0.0033200    -0.0000007    0.0000001    -0.0000008   -0.0000004     0.9996784   -0.0021599 
   0.031938000     0.0089579   -0.0033540     0.0000005    0.0000006     0.0000007    0.0000005     0.9995493   -0.0023077 
   0.032187500     0.0089696   -0.0033792    -0.0000012   -0.0000002    -0.0000001   -0.0000007     0.9996676   -0.0022527 
   0.032437000     0.0089649   -0.0034431    -0.0000008    0.0000004    -0.0000002   -0.0000008     0.9996362   -0.0021790 
   0.032686500     0.0089186   -0.0035070     0.0000000    0.0000003    -0.0000004   -0.0000009     0.9995020   -0.0020637 
   0.032936000     0.0089461   -0.0035349     0.0000001   -0.0000012     0.0000000    0.0000006     0.9995726   -0.0022856 
   0.033185500     0.0089000   -0.0035950     0.0000004   -0.0000006    -0.0000003   -0.0000002     0.9995120   -0.0020440 
   0.033435000     0.0089561   -0.0036260     0.0000006    0.0000006    -0.0000004   -0.0000004     0.9995938   -0.0023056 
   0.033684500     0.0089632   -0.0036610     0.0000001    0.0000005     0.0000006    0.0000004     0.9996123   -0.0022401 
   0.033934000     0.0089509   -0.0037157    -0.0000011    0.0000005    -0.0000009    0.0000007     0.9996229   -0.0023175 
   0.034183500     0.0089460   -0.0037598    -0.0000001    0.0000003    -0.0000011   -0.0000010     0.9995993   -0.0023253 
   0.034433000     0.0089523   -0.0038097     0.0000000   -0.0000011     0.0000002   -0.0000011     0.9996520   -0.0023167 
   0.034682500     0.0089483   -0.0038519     0.0000000   -0.0000001     0.0000002   -0.0000016     0.9995726   -0.0023724 
   0.034932000     0.0089439   -0.0039024     0.0000001   -0.0000008    -0.0000004   -0.0000005     0.9996167   -0.0023644 
   0.035181500     0.0089478   -0.0039289     0.0000011    0.0000003     0.0000009   -0.0000001     0.9995747   -0.0024000 
   0.035431000     0.0089328   -0.0039849    -0.0000014    0.0000002     0.0000008   -0.0000009     0.9995515   -0.0023297 
   0.035680500     0.0089423   -0.0040141     0.0000002    0.0000005    -0.0000008    0.0000006     0.9995363   -0.0023877 
   0.035930000     0.0089280   -0.0040754    -0.0000005   -0.0000007     0.0000003   -0.0000009     0.9995478   -0.0023847 
   0.036179500     0.0089299   -0.0041049     0.0000002   -0.0000004     0.0000003    0.0000017     0.9995548   -0.0023830 
   0.036429000     0.0089309   -0.0041585    -0.0000009    0.0000001    -0.0000001    0.0000001     0.9995292   -0.0023714 
   0.036678500     0.0089322   -0.0042156     0.0000010    0.0000000     0.0000001   -0.0000015     0.9995621   -0.0024348 
   0.036928000     0.0089374   -0.0042431     0.0000005   -0.0000009     0.0000008   -0.0000002     0.9995595   -0.0024439 
   0.037177500     0.0089224   -0.0042942    -0.0000004   -0.0000004     0.0000002    0.0000005     0.9995663   -0.0024272 
   0.037427000     0.0089228   -0.0043507     0.0000000    0.0000001    -0.0000012   -0.0000005     0.9995853   -0.0025045 
   0.037676500     0.0089303   -0.0043792     0.0000004    0.0000014     0.0000003    0.0000001     0.9995205   -0.0024179 
   0.037926000     0.0089102   -0.0044430     0.0000004   -0.0000017    -0.0000001    0.0000000     0.9995017   -0.0024307 
   0.038175500     0.0089203   -0.0044887    -0.0000003   -0.0000004    -0.0000014   -0.0000001     0.9995651   -0.0024968 
   0.038425000     0.0089129   -0.0045246    -0.0000001   -0.0000001     0.0000002    0.0000005     0.9995989   -0.0024849 
   0.038674500     0.0089157   -0.0045724     0.0000007   -0.0000003     0.0000001    0.0000005     0.9995369   -0.0025059 
   0.038924000     0.0089077   -0.0046302    -0.0000001    0.0000014     0.0000003    0.0000001     0.9995127   -0.0024870 
   0.039173500     0.0089054   -0.0046600     0.0000015   -0.0000008    -0.0000001   -0.0000008     0.9995254   -0.0025399 
   0.039423000     0.0089057   -0.0047272     0.0000003    0.0000000    -0.0000007    0.0000014     0.9995205   -0.0025456 
   0.039672500     0.0088854   -0.0047689    -0.0000002    0.0000004     0.0000010    0.0000002     0.9992864   -0.0024272 
   0.039922000     0.0089030   -0.0047703     0.0000007   -0.0000001     0.0000014    0.0000003     0.9997787   -0.0023025 
