! MS46122B
! 1746301/73750021
! 11/3/2023 2:41:15 PM
! C:\USERS\SPEGWAL\DOWNLOADS\SAURABH\REACH\NODES\FRONT END\MEASUREMENTS\MEASURED S-PARAMETERS_03-11-2023\MS3-MS4_MS1_CABLE\MS1_ON-MS3_OFF-MS4_OFF_S11.S2P
! CHANNEL.1
! TR.MEASUREMENT
! CORRECTED.DATA
# GHZ S RI R 50.0
! FREQ.GHZ         S11RE         S11IM         S21RE         S21IM         S12RE         S12IM         S22RE         S22IM         
!; PortSelection: Port_12
   0.001000000     0.9906886   -0.1114689     0.0000019   -0.0000022     0.0000010    0.0000010     1.0025550   -0.0015855 
   0.001249500     0.9866769   -0.1417088     0.0000001   -0.0000008     0.0000003    0.0000018     1.0020970   -0.0017747 
   0.001499000     0.9818588   -0.1706241     0.0000005   -0.0000006     0.0000003   -0.0000004     1.0020460   -0.0016863 
   0.001748500     0.9764971   -0.1995196     0.0000009   -0.0000002     0.0000005   -0.0000004     1.0020090   -0.0015596 
   0.001998000     0.9705442   -0.2281414    -0.0000007   -0.0000003     0.0000009   -0.0000004     1.0019390   -0.0015213 
   0.002247500     0.9654662   -0.2566658    -0.0000008   -0.0000003     0.0000007    0.0000003     1.0021390   -0.0018230 
   0.002497000     0.9580508   -0.2850313    -0.0000006   -0.0000014    -0.0000002    0.0000000     1.0021180   -0.0018706 
   0.002746500     0.9499515   -0.3129815     0.0000002    0.0000003     0.0000011   -0.0000012     1.0020140   -0.0017070 
   0.002996000     0.9408767   -0.3406098     0.0000001   -0.0000009     0.0000018   -0.0000010     1.0020300   -0.0018217 
   0.003245500     0.9312123   -0.3680042     0.0000003   -0.0000009    -0.0000007    0.0000006     1.0019150   -0.0016979 
   0.003495000     0.9207234   -0.3951353     0.0000002   -0.0000005     0.0000013    0.0000006     1.0020200   -0.0017060 
   0.003744500     0.9096048   -0.4217737    -0.0000005    0.0000004     0.0000003   -0.0000005     1.0018620   -0.0016550 
   0.003994000     0.8977236   -0.4478404     0.0000007    0.0000000     0.0000001    0.0000003     1.0018790   -0.0016513 
   0.004243500     0.8848951   -0.4735871    -0.0000008   -0.0000008    -0.0000009    0.0000008     1.0019270   -0.0019764 
   0.004493000     0.8713595   -0.4990253     0.0000007    0.0000007     0.0000000   -0.0000004     1.0019810   -0.0021112 
   0.004742500     0.8571707   -0.5238357    -0.0000004   -0.0000004     0.0000016   -0.0000008     1.0018990   -0.0019874 
   0.004992000     0.8421713   -0.5481210     0.0000000    0.0000004     0.0000008   -0.0000001     1.0017970   -0.0019408 
   0.005241500     0.8264998   -0.5719028    -0.0000002   -0.0000001     0.0000011   -0.0000006     1.0017360   -0.0018815 
   0.005491000     0.8100532   -0.5948443     0.0000009   -0.0000006     0.0000007   -0.0000007     1.0016250   -0.0018553 
   0.005740500     0.7929320   -0.6169787     0.0000003   -0.0000006    -0.0000009   -0.0000007     1.0015320   -0.0017982 
   0.005990000     0.7750936   -0.6385731     0.0000005   -0.0000002    -0.0000006    0.0000011     1.0014530   -0.0017269 
   0.006239500     0.7566766   -0.6591686     0.0000004   -0.0000006     0.0000002    0.0000007     1.0012980   -0.0016165 
   0.006489000     0.7377500   -0.6789591     0.0000005   -0.0000004    -0.0000005   -0.0000007     1.0010820   -0.0016138 
   0.006738500     0.7181543   -0.6980793    -0.0000001   -0.0000010     0.0000013   -0.0000003     1.0009140   -0.0015359 
   0.006988000     0.6981571   -0.7169972     0.0000004    0.0000006     0.0000001   -0.0000004     1.0008180   -0.0014879 
   0.007237500     0.6776344   -0.7352593    -0.0000007    0.0000016    -0.0000009   -0.0000006     1.0006980   -0.0014125 
   0.007487000     0.6565646   -0.7531062     0.0000000    0.0000005     0.0000008   -0.0000003     1.0005910   -0.0014199 
   0.007736500     0.6350651   -0.7705913    -0.0000001   -0.0000019     0.0000004   -0.0000003     1.0006230   -0.0014010 
   0.007986000     0.6130467   -0.7874695    -0.0000002   -0.0000002    -0.0000007   -0.0000002     1.0006550   -0.0014169 
   0.008235500     0.5905619   -0.8039855    -0.0000005    0.0000004    -0.0000005   -0.0000004     1.0006620   -0.0014171 
   0.008485000     0.5675021   -0.8199123     0.0000001    0.0000009    -0.0000003    0.0000003     1.0006330   -0.0014506 
   0.008734500     0.5442453   -0.8352492    -0.0000008    0.0000013     0.0000000    0.0000011     1.0006420   -0.0014913 
   0.008984000     0.5204909   -0.8499874     0.0000007    0.0000007    -0.0000004   -0.0000003     1.0006060   -0.0014574 
   0.009233500     0.4963637   -0.8639079     0.0000012    0.0000008    -0.0000002    0.0000001     1.0006180   -0.0015324 
   0.009483000     0.4716016   -0.8774164    -0.0000006   -0.0000009    -0.0000017    0.0000007     1.0006140   -0.0014671 
   0.009732500     0.4464299   -0.8901712    -0.0000002   -0.0000001     0.0000005   -0.0000002     1.0006440   -0.0015389 
   0.009982000     0.4211071   -0.9022871    -0.0000001   -0.0000008    -0.0000011   -0.0000009     1.0005800   -0.0015535 
   0.010231500     0.3954441   -0.9134929     0.0000009    0.0000000     0.0000000   -0.0000003     1.0005240   -0.0014707 
   0.010481000     0.3693295   -0.9242025    -0.0000001    0.0000000     0.0000006    0.0000004     1.0005530   -0.0015462 
   0.010730500     0.3430094   -0.9338945     0.0000006    0.0000008    -0.0000005   -0.0000008     1.0006350   -0.0015240 
   0.010980000     0.3167212   -0.9430763     0.0000000   -0.0000004    -0.0000003   -0.0000011     1.0005570   -0.0015359 
   0.011229500     0.2900395   -0.9513640    -0.0000002    0.0000005     0.0000019   -0.0000006     1.0005230   -0.0015102 
   0.011479000     0.2630087   -0.9588488     0.0000009    0.0000001     0.0000001   -0.0000006     1.0005090   -0.0015448 
   0.011728500     0.2358993   -0.9656426    -0.0000001   -0.0000003     0.0000004   -0.0000001     1.0005010   -0.0016078 
   0.011978000     0.2086461   -0.9716511    -0.0000003   -0.0000009     0.0000003   -0.0000002     1.0004830   -0.0016220 
   0.012227500     0.1813051   -0.9767864    -0.0000005   -0.0000015    -0.0000008   -0.0000026     1.0004600   -0.0015681 
   0.012477000     0.1539406   -0.9811221     0.0000000    0.0000004     0.0000016    0.0000001     1.0004760   -0.0015963 
   0.012726500     0.1261953   -0.9846557     0.0000007    0.0000003     0.0000006    0.0000000     1.0005090   -0.0016052 
   0.012976000     0.0984634   -0.9875957    -0.0000001    0.0000006     0.0000005   -0.0000009     1.0004920   -0.0016069 
   0.013225500     0.0709129   -0.9897213     0.0000011    0.0000002     0.0000003    0.0000005     1.0004880   -0.0016414 
   0.013475000     0.0431573   -0.9911346    -0.0000002   -0.0000003    -0.0000002   -0.0000004     1.0005340   -0.0015671 
   0.013724500     0.0153900   -0.9916319     0.0000000    0.0000015     0.0000002   -0.0000003     1.0004270   -0.0015393 
   0.013974000    -0.0123904   -0.9913329    -0.0000003   -0.0000005    -0.0000015   -0.0000013     1.0004440   -0.0015654 
   0.014223500    -0.0400964   -0.9903334    -0.0000003    0.0000006     0.0000007   -0.0000001     1.0004160   -0.0016293 
   0.014473000    -0.0676699   -0.9883643    -0.0000014    0.0000001     0.0000000   -0.0000009     1.0004230   -0.0016677 
   0.014722500    -0.0952918   -0.9858387    -0.0000005   -0.0000008     0.0000003    0.0000006     1.0003940   -0.0016913 
   0.014972000    -0.1227665   -0.9824601     0.0000001    0.0000001    -0.0000002    0.0000007     1.0003490   -0.0017051 
   0.015221500    -0.1499228   -0.9784798    -0.0000009   -0.0000006     0.0000004   -0.0000001     1.0004580   -0.0016783 
   0.015471000    -0.1770718   -0.9735202     0.0000004   -0.0000005    -0.0000004   -0.0000004     1.0004240   -0.0017096 
   0.015720500    -0.2039223   -0.9678691     0.0000002    0.0000004     0.0000007    0.0000002     1.0003650   -0.0017386 
   0.015970000    -0.2307727   -0.9615918    -0.0000015   -0.0000002    -0.0000006    0.0000008     1.0003360   -0.0015953 
   0.016219500    -0.2572244   -0.9544396     0.0000000    0.0000010    -0.0000007    0.0000007     1.0003550   -0.0017524 
   0.016469000    -0.2835366   -0.9464803     0.0000016    0.0000007     0.0000005   -0.0000002     1.0003350   -0.0017268 
   0.016718500    -0.3096238   -0.9378468    -0.0000001    0.0000001     0.0000014    0.0000001     1.0004110   -0.0016775 
   0.016968000    -0.3352776   -0.9285938     0.0000008   -0.0000021    -0.0000001   -0.0000004     1.0003690   -0.0016860 
   0.017217500    -0.3607429   -0.9184102     0.0000010    0.0000005     0.0000004    0.0000007     1.0002300   -0.0017601 
   0.017467000    -0.3859460   -0.9077038     0.0000005   -0.0000003    -0.0000008    0.0000012     1.0003320   -0.0017263 
   0.017716500    -0.4108273   -0.8963003    -0.0000010    0.0000008     0.0000001    0.0000003     1.0002220   -0.0018343 
   0.017966000    -0.4352270   -0.8842295    -0.0000006   -0.0000002    -0.0000005   -0.0000005     1.0003220   -0.0017769 
   0.018215500    -0.4593500   -0.8715219     0.0000007   -0.0000020    -0.0000003    0.0000006     1.0002360   -0.0017870 
   0.018465000    -0.4830280   -0.8581285     0.0000006   -0.0000003     0.0000003   -0.0000018     1.0002390   -0.0018066 
   0.018714500    -0.5064857   -0.8441409     0.0000006   -0.0000014    -0.0000004   -0.0000004     1.0002600   -0.0017996 
   0.018964000    -0.5294634   -0.8294721    -0.0000011    0.0000011    -0.0000013   -0.0000004     1.0001470   -0.0017904 
   0.019213500    -0.5518203   -0.8142704    -0.0000008   -0.0000011     0.0000000    0.0000000     1.0002530   -0.0018331 
   0.019463000    -0.5740075   -0.7984306    -0.0000006   -0.0000003     0.0000005   -0.0000004     1.0001780   -0.0019078 
   0.019712500    -0.5954846   -0.7819207     0.0000008    0.0000005     0.0000006   -0.0000006     1.0001890   -0.0019428 
   0.019962000    -0.6164982   -0.7650473    -0.0000004    0.0000008    -0.0000003    0.0000004     1.0001710   -0.0019169 
   0.020211500    -0.6370367   -0.7474320     0.0000005   -0.0000005    -0.0000017    0.0000004     1.0002140   -0.0019012 
   0.020461000    -0.6570026   -0.7293301    -0.0000015    0.0000006    -0.0000014   -0.0000012     1.0001340   -0.0018991 
   0.020710500    -0.6765010   -0.7105926     0.0000004   -0.0000001    -0.0000002   -0.0000020     1.0000710   -0.0019445 
   0.020960000    -0.6955656   -0.6912755     0.0000004   -0.0000013    -0.0000001   -0.0000001     1.0000350   -0.0019330 
   0.021209500    -0.7140481   -0.6716267    -0.0000005    0.0000005     0.0000005    0.0000000     1.0000930   -0.0019472 
   0.021459000    -0.7319984   -0.6513913     0.0000000    0.0000006    -0.0000004    0.0000001     1.0000960   -0.0019443 
   0.021708500    -0.7493342   -0.6307409     0.0000004   -0.0000008     0.0000009    0.0000008     1.0001210   -0.0019958 
   0.021958000    -0.7660082   -0.6095015    -0.0000008    0.0000004    -0.0000007    0.0000001     1.0000800   -0.0020116 
   0.022207500    -0.7821786   -0.5880340     0.0000015    0.0000012    -0.0000002    0.0000009     1.0000710   -0.0020331 
   0.022457000    -0.7979170   -0.5660834     0.0000015    0.0000009     0.0000010   -0.0000006     1.0000230   -0.0020375 
   0.022706500    -0.8127379   -0.5438327     0.0000009    0.0000016    -0.0000002    0.0000009     1.0000000   -0.0019823 
   0.022956000    -0.8269633   -0.5210348     0.0000010   -0.0000001     0.0000002    0.0000003     1.0000450   -0.0019763 
   0.023205500    -0.8403904   -0.4979938    -0.0000010    0.0000001    -0.0000002    0.0000001     0.9999577   -0.0020109 
   0.023455000    -0.8533943   -0.4746647    -0.0000011   -0.0000008    -0.0000007    0.0000007     0.9999697   -0.0021033 
   0.023704500    -0.8657476   -0.4509601    -0.0000001   -0.0000005    -0.0000003    0.0000009     0.9999758   -0.0021711 
   0.023954000    -0.8774015   -0.4267745    -0.0000006    0.0000003    -0.0000006    0.0000006     0.9998730   -0.0020298 
   0.024203500    -0.8883766   -0.4023608    -0.0000004    0.0000000     0.0000005    0.0000004     0.9999003   -0.0020737 
   0.024453000    -0.8986824   -0.3778805     0.0000001   -0.0000015     0.0000014    0.0000012     0.9999050   -0.0020401 
   0.024702500    -0.9081680   -0.3530796    -0.0000005   -0.0000009    -0.0000002   -0.0000003     0.9999033   -0.0020947 
   0.024952000    -0.9171330   -0.3279591     0.0000000   -0.0000004     0.0000004    0.0000020     0.9998884   -0.0020693 
   0.025201500    -0.9252034   -0.3026571     0.0000007   -0.0000003    -0.0000016   -0.0000007     1.0003060   -0.0017118 
   0.025451000    -0.9326150   -0.2771735    -0.0000004   -0.0000011    -0.0000006    0.0000006     0.9998893   -0.0021044 
   0.025700500    -0.9394258   -0.2515427    -0.0000003   -0.0000001    -0.0000009   -0.0000003     0.9998745   -0.0021233 
   0.025950000    -0.9454871   -0.2255787    -0.0000012   -0.0000006     0.0000006    0.0000006     0.9999060   -0.0020904 
   0.026199500    -0.9508895   -0.1995131     0.0000016    0.0000013    -0.0000003   -0.0000011     0.9998130   -0.0021363 
   0.026449000    -0.9555618   -0.1732445     0.0000001    0.0000001    -0.0000003   -0.0000013     0.9998574   -0.0021611 
   0.026698500    -0.9595485   -0.1471413    -0.0000005    0.0000004    -0.0000002    0.0000004     0.9999052   -0.0022312 
   0.026948000    -0.9628612   -0.1208972     0.0000004   -0.0000006     0.0000012    0.0000009     0.9998232   -0.0021387 
   0.027197500    -0.9653614   -0.0943896     0.0000001   -0.0000001     0.0000002   -0.0000004     0.9997609   -0.0021436 
   0.027447000    -0.9671561   -0.0678879    -0.0000005    0.0000002    -0.0000001   -0.0000003     0.9997814   -0.0021918 
   0.027696500    -0.9681617   -0.0415638     0.0000009    0.0000001     0.0000002    0.0000005     0.9998105   -0.0022014 
   0.027946000    -0.9685252   -0.0151546    -0.0000002   -0.0000001    -0.0000001    0.0000008     0.9997677   -0.0022763 
   0.028195500    -0.9682103    0.0114134     0.0000000    0.0000003     0.0000001   -0.0000004     0.9997961   -0.0021907 
   0.028445000    -0.9670317    0.0376352     0.0000004    0.0000010    -0.0000003   -0.0000001     0.9997324   -0.0022337 
   0.028694500    -0.9652172    0.0640279     0.0000000    0.0000005    -0.0000005    0.0000001     0.9997514   -0.0022045 
   0.028944000    -0.9627752    0.0903587    -0.0000007    0.0000006     0.0000002   -0.0000003     0.9996762   -0.0023102 
   0.029193500    -0.9594593    0.1165084    -0.0000002    0.0000009     0.0000005    0.0000007     0.9997203   -0.0022658 
   0.029443000    -0.9555045    0.1424941     0.0000003   -0.0000008    -0.0000001    0.0000003     0.9996721   -0.0022104 
   0.029692500    -0.9508048    0.1684016     0.0000005    0.0000010     0.0000006    0.0000006     0.9996281   -0.0023041 
   0.029942000    -0.9454374    0.1941776    -0.0000004    0.0000005     0.0000003    0.0000006     0.9995899   -0.0023388 
   0.030191500    -0.9394466    0.2197029     0.0000002    0.0000006     0.0000004    0.0000005     0.9996740   -0.0022930 
   0.030441000    -0.9326913    0.2451901     0.0000005    0.0000015    -0.0000005    0.0000004     0.9996029   -0.0022049 
   0.030690500    -0.9251521    0.2705385     0.0000004    0.0000004    -0.0000001    0.0000006     0.9996192   -0.0023820 
   0.030940000    -0.9170782    0.2954744    -0.0000001   -0.0000007     0.0000000    0.0000004     0.9996127   -0.0023479 
   0.031189500    -0.9083731    0.3203312    -0.0000004    0.0000005    -0.0000003    0.0000021     0.9996141   -0.0023765 
   0.031439000    -0.8988946    0.3449284    -0.0000010    0.0000011    -0.0000010   -0.0000001     0.9995592   -0.0023521 
   0.031688500    -0.8888108    0.3693208     0.0000001    0.0000008     0.0000000   -0.0000005     0.9995975   -0.0023653 
   0.031938000    -0.8781138    0.3932506     0.0000013   -0.0000016    -0.0000007   -0.0000002     0.9995020   -0.0024238 
   0.032187500    -0.8667666    0.4169076     0.0000003   -0.0000004     0.0000004   -0.0000013     0.9995320   -0.0023778 
   0.032437000    -0.8547862    0.4402284     0.0000005    0.0000003     0.0000003   -0.0000008     0.9995200   -0.0023740 
   0.032686500    -0.8423632    0.4630104     0.0000001    0.0000013     0.0000004    0.0000007     0.9993986   -0.0021681 
   0.032936000    -0.8289645    0.4858066    -0.0000001    0.0000002     0.0000011    0.0000005     0.9994763   -0.0024618 
   0.033185500    -0.8152815    0.5082102    -0.0000008    0.0000002    -0.0000003    0.0000003     0.9993414   -0.0022096 
   0.033435000    -0.8005625    0.5299768     0.0000011   -0.0000007     0.0000001   -0.0000003     0.9994466   -0.0025095 
   0.033684500    -0.7855194    0.5515789    -0.0000004   -0.0000006    -0.0000001   -0.0000009     0.9994501   -0.0024441 
   0.033934000    -0.7699840    0.5725899     0.0000003   -0.0000007    -0.0000003   -0.0000001     0.9994934   -0.0025174 
   0.034183500    -0.7537701    0.5931665     0.0000004   -0.0000007    -0.0000010    0.0000004     0.9993747   -0.0025673 
   0.034433000    -0.7370401    0.6133322    -0.0000010   -0.0000010    -0.0000010   -0.0000013     0.9994272   -0.0025496 
   0.034682500    -0.7198302    0.6330336    -0.0000010   -0.0000008     0.0000001   -0.0000006     0.9994189   -0.0025493 
   0.034932000    -0.7020198    0.6523974    -0.0000003    0.0000009     0.0000015    0.0000001     0.9994901   -0.0025426 
   0.035181500    -0.6835791    0.6712626    -0.0000006    0.0000000    -0.0000007    0.0000006     0.9994349   -0.0025814 
   0.035431000    -0.6645995    0.6894174    -0.0000014   -0.0000009     0.0000001   -0.0000002     0.9993939   -0.0025324 
   0.035680500    -0.6453500    0.7071548     0.0000002   -0.0000010     0.0000008   -0.0000007     0.9993925   -0.0026118 
   0.035930000    -0.6255578    0.7243831     0.0000003   -0.0000007    -0.0000001   -0.0000010     0.9994193   -0.0025860 
   0.036179500    -0.6052902    0.7411947     0.0000007    0.0000005    -0.0000004   -0.0000005     0.9994593   -0.0025908 
   0.036429000    -0.5846257    0.7572978     0.0000004    0.0000002    -0.0000006    0.0000010     0.9993990   -0.0025730 
   0.036678500    -0.5635499    0.7728404     0.0000000    0.0000007    -0.0000005   -0.0000001     0.9994366   -0.0026197 
   0.036928000    -0.5420172    0.7877497    -0.0000004    0.0000001     0.0000002   -0.0000001     0.9994335   -0.0026644 
   0.037177500    -0.5201538    0.8022532    -0.0000014   -0.0000003     0.0000011   -0.0000006     0.9994356   -0.0026015 
   0.037427000    -0.4978041    0.8159779    -0.0000002   -0.0000005    -0.0000002   -0.0000001     0.9993885   -0.0027304 
   0.037676500    -0.4750072    0.8291280     0.0000013    0.0000003    -0.0000003    0.0000006     0.9993738   -0.0026168 
   0.037926000    -0.4520230    0.8415544     0.0000008   -0.0000004    -0.0000003    0.0000007     0.9993683   -0.0026366 
   0.038175500    -0.4286083    0.8534904     0.0000008   -0.0000003     0.0000002    0.0000003     0.9994239   -0.0026899 
   0.038425000    -0.4049204    0.8648016    -0.0000004    0.0000001     0.0000000   -0.0000005     0.9994491   -0.0026928 
   0.038674500    -0.3808474    0.8755001    -0.0000005    0.0000001     0.0000011    0.0000013     0.9994103   -0.0027150 
   0.038924000    -0.3567279    0.8854220     0.0000004   -0.0000019    -0.0000017   -0.0000011     0.9993576   -0.0027314 
   0.039173500    -0.3322005    0.8947920     0.0000001    0.0000008    -0.0000007   -0.0000001     0.9993814   -0.0027492 
   0.039423000    -0.3074426    0.9034212    -0.0000004    0.0000003     0.0000000    0.0000003     0.9993922   -0.0027722 
   0.039672500    -0.2824148    0.9117036     0.0000014    0.0000016    -0.0000014   -0.0000010     0.9991720   -0.0024586 
   0.039922000    -0.2568314    0.9190692    -0.0000010   -0.0000001    -0.0000020   -0.0000009     0.9996922   -0.0024768 
