! MS46122B
! 1746301/73750021
! 11/3/2023 2:37:15 PM
! C:\USERS\SPEGWAL\DOWNLOADS\SAURABH\REACH\NODES\FRONT END\MEASUREMENTS\MEASURED S-PARAMETERS_03-11-2023\MS3-MS4_MS1_CABLE\MS1_OFF-MS3_OFF-MS4_OFF_S11.S2P
! CHANNEL.1
! TR.MEASUREMENT
! CORRECTED.DATA
# GHZ S RI R 50.0
! FREQ.GHZ         S11RE         S11IM         S21RE         S21IM         S12RE         S12IM         S22RE         S22IM         
!; PortSelection: Port_12
   0.001000000     1.0033990   -0.0087519     0.0000036   -0.0000007    -0.0000002    0.0000030     1.0025170   -0.0014971 
   0.001249500     1.0019510   -0.0103179     0.0000005    0.0000008     0.0000000    0.0000004     1.0020160   -0.0017759 
   0.001499000     1.0019000   -0.0121844     0.0000011    0.0000004     0.0000010   -0.0000004     1.0020010   -0.0016509 
   0.001748500     1.0018710   -0.0140888    -0.0000005    0.0000001     0.0000000   -0.0000008     1.0019790   -0.0015192 
   0.001998000     1.0018900   -0.0159885     0.0000002    0.0000005     0.0000010    0.0000006     1.0018800   -0.0015167 
   0.002247500     1.0021870   -0.0182203     0.0000007   -0.0000008     0.0000001    0.0000006     1.0021090   -0.0017865 
   0.002497000     1.0021580   -0.0200391    -0.0000002    0.0000011    -0.0000009   -0.0000005     1.0020810   -0.0017741 
   0.002746500     1.0022000   -0.0218667    -0.0000005   -0.0000008     0.0000001   -0.0000002     1.0020320   -0.0016819 
   0.002996000     1.0020860   -0.0237765    -0.0000010   -0.0000006     0.0000005    0.0000001     1.0020200   -0.0017849 
   0.003245500     1.0020930   -0.0256764     0.0000000   -0.0000010    -0.0000004    0.0000011     1.0019400   -0.0016299 
   0.003495000     1.0020860   -0.0275654     0.0000003    0.0000000     0.0000005    0.0000009     1.0020140   -0.0017110 
   0.003744500     1.0020550   -0.0294655     0.0000005   -0.0000008     0.0000006   -0.0000008     1.0019680   -0.0016297 
   0.003994000     1.0021150   -0.0313444    -0.0000015   -0.0000005     0.0000005    0.0000000     1.0018340   -0.0016204 
   0.004243500     1.0021290   -0.0331018     0.0000001   -0.0000002     0.0000002    0.0000011     1.0019130   -0.0019409 
   0.004493000     1.0020430   -0.0349800     0.0000014   -0.0000003     0.0000004    0.0000007     1.0018730   -0.0020085 
   0.004742500     1.0021180   -0.0368313     0.0000006   -0.0000004     0.0000001    0.0000011     1.0018500   -0.0019392 
   0.004992000     1.0020710   -0.0386737    -0.0000002    0.0000011     0.0000009    0.0000004     1.0018250   -0.0019613 
   0.005241500     1.0020310   -0.0405787    -0.0000002   -0.0000007    -0.0000004   -0.0000001     1.0016880   -0.0018537 
   0.005491000     1.0019010   -0.0424362    -0.0000008    0.0000009    -0.0000003   -0.0000006     1.0016050   -0.0018162 
   0.005740500     1.0019080   -0.0444733    -0.0000002    0.0000003     0.0000011   -0.0000006     1.0014950   -0.0017764 
   0.005990000     1.0017960   -0.0462980    -0.0000001    0.0000005    -0.0000011    0.0000002     1.0014360   -0.0016960 
   0.006239500     1.0017060   -0.0480978     0.0000011   -0.0000008    -0.0000001    0.0000008     1.0012260   -0.0016662 
   0.006489000     1.0014510   -0.0497259    -0.0000011    0.0000004     0.0000004    0.0000003     1.0010990   -0.0015762 
   0.006738500     1.0011190   -0.0513290    -0.0000004    0.0000001    -0.0000006   -0.0000007     1.0008900   -0.0015162 
   0.006988000     1.0008060   -0.0529485    -0.0000008   -0.0000007    -0.0000001    0.0000002     1.0008150   -0.0014708 
   0.007237500     1.0002820   -0.0545576     0.0000001    0.0000013     0.0000003   -0.0000001     1.0007080   -0.0013784 
   0.007487000     0.9998955   -0.0562830     0.0000004    0.0000005     0.0000001   -0.0000002     1.0005570   -0.0013614 
   0.007736500     0.9995822   -0.0579341    -0.0000008   -0.0000001     0.0000011   -0.0000004     1.0006170   -0.0014060 
   0.007986000     0.9990864   -0.0596162     0.0000003    0.0000002    -0.0000004   -0.0000003     1.0006390   -0.0014038 
   0.008235500     0.9988000   -0.0613847     0.0000002   -0.0000001    -0.0000002    0.0000006     1.0006450   -0.0014013 
   0.008485000     0.9985154   -0.0630241    -0.0000007    0.0000002    -0.0000003    0.0000003     1.0006410   -0.0014300 
   0.008734500     0.9981819   -0.0646746    -0.0000012    0.0000014    -0.0000004   -0.0000001     1.0006430   -0.0014749 
   0.008984000     0.9980620   -0.0663915     0.0000006    0.0000000    -0.0000004   -0.0000004     1.0005790   -0.0014997 
   0.009233500     0.9977684   -0.0681162     0.0000002    0.0000001     0.0000005    0.0000001     1.0005950   -0.0014959 
   0.009483000     0.9976376   -0.0700055     0.0000001    0.0000001     0.0000003   -0.0000002     1.0006420   -0.0014350 
   0.009732500     0.9973852   -0.0719065     0.0000006   -0.0000003     0.0000013   -0.0000001     1.0006230   -0.0015436 
   0.009982000     0.9972679   -0.0737772    -0.0000008   -0.0000008    -0.0000003   -0.0000010     1.0006010   -0.0015174 
   0.010231500     0.9970368   -0.0755865    -0.0000009    0.0000006     0.0000012   -0.0000010     1.0005340   -0.0014615 
   0.010481000     0.9969516   -0.0774322     0.0000004    0.0000004    -0.0000004   -0.0000006     1.0005510   -0.0014948 
   0.010730500     0.9967266   -0.0793316    -0.0000006    0.0000007     0.0000001    0.0000001     1.0006160   -0.0014663 
   0.010980000     0.9967344   -0.0810628     0.0000004   -0.0000005     0.0000004   -0.0000006     1.0005480   -0.0015196 
   0.011229500     0.9966127   -0.0828767     0.0000004    0.0000006    -0.0000006   -0.0000005     1.0005000   -0.0014826 
   0.011479000     0.9964564   -0.0848103    -0.0000004   -0.0000009     0.0000003    0.0000001     1.0004930   -0.0015454 
   0.011728500     0.9962357   -0.0866582    -0.0000003    0.0000008     0.0000006   -0.0000001     1.0004980   -0.0015940 
   0.011978000     0.9960960   -0.0885476     0.0000007   -0.0000004    -0.0000011   -0.0000009     1.0004560   -0.0015074 
   0.012227500     0.9959680   -0.0904369    -0.0000001    0.0000010    -0.0000001   -0.0000003     1.0005040   -0.0015756 
   0.012477000     0.9957348   -0.0922499     0.0000007    0.0000005     0.0000011    0.0000006     1.0004670   -0.0015816 
   0.012726500     0.9954216   -0.0941828     0.0000002   -0.0000001     0.0000009    0.0000005     1.0005190   -0.0015156 
   0.012976000     0.9953091   -0.0959899    -0.0000002   -0.0000013     0.0000005   -0.0000005     1.0005010   -0.0015572 
   0.013225500     0.9951771   -0.0976970     0.0000004   -0.0000004     0.0000000   -0.0000011     1.0005560   -0.0016477 
   0.013475000     0.9950477   -0.0993648     0.0000001   -0.0000007    -0.0000012    0.0000006     1.0005210   -0.0015506 
   0.013724500     0.9948545   -0.1012497    -0.0000002    0.0000010     0.0000011   -0.0000013     1.0004260   -0.0015602 
   0.013974000     0.9947172   -0.1031368     0.0000006    0.0000003     0.0000000   -0.0000014     1.0004480   -0.0015815 
   0.014223500     0.9945818   -0.1048898     0.0000007    0.0000011     0.0000002   -0.0000011     1.0004110   -0.0016165 
   0.014473000     0.9943552   -0.1070171     0.0000013   -0.0000002     0.0000000   -0.0000001     1.0004190   -0.0016471 
   0.014722500     0.9941491   -0.1087156     0.0000002    0.0000006     0.0000003    0.0000010     1.0004810   -0.0016771 
   0.014972000     0.9939122   -0.1106112    -0.0000002   -0.0000001    -0.0000002    0.0000000     1.0004720   -0.0016567 
   0.015221500     0.9936826   -0.1124488     0.0000003   -0.0000008     0.0000005   -0.0000004     1.0004660   -0.0016891 
   0.015471000     0.9934353   -0.1142107    -0.0000009   -0.0000009    -0.0000012   -0.0000010     1.0003760   -0.0017242 
   0.015720500     0.9932625   -0.1159517    -0.0000002   -0.0000013    -0.0000009   -0.0000005     1.0003590   -0.0017882 
   0.015970000     0.9931629   -0.1178513    -0.0000009    0.0000000    -0.0000002   -0.0000006     1.0003670   -0.0016201 
   0.016219500     0.9929325   -0.1196806     0.0000000   -0.0000003     0.0000008   -0.0000007     1.0003320   -0.0017363 
   0.016469000     0.9927235   -0.1214703     0.0000010    0.0000001    -0.0000009    0.0000012     1.0003860   -0.0017194 
   0.016718500     0.9925259   -0.1232067     0.0000003    0.0000004     0.0000000    0.0000001     1.0003770   -0.0016635 
   0.016968000     0.9922379   -0.1252121     0.0000000   -0.0000003     0.0000005    0.0000004     1.0003640   -0.0016295 
   0.017217500     0.9919873   -0.1269810     0.0000001   -0.0000016     0.0000002    0.0000001     1.0002330   -0.0016826 
   0.017467000     0.9916869   -0.1288424     0.0000004   -0.0000004    -0.0000002   -0.0000007     1.0003370   -0.0017265 
   0.017716500     0.9913073   -0.1306533     0.0000013   -0.0000003     0.0000007    0.0000000     1.0002370   -0.0018130 
   0.017966000     0.9909731   -0.1324819     0.0000001   -0.0000006    -0.0000005   -0.0000002     1.0002900   -0.0016748 
   0.018215500     0.9907834   -0.1342858    -0.0000002    0.0000000     0.0000005   -0.0000002     1.0002340   -0.0018089 
   0.018465000     0.9904272   -0.1359974    -0.0000002    0.0000009    -0.0000006   -0.0000005     1.0002480   -0.0017920 
   0.018714500     0.9902083   -0.1377357     0.0000004    0.0000002    -0.0000020   -0.0000012     1.0002350   -0.0017658 
   0.018964000     0.9899815   -0.1395472    -0.0000005    0.0000002    -0.0000007   -0.0000002     1.0002890   -0.0017344 
   0.019213500     0.9896585   -0.1413980    -0.0000007   -0.0000002    -0.0000004    0.0000007     1.0002640   -0.0017975 
   0.019463000     0.9895268   -0.1431632    -0.0000007   -0.0000001    -0.0000003    0.0000007     1.0002030   -0.0018953 
   0.019712500     0.9892966   -0.1450687     0.0000004   -0.0000003    -0.0000005    0.0000006     1.0001790   -0.0018531 
   0.019962000     0.9890338   -0.1468850     0.0000001   -0.0000005    -0.0000002    0.0000003     1.0001330   -0.0018662 
   0.020211500     0.9887342   -0.1487972     0.0000010    0.0000003    -0.0000007    0.0000000     1.0002240   -0.0019089 
   0.020461000     0.9884055   -0.1506787     0.0000004   -0.0000012     0.0000000   -0.0000003     1.0001560   -0.0018858 
   0.020710500     0.9880475   -0.1524686     0.0000000   -0.0000004     0.0000013    0.0000011     1.0000790   -0.0019205 
   0.020960000     0.9878566   -0.1543115     0.0000002   -0.0000005     0.0000005    0.0000007     1.0000680   -0.0019852 
   0.021209500     0.9876071   -0.1560913     0.0000002   -0.0000016     0.0000008   -0.0000003     1.0001670   -0.0018937 
   0.021459000     0.9872509   -0.1578462     0.0000000    0.0000006    -0.0000006    0.0000009     1.0000810   -0.0019225 
   0.021708500     0.9869816   -0.1596863     0.0000006    0.0000006    -0.0000006    0.0000003     1.0001510   -0.0019607 
   0.021958000     0.9865655   -0.1614757    -0.0000001   -0.0000005    -0.0000008    0.0000005     1.0001160   -0.0019885 
   0.022207500     0.9863112   -0.1634390    -0.0000003   -0.0000003     0.0000014    0.0000007     1.0000770   -0.0019956 
   0.022457000     0.9860647   -0.1652596     0.0000011   -0.0000008    -0.0000007    0.0000000     1.0000510   -0.0020275 
   0.022706500     0.9856486   -0.1670355    -0.0000004   -0.0000009    -0.0000001    0.0000001     1.0000330   -0.0019729 
   0.022956000     0.9853210   -0.1689960    -0.0000004   -0.0000008     0.0000006   -0.0000001     1.0000520   -0.0019820 
   0.023205500     0.9850211   -0.1708318    -0.0000003    0.0000007     0.0000004    0.0000008     0.9999642   -0.0020115 
   0.023455000     0.9847123   -0.1725764    -0.0000002   -0.0000001    -0.0000008   -0.0000007     0.9999808   -0.0020467 
   0.023704500     0.9845214   -0.1743607     0.0000000    0.0000000     0.0000000   -0.0000004     1.0000010   -0.0020599 
   0.023954000     0.9842004   -0.1761781    -0.0000014    0.0000004     0.0000001   -0.0000005     0.9999024   -0.0020029 
   0.024203500     0.9838886   -0.1780034     0.0000004   -0.0000004     0.0000006    0.0000005     0.9999310   -0.0020966 
   0.024453000     0.9835454   -0.1796426     0.0000001   -0.0000001    -0.0000001   -0.0000019     0.9999356   -0.0020216 
   0.024702500     0.9831743   -0.1815322     0.0000002   -0.0000011     0.0000003   -0.0000006     0.9999490   -0.0020980 
   0.024952000     0.9828102   -0.1833168    -0.0000002   -0.0000006    -0.0000007   -0.0000005     0.9999304   -0.0020291 
   0.025201500     0.9826574   -0.1851874     0.0000009    0.0000009    -0.0000013    0.0000004     1.0003260   -0.0017468 
   0.025451000     0.9821703   -0.1868352     0.0000004    0.0000003     0.0000004    0.0000012     0.9998895   -0.0021033 
   0.025700500     0.9818456   -0.1886770    -0.0000001   -0.0000003     0.0000004   -0.0000007     0.9998955   -0.0020953 
   0.025950000     0.9814693   -0.1904304     0.0000002   -0.0000005    -0.0000004    0.0000000     0.9999317   -0.0020785 
   0.026199500     0.9811215   -0.1921843    -0.0000006   -0.0000010     0.0000004    0.0000008     0.9998325   -0.0021012 
   0.026449000     0.9806569   -0.1939552    -0.0000015   -0.0000002     0.0000007    0.0000011     0.9999623   -0.0020730 
   0.026698500     0.9802907   -0.1958959     0.0000004    0.0000002     0.0000008    0.0000004     0.9999487   -0.0021404 
   0.026948000     0.9798906   -0.1977309     0.0000008    0.0000003    -0.0000004   -0.0000005     0.9998235   -0.0021303 
   0.027197500     0.9795722   -0.1995250    -0.0000004   -0.0000009     0.0000017    0.0000004     0.9998042   -0.0021083 
   0.027447000     0.9791406   -0.2012751     0.0000000   -0.0000003    -0.0000010    0.0000001     0.9997776   -0.0021873 
   0.027696500     0.9788126   -0.2031147    -0.0000010    0.0000004    -0.0000008   -0.0000001     0.9998016   -0.0021654 
   0.027946000     0.9784323   -0.2049164     0.0000003    0.0000010    -0.0000007    0.0000005     0.9997647   -0.0022074 
   0.028195500     0.9781440   -0.2066393    -0.0000001    0.0000005    -0.0000003    0.0000000     0.9997758   -0.0021654 
   0.028445000     0.9776858   -0.2084146    -0.0000006    0.0000002    -0.0000013    0.0000001     0.9997852   -0.0022116 
   0.028694500     0.9773396   -0.2102653     0.0000001    0.0000001     0.0000003    0.0000001     0.9997883   -0.0021624 
   0.028944000     0.9769445   -0.2119912     0.0000003   -0.0000001     0.0000005    0.0000008     0.9996802   -0.0022882 
   0.029193500     0.9765371   -0.2138582    -0.0000005   -0.0000001     0.0000008   -0.0000017     0.9996946   -0.0022518 
   0.029443000     0.9761680   -0.2156041    -0.0000017    0.0000005    -0.0000016   -0.0000005     0.9996916   -0.0022063 
   0.029692500     0.9758233   -0.2172775     0.0000000   -0.0000008    -0.0000017   -0.0000002     0.9995996   -0.0022604 
   0.029942000     0.9754234   -0.2191399     0.0000004    0.0000001     0.0000004    0.0000003     0.9995672   -0.0023179 
   0.030191500     0.9750621   -0.2209110     0.0000012    0.0000007    -0.0000002    0.0000000     0.9996256   -0.0022769 
   0.030441000     0.9745597   -0.2227141    -0.0000002    0.0000000     0.0000010   -0.0000007     0.9996368   -0.0022284 
   0.030690500     0.9741722   -0.2243914     0.0000000   -0.0000005    -0.0000003    0.0000009     0.9996383   -0.0023783 
   0.030940000     0.9736977   -0.2261812    -0.0000004   -0.0000006     0.0000010    0.0000012     0.9996266   -0.0023360 
   0.031189500     0.9732143   -0.2280936     0.0000010    0.0000002    -0.0000006    0.0000003     0.9996225   -0.0023758 
   0.031439000     0.9727564   -0.2298708     0.0000009    0.0000006    -0.0000001   -0.0000013     0.9996009   -0.0023479 
   0.031688500     0.9722579   -0.2317214     0.0000000    0.0000008    -0.0000004    0.0000010     0.9996268   -0.0023368 
   0.031938000     0.9719388   -0.2334953     0.0000009   -0.0000004    -0.0000001    0.0000004     0.9995406   -0.0024259 
   0.032187500     0.9714912   -0.2352905    -0.0000003    0.0000005     0.0000000    0.0000001     0.9995573   -0.0023714 
   0.032437000     0.9709712   -0.2370192    -0.0000002    0.0000008    -0.0000007   -0.0000008     0.9995455   -0.0023485 
   0.032686500     0.9705516   -0.2388709     0.0000001   -0.0000005    -0.0000002    0.0000004     0.9994055   -0.0022028 
   0.032936000     0.9700976   -0.2405595    -0.0000006   -0.0000001     0.0000005    0.0000009     0.9994969   -0.0024033 
   0.033185500     0.9696969   -0.2424250    -0.0000005   -0.0000003    -0.0000003    0.0000009     0.9993585   -0.0021839 
   0.033435000     0.9692485   -0.2441808     0.0000010   -0.0000005    -0.0000002    0.0000002     0.9994959   -0.0024958 
   0.033684500     0.9687386   -0.2459348    -0.0000003    0.0000003     0.0000013   -0.0000003     0.9994443   -0.0024101 
   0.033934000     0.9682618   -0.2477383     0.0000007    0.0000010     0.0000002   -0.0000002     0.9995073   -0.0024869 
   0.034183500     0.9677894   -0.2495616    -0.0000013   -0.0000006    -0.0000021   -0.0000011     0.9994466   -0.0025397 
   0.034433000     0.9673637   -0.2513964     0.0000005    0.0000007     0.0000010    0.0000003     0.9994236   -0.0025366 
   0.034682500     0.9669509   -0.2531646    -0.0000006    0.0000001     0.0000003   -0.0000001     0.9994299   -0.0025294 
   0.034932000     0.9665852   -0.2547592    -0.0000010    0.0000003     0.0000010   -0.0000008     0.9994944   -0.0025194 
   0.035181500     0.9660742   -0.2564883     0.0000003   -0.0000011    -0.0000005   -0.0000009     0.9994759   -0.0025774 
   0.035431000     0.9656011   -0.2581896     0.0000000    0.0000009    -0.0000004    0.0000000     0.9994482   -0.0025054 
   0.035680500     0.9651309   -0.2599896     0.0000001   -0.0000011     0.0000011   -0.0000003     0.9994324   -0.0025590 
   0.035930000     0.9646171   -0.2617049     0.0000001    0.0000004     0.0000009   -0.0000016     0.9994476   -0.0025613 
   0.036179500     0.9640646   -0.2635799     0.0000000    0.0000005    -0.0000011    0.0000002     0.9994524   -0.0025583 
   0.036429000     0.9635910   -0.2653715     0.0000003    0.0000007    -0.0000003   -0.0000001     0.9994097   -0.0025664 
   0.036678500     0.9631979   -0.2672105    -0.0000014    0.0000013    -0.0000003    0.0000000     0.9994477   -0.0025941 
   0.036928000     0.9627271   -0.2688574    -0.0000007   -0.0000002     0.0000006    0.0000007     0.9994477   -0.0026399 
   0.037177500     0.9622503   -0.2706161     0.0000004    0.0000007     0.0000008    0.0000001     0.9994543   -0.0025963 
   0.037427000     0.9618321   -0.2723444    -0.0000014   -0.0000002     0.0000006    0.0000006     0.9994670   -0.0026465 
   0.037676500     0.9612891   -0.2739849     0.0000007    0.0000000     0.0000005   -0.0000002     0.9993973   -0.0025677 
   0.037926000     0.9607940   -0.2757274    -0.0000004    0.0000011    -0.0000005   -0.0000012     0.9993961   -0.0025974 
   0.038175500     0.9602931   -0.2774170     0.0000009    0.0000007    -0.0000006   -0.0000001     0.9994488   -0.0027277 
   0.038425000     0.9597332   -0.2791527     0.0000014   -0.0000013    -0.0000006   -0.0000009     0.9994433   -0.0026496 
   0.038674500     0.9591669   -0.2809441    -0.0000008   -0.0000007     0.0000012   -0.0000014     0.9994268   -0.0027067 
   0.038924000     0.9585690   -0.2827750    -0.0000004    0.0000010    -0.0000004   -0.0000006     0.9993749   -0.0027119 
   0.039173500     0.9579865   -0.2845245     0.0000000    0.0000005     0.0000003   -0.0000007     0.9994090   -0.0027180 
   0.039423000     0.9574909   -0.2863311     0.0000008    0.0000021    -0.0000004   -0.0000016     0.9994002   -0.0027367 
   0.039672500     0.9571322   -0.2879532    -0.0000003   -0.0000009     0.0000008   -0.0000003     0.9991503   -0.0025382 
   0.039922000     0.9567322   -0.2897274     0.0000006    0.0000003    -0.0000005    0.0000010     0.9997016   -0.0024647 
