! MS46122B
! 1746301/73750021
! 11/3/2023 2:46:12 PM
! C:\USERS\SPEGWAL\DOWNLOADS\SAURABH\REACH\NODES\FRONT END\MEASUREMENTS\MEASURED S-PARAMETERS_03-11-2023\MS3-MS4_MS1_CABLE\MS1_OFF-MS391_OFF-MS4250_ON_S11.S2P
! CHANNEL.1
! TR.MEASUREMENT
! CORRECTED.DATA
# GHZ S RI R 50.0
! FREQ.GHZ         S11RE         S11IM         S21RE         S21IM         S12RE         S12IM         S22RE         S22IM         
!; PortSelection: Port_12
   0.001000000     1.0037850   -0.0073921     0.0000016   -0.0000016     0.0000017   -0.0000003     1.0030180   -0.0021335 
   0.001249500     1.0020860   -0.0103864     0.0000020    0.0000002    -0.0000006   -0.0000014     1.0021430   -0.0018036 
   0.001499000     1.0020200   -0.0122359     0.0000003    0.0000015    -0.0000008    0.0000007     1.0021580   -0.0016950 
   0.001748500     1.0019910   -0.0141480    -0.0000002   -0.0000004     0.0000000    0.0000010     1.0021490   -0.0015130 
   0.001998000     1.0020250   -0.0159588    -0.0000013    0.0000005     0.0000007   -0.0000001     1.0020260   -0.0015080 
   0.002247500     1.0023150   -0.0182700     0.0000005    0.0000012     0.0000000   -0.0000005     1.0022280   -0.0018503 
   0.002497000     1.0023270   -0.0201327     0.0000004   -0.0000008    -0.0000011    0.0000003     1.0021450   -0.0018575 
   0.002746500     1.0023150   -0.0219438     0.0000010    0.0000008     0.0000010    0.0000008     1.0021240   -0.0017495 
   0.002996000     1.0022910   -0.0238944    -0.0000004   -0.0000008     0.0000000    0.0000003     1.0021080   -0.0018650 
   0.003245500     1.0022120   -0.0257323     0.0000002    0.0000003    -0.0000005    0.0000017     1.0020590   -0.0016689 
   0.003495000     1.0021980   -0.0276522     0.0000007   -0.0000003    -0.0000012    0.0000003     1.0019460   -0.0017310 
   0.003744500     1.0021700   -0.0295313     0.0000006   -0.0000007     0.0000004    0.0000009     1.0019900   -0.0017255 
   0.003994000     1.0021860   -0.0313780    -0.0000002    0.0000006     0.0000006    0.0000009     1.0019710   -0.0016473 
   0.004243500     1.0022040   -0.0332279    -0.0000008    0.0000001     0.0000006   -0.0000009     1.0020460   -0.0020725 
   0.004493000     1.0021330   -0.0350652    -0.0000003    0.0000000     0.0000009    0.0000003     1.0019730   -0.0020696 
   0.004742500     1.0021430   -0.0369473     0.0000004   -0.0000007     0.0000013    0.0000004     1.0019530   -0.0020053 
   0.004992000     1.0021280   -0.0387392    -0.0000004    0.0000001     0.0000009   -0.0000007     1.0018660   -0.0019356 
   0.005241500     1.0021230   -0.0406082    -0.0000001   -0.0000009    -0.0000001    0.0000002     1.0017830   -0.0018865 
   0.005491000     1.0020020   -0.0424790    -0.0000006   -0.0000011    -0.0000003   -0.0000008     1.0017420   -0.0018391 
   0.005740500     1.0019620   -0.0444256    -0.0000002   -0.0000003     0.0000006    0.0000016     1.0016570   -0.0017920 
   0.005990000     1.0018530   -0.0464078     0.0000005   -0.0000017     0.0000006    0.0000008     1.0015010   -0.0017400 
   0.006239500     1.0017670   -0.0481458     0.0000001    0.0000000     0.0000009    0.0000003     1.0013030   -0.0016796 
   0.006489000     1.0015250   -0.0498108     0.0000015    0.0000004     0.0000004   -0.0000005     1.0011290   -0.0016072 
   0.006738500     1.0011740   -0.0513739    -0.0000003    0.0000009    -0.0000001    0.0000007     1.0009400   -0.0015384 
   0.006988000     1.0008500   -0.0529753    -0.0000001   -0.0000010    -0.0000006    0.0000005     1.0008760   -0.0014900 
   0.007237500     1.0003220   -0.0545910     0.0000012    0.0000016    -0.0000005    0.0000012     1.0007510   -0.0014114 
   0.007487000     0.9999281   -0.0562727    -0.0000006    0.0000003     0.0000002    0.0000001     1.0006060   -0.0013871 
   0.007736500     0.9995786   -0.0579262     0.0000009    0.0000002     0.0000000    0.0000001     1.0006570   -0.0014169 
   0.007986000     0.9991460   -0.0596927    -0.0000005   -0.0000010    -0.0000010   -0.0000008     1.0006750   -0.0014329 
   0.008235500     0.9987918   -0.0613370     0.0000003    0.0000004    -0.0000008   -0.0000005     1.0007630   -0.0014114 
   0.008485000     0.9985238   -0.0630433     0.0000006    0.0000003     0.0000004    0.0000008     1.0006760   -0.0014819 
   0.008734500     0.9981761   -0.0646695    -0.0000006   -0.0000003    -0.0000008   -0.0000005     1.0006620   -0.0014766 
   0.008984000     0.9980396   -0.0663917    -0.0000003   -0.0000012    -0.0000002   -0.0000003     1.0006520   -0.0014745 
   0.009233500     0.9976929   -0.0681475    -0.0000009    0.0000010     0.0000009    0.0000002     1.0006470   -0.0015306 
   0.009483000     0.9976162   -0.0700007     0.0000011   -0.0000001    -0.0000006   -0.0000006     1.0006550   -0.0014671 
   0.009732500     0.9973533   -0.0719141    -0.0000002    0.0000012     0.0000001   -0.0000006     1.0006580   -0.0015590 
   0.009982000     0.9972168   -0.0737801     0.0000002   -0.0000005    -0.0000007   -0.0000005     1.0006180   -0.0015438 
   0.010231500     0.9970182   -0.0755774     0.0000011   -0.0000008    -0.0000003   -0.0000008     1.0005790   -0.0014695 
   0.010481000     0.9969250   -0.0774121     0.0000002   -0.0000008     0.0000013   -0.0000001     1.0006200   -0.0015188 
   0.010730500     0.9966968   -0.0792957     0.0000007    0.0000006     0.0000005    0.0000001     1.0006070   -0.0015327 
   0.010980000     0.9966723   -0.0810513    -0.0000011    0.0000000     0.0000004    0.0000003     1.0005820   -0.0015282 
   0.011229500     0.9966370   -0.0828108     0.0000004   -0.0000002    -0.0000003   -0.0000007     1.0005190   -0.0014933 
   0.011479000     0.9963546   -0.0847620     0.0000006    0.0000007     0.0000007   -0.0000007     1.0005220   -0.0014950 
   0.011728500     0.9961992   -0.0866555     0.0000001   -0.0000004    -0.0000009   -0.0000002     1.0005190   -0.0015767 
   0.011978000     0.9960247   -0.0885295    -0.0000009    0.0000007     0.0000000    0.0000012     1.0005040   -0.0016304 
   0.012227500     0.9959032   -0.0904278     0.0000006    0.0000000     0.0000001    0.0000003     1.0004560   -0.0015834 
   0.012477000     0.9956923   -0.0922539     0.0000002    0.0000002    -0.0000010    0.0000001     1.0005100   -0.0015641 
   0.012726500     0.9954268   -0.0941169     0.0000006    0.0000013     0.0000006   -0.0000011     1.0005330   -0.0016237 
   0.012976000     0.9952404   -0.0960209     0.0000015   -0.0000004    -0.0000004    0.0000005     1.0005160   -0.0015443 
   0.013225500     0.9951184   -0.0977436     0.0000003   -0.0000005    -0.0000002    0.0000009     1.0005840   -0.0016310 
   0.013475000     0.9949908   -0.0993383     0.0000000    0.0000002    -0.0000002    0.0000010     1.0005080   -0.0015556 
   0.013724500     0.9948385   -0.1012084     0.0000005    0.0000005    -0.0000008    0.0000008     1.0004920   -0.0015814 
   0.013974000     0.9946849   -0.1030156     0.0000007   -0.0000003    -0.0000006    0.0000002     1.0004900   -0.0015558 
   0.014223500     0.9945366   -0.1048450     0.0000003   -0.0000006     0.0000003    0.0000010     1.0004460   -0.0016345 
   0.014473000     0.9943258   -0.1069747     0.0000016    0.0000001     0.0000001    0.0000002     1.0004300   -0.0016477 
   0.014722500     0.9940929   -0.1087136     0.0000006   -0.0000001     0.0000005   -0.0000001     1.0004840   -0.0016188 
   0.014972000     0.9938502   -0.1105833    -0.0000002   -0.0000006    -0.0000005   -0.0000012     1.0003810   -0.0017079 
   0.015221500     0.9936215   -0.1124168     0.0000013    0.0000013    -0.0000004   -0.0000001     1.0004280   -0.0016419 
   0.015471000     0.9934063   -0.1141804    -0.0000005    0.0000004    -0.0000005    0.0000004     1.0004180   -0.0017165 
   0.015720500     0.9932092   -0.1159436     0.0000001   -0.0000004     0.0000015    0.0000006     1.0004090   -0.0017525 
   0.015970000     0.9931087   -0.1178266    -0.0000001    0.0000004    -0.0000008    0.0000005     1.0003910   -0.0016407 
   0.016219500     0.9928426   -0.1196399     0.0000011    0.0000001    -0.0000006    0.0000007     1.0003560   -0.0017522 
   0.016469000     0.9927137   -0.1214241    -0.0000001   -0.0000005     0.0000001   -0.0000008     1.0003560   -0.0017613 
   0.016718500     0.9924992   -0.1231958     0.0000002    0.0000001    -0.0000010    0.0000003     1.0004240   -0.0016879 
   0.016968000     0.9921858   -0.1251413     0.0000007   -0.0000004     0.0000007    0.0000001     1.0003600   -0.0016661 
   0.017217500     0.9919181   -0.1269792     0.0000002   -0.0000005    -0.0000003    0.0000000     1.0002740   -0.0017298 
   0.017467000     0.9916230   -0.1288229    -0.0000007   -0.0000003    -0.0000004    0.0000015     1.0003170   -0.0017901 
   0.017716500     0.9912676   -0.1306891    -0.0000010   -0.0000006    -0.0000007   -0.0000002     1.0002610   -0.0017596 
   0.017966000     0.9909261   -0.1324075     0.0000005   -0.0000002    -0.0000004    0.0000000     1.0003380   -0.0017529 
   0.018215500     0.9907453   -0.1342419     0.0000005    0.0000001    -0.0000003    0.0000003     1.0002500   -0.0017897 
   0.018465000     0.9903855   -0.1359894     0.0000005    0.0000008     0.0000004   -0.0000006     1.0002100   -0.0018161 
   0.018714500     0.9901366   -0.1376934    -0.0000010    0.0000004     0.0000002    0.0000007     1.0002590   -0.0017986 
   0.018964000     0.9899110   -0.1395995    -0.0000007    0.0000007     0.0000004    0.0000004     1.0003100   -0.0017675 
   0.019213500     0.9895595   -0.1413551     0.0000003   -0.0000006     0.0000013   -0.0000007     1.0002260   -0.0017965 
   0.019463000     0.9894112   -0.1431538     0.0000000   -0.0000003     0.0000006   -0.0000004     1.0001610   -0.0018257 
   0.019712500     0.9892231   -0.1450440    -0.0000006    0.0000006    -0.0000001    0.0000000     1.0001650   -0.0019001 
   0.019962000     0.9889902   -0.1468630     0.0000002   -0.0000007    -0.0000004    0.0000005     1.0001590   -0.0019131 
   0.020211500     0.9886439   -0.1487407    -0.0000006   -0.0000003     0.0000004    0.0000003     1.0002700   -0.0019178 
   0.020461000     0.9883638   -0.1506444    -0.0000016    0.0000007     0.0000013   -0.0000012     1.0001290   -0.0019288 
   0.020710500     0.9879965   -0.1524123     0.0000012    0.0000000     0.0000004    0.0000000     1.0000680   -0.0019529 
   0.020960000     0.9878233   -0.1542715    -0.0000007    0.0000006    -0.0000003   -0.0000003     1.0001110   -0.0019323 
   0.021209500     0.9874444   -0.1560416    -0.0000003    0.0000011     0.0000006    0.0000010     1.0001360   -0.0019496 
   0.021459000     0.9871612   -0.1578297    -0.0000004   -0.0000019    -0.0000009    0.0000001     1.0001340   -0.0019645 
   0.021708500     0.9868979   -0.1596740    -0.0000005    0.0000008     0.0000003    0.0000003     1.0001200   -0.0019640 
   0.021958000     0.9865204   -0.1614737     0.0000014    0.0000012     0.0000002    0.0000000     1.0001080   -0.0019485 
   0.022207500     0.9862424   -0.1633992     0.0000003    0.0000001     0.0000004   -0.0000005     1.0000670   -0.0020130 
   0.022457000     0.9859645   -0.1652019     0.0000004   -0.0000001     0.0000000    0.0000005     1.0000130   -0.0020124 
   0.022706500     0.9856040   -0.1670477    -0.0000001   -0.0000007    -0.0000002    0.0000002     0.9999818   -0.0019964 
   0.022956000     0.9852427   -0.1690127    -0.0000003    0.0000004     0.0000009   -0.0000009     1.0000510   -0.0019202 
   0.023205500     0.9850589   -0.1708350    -0.0000007   -0.0000003    -0.0000007    0.0000005     1.0000070   -0.0020146 
   0.023455000     0.9846265   -0.1725951    -0.0000014   -0.0000002    -0.0000005    0.0000000     0.9999512   -0.0020664 
   0.023704500     0.9844036   -0.1743423    -0.0000012   -0.0000014     0.0000001    0.0000004     1.0000200   -0.0020679 
   0.023954000     0.9841291   -0.1761736     0.0000015   -0.0000020     0.0000002   -0.0000001     0.9998878   -0.0020419 
   0.024203500     0.9837865   -0.1779940     0.0000006   -0.0000001    -0.0000006   -0.0000007     0.9999674   -0.0020626 
   0.024453000     0.9835274   -0.1796355    -0.0000001    0.0000001    -0.0000002    0.0000000     0.9999126   -0.0020777 
   0.024702500     0.9830871   -0.1815113    -0.0000001    0.0000004    -0.0000002    0.0000008     0.9999264   -0.0021483 
   0.024952000     0.9827581   -0.1832627    -0.0000003   -0.0000004     0.0000000   -0.0000008     0.9998947   -0.0020647 
   0.025201500     0.9825649   -0.1851510     0.0000000    0.0000004     0.0000005   -0.0000006     1.0003330   -0.0017423 
   0.025451000     0.9820561   -0.1868605    -0.0000006   -0.0000005    -0.0000001   -0.0000003     0.9999003   -0.0020839 
   0.025700500     0.9817070   -0.1886582     0.0000008    0.0000012    -0.0000003    0.0000003     0.9998952   -0.0021422 
   0.025950000     0.9814004   -0.1903891     0.0000009   -0.0000001    -0.0000006   -0.0000003     0.9999129   -0.0021140 
   0.026199500     0.9810075   -0.1921756    -0.0000004    0.0000014    -0.0000014   -0.0000007     0.9998198   -0.0021407 
   0.026449000     0.9805803   -0.1939247    -0.0000002    0.0000002     0.0000003   -0.0000010     0.9998352   -0.0021586 
   0.026698500     0.9802328   -0.1958766    -0.0000006    0.0000006     0.0000013    0.0000004     0.9999725   -0.0021710 
   0.026948000     0.9798086   -0.1976141     0.0000007    0.0000015     0.0000005   -0.0000003     0.9998276   -0.0021465 
   0.027197500     0.9794801   -0.1995004    -0.0000007    0.0000001    -0.0000009    0.0000003     0.9997993   -0.0021274 
   0.027447000     0.9790843   -0.2012104    -0.0000021   -0.0000010    -0.0000008    0.0000009     0.9998017   -0.0021744 
   0.027696500     0.9787206   -0.2030925     0.0000006   -0.0000002    -0.0000001   -0.0000006     0.9997901   -0.0021562 
   0.027946000     0.9783587   -0.2048736     0.0000003    0.0000000     0.0000000    0.0000015     0.9997225   -0.0022752 
   0.028195500     0.9779874   -0.2066106     0.0000001    0.0000000     0.0000002    0.0000000     0.9998060   -0.0021745 
   0.028445000     0.9775542   -0.2083611    -0.0000017    0.0000008     0.0000002    0.0000007     0.9997467   -0.0022100 
   0.028694500     0.9772727   -0.2102492     0.0000004   -0.0000007     0.0000002    0.0000008     0.9997722   -0.0021897 
   0.028944000     0.9768434   -0.2119521    -0.0000014    0.0000001     0.0000009   -0.0000003     0.9996587   -0.0022978 
   0.029193500     0.9764308   -0.2138198     0.0000017    0.0000002     0.0000002    0.0000009     0.9996596   -0.0023090 
   0.029443000     0.9761107   -0.2155795     0.0000010    0.0000013     0.0000011   -0.0000016     0.9996821   -0.0022144 
   0.029692500     0.9757438   -0.2171878    -0.0000004    0.0000001    -0.0000006    0.0000005     0.9995440   -0.0022633 
   0.029942000     0.9753609   -0.2191006    -0.0000004   -0.0000003    -0.0000002   -0.0000003     0.9995356   -0.0023252 
   0.030191500     0.9749383   -0.2209147    -0.0000005   -0.0000012     0.0000002   -0.0000001     0.9996541   -0.0022955 
   0.030441000     0.9744697   -0.2226519     0.0000006   -0.0000001     0.0000005   -0.0000004     0.9996195   -0.0022154 
   0.030690500     0.9740722   -0.2243945    -0.0000019    0.0000007    -0.0000005    0.0000009     0.9996043   -0.0024065 
   0.030940000     0.9736149   -0.2261351    -0.0000012    0.0000002    -0.0000002    0.0000000     0.9995989   -0.0023292 
   0.031189500     0.9731241   -0.2280334     0.0000004   -0.0000016     0.0000009    0.0000001     0.9996070   -0.0023810 
   0.031439000     0.9726462   -0.2298223     0.0000002   -0.0000003     0.0000009   -0.0000002     0.9995621   -0.0023629 
   0.031688500     0.9721649   -0.2316674     0.0000002    0.0000008     0.0000010    0.0000007     0.9995806   -0.0023534 
   0.031938000     0.9718097   -0.2334626     0.0000005   -0.0000002     0.0000001    0.0000009     0.9994969   -0.0024529 
   0.032187500     0.9713689   -0.2352486     0.0000009    0.0000012    -0.0000001   -0.0000004     0.9995492   -0.0023958 
   0.032437000     0.9708949   -0.2370085    -0.0000015   -0.0000001     0.0000003   -0.0000013     0.9995077   -0.0023653 
   0.032686500     0.9704517   -0.2387869     0.0000011   -0.0000003     0.0000000    0.0000001     0.9993728   -0.0022229 
   0.032936000     0.9700043   -0.2405156    -0.0000005   -0.0000008     0.0000009    0.0000003     0.9994512   -0.0024409 
   0.033185500     0.9695519   -0.2423738    -0.0000005   -0.0000005     0.0000006    0.0000000     0.9993477   -0.0021744 
   0.033435000     0.9690932   -0.2440901    -0.0000014   -0.0000007     0.0000001   -0.0000009     0.9994357   -0.0024874 
   0.033684500     0.9686139   -0.2459130     0.0000000    0.0000010     0.0000009   -0.0000003     0.9994199   -0.0024179 
   0.033934000     0.9681357   -0.2476818    -0.0000012    0.0000002    -0.0000015    0.0000003     0.9994768   -0.0024971 
   0.034183500     0.9676953   -0.2495341     0.0000012   -0.0000003     0.0000008   -0.0000007     0.9993842   -0.0025724 
   0.034433000     0.9672508   -0.2513437     0.0000000    0.0000001     0.0000009   -0.0000022     0.9994901   -0.0025293 
   0.034682500     0.9669091   -0.2531278    -0.0000002    0.0000002     0.0000002    0.0000004     0.9993966   -0.0025360 
   0.034932000     0.9664407   -0.2547359    -0.0000003    0.0000015     0.0000000   -0.0000002     0.9994689   -0.0025587 
   0.035181500     0.9659728   -0.2564578    -0.0000008   -0.0000007    -0.0000009   -0.0000008     0.9994234   -0.0025663 
   0.035431000     0.9655087   -0.2581374     0.0000002   -0.0000009    -0.0000003   -0.0000002     0.9993515   -0.0025199 
   0.035680500     0.9650128   -0.2599340    -0.0000007    0.0000010    -0.0000003    0.0000009     0.9994318   -0.0025908 
   0.035930000     0.9644826   -0.2617206     0.0000000   -0.0000006    -0.0000009   -0.0000007     0.9994031   -0.0025799 
   0.036179500     0.9639602   -0.2635399     0.0000001    0.0000002    -0.0000001   -0.0000003     0.9994500   -0.0026022 
   0.036429000     0.9634978   -0.2653515    -0.0000002    0.0000001     0.0000010   -0.0000005     0.9993871   -0.0025938 
   0.036678500     0.9630657   -0.2671629    -0.0000001    0.0000003    -0.0000010    0.0000012     0.9994228   -0.0026037 
   0.036928000     0.9626288   -0.2688307    -0.0000004    0.0000004     0.0000000   -0.0000007     0.9994367   -0.0026552 
   0.037177500     0.9622114   -0.2705837    -0.0000001   -0.0000003     0.0000002    0.0000013     0.9994081   -0.0026320 
   0.037427000     0.9617056   -0.2722970    -0.0000001   -0.0000017     0.0000006    0.0000003     0.9994087   -0.0027187 
   0.037676500     0.9611772   -0.2739417     0.0000001   -0.0000006    -0.0000004    0.0000014     0.9993750   -0.0026101 
   0.037926000     0.9606888   -0.2756998    -0.0000009    0.0000015    -0.0000005    0.0000007     0.9993680   -0.0026407 
   0.038175500     0.9601939   -0.2773683     0.0000003    0.0000010    -0.0000008   -0.0000006     0.9994192   -0.0026819 
   0.038425000     0.9596215   -0.2791355     0.0000013    0.0000008    -0.0000001   -0.0000007     0.9993775   -0.0026293 
   0.038674500     0.9590559   -0.2809138     0.0000005   -0.0000016    -0.0000001    0.0000009     0.9994065   -0.0027188 
   0.038924000     0.9584613   -0.2827682     0.0000009    0.0000012    -0.0000007    0.0000004     0.9993439   -0.0027346 
   0.039173500     0.9579065   -0.2844854    -0.0000006    0.0000006     0.0000011    0.0000004     0.9993932   -0.0027632 
   0.039423000     0.9574180   -0.2862810    -0.0000012    0.0000009     0.0000004   -0.0000007     0.9993733   -0.0027663 
   0.039672500     0.9570180   -0.2878771     0.0000005    0.0000009    -0.0000017    0.0000015     0.9991158   -0.0025449 
   0.039922000     0.9566057   -0.2896749    -0.0000002    0.0000008    -0.0000002    0.0000013     0.9996706   -0.0024876 
