! MS46122B
! 1746301/73750021
! 11/3/2023 2:44:04 PM
! C:\USERS\SPEGWAL\DOWNLOADS\SAURABH\REACH\NODES\FRONT END\MEASUREMENTS\MEASURED S-PARAMETERS_03-11-2023\MS3-MS4_MS1_CABLE\MS1_OFF-MS391_ON-MS4250_ON_S11.S2P
! CHANNEL.1
! TR.MEASUREMENT
! CORRECTED.DATA
# GHZ S RI R 50.0
! FREQ.GHZ         S11RE         S11IM         S21RE         S21IM         S12RE         S12IM         S22RE         S22IM         
!; PortSelection: Port_12
   0.001000000     1.0004930   -0.0088957     0.0000040    0.0000025    -0.0000017    0.0000027     1.0035910   -0.0015907 
   0.001249500     1.0020820   -0.0103915    -0.0000004    0.0000006    -0.0000007   -0.0000006     1.0021250   -0.0018054 
   0.001499000     1.0020270   -0.0122582    -0.0000013   -0.0000002     0.0000006    0.0000017     1.0021530   -0.0016702 
   0.001748500     1.0020000   -0.0140994     0.0000004   -0.0000004     0.0000001   -0.0000007     1.0020560   -0.0015679 
   0.001998000     1.0020150   -0.0160424    -0.0000003    0.0000004    -0.0000005   -0.0000005     1.0019960   -0.0014993 
   0.002247500     1.0023020   -0.0182897     0.0000025   -0.0000007     0.0000007   -0.0000001     1.0021820   -0.0018865 
   0.002497000     1.0023110   -0.0201525    -0.0000004   -0.0000010    -0.0000007    0.0000009     1.0021470   -0.0018140 
   0.002746500     1.0024340   -0.0219956    -0.0000010   -0.0000007    -0.0000003    0.0000014     1.0021120   -0.0018577 
   0.002996000     1.0022770   -0.0238777    -0.0000011    0.0000007     0.0000009    0.0000003     1.0020760   -0.0018617 
   0.003245500     1.0022360   -0.0257668    -0.0000005   -0.0000005    -0.0000005    0.0000002     1.0020630   -0.0017100 
   0.003495000     1.0021670   -0.0276789    -0.0000010    0.0000001     0.0000003   -0.0000005     1.0018960   -0.0017184 
   0.003744500     1.0022240   -0.0296365     0.0000002   -0.0000007     0.0000007   -0.0000003     1.0019380   -0.0017038 
   0.003994000     1.0021920   -0.0313950    -0.0000001   -0.0000001    -0.0000001   -0.0000006     1.0019060   -0.0016659 
   0.004243500     1.0022180   -0.0332480     0.0000008    0.0000006     0.0000003   -0.0000004     1.0019770   -0.0020261 
   0.004493000     1.0021720   -0.0350655     0.0000002   -0.0000004    -0.0000009    0.0000005     1.0019530   -0.0020791 
   0.004742500     1.0022400   -0.0369242    -0.0000011   -0.0000004     0.0000015    0.0000006     1.0019150   -0.0019806 
   0.004992000     1.0021770   -0.0387652    -0.0000007    0.0000005    -0.0000005   -0.0000004     1.0018750   -0.0019936 
   0.005241500     1.0021620   -0.0406442     0.0000011    0.0000007    -0.0000005    0.0000005     1.0017400   -0.0018368 
   0.005491000     1.0020480   -0.0425480     0.0000002   -0.0000015     0.0000012    0.0000004     1.0016450   -0.0018627 
   0.005740500     1.0019870   -0.0444787    -0.0000002    0.0000005     0.0000002    0.0000000     1.0015520   -0.0017912 
   0.005990000     1.0018690   -0.0464225     0.0000000   -0.0000003     0.0000021   -0.0000003     1.0014740   -0.0017407 
   0.006239500     1.0017720   -0.0481638    -0.0000003   -0.0000015     0.0000010   -0.0000005     1.0012840   -0.0016944 
   0.006489000     1.0015420   -0.0498020     0.0000007    0.0000010     0.0000004    0.0000003     1.0011260   -0.0015933 
   0.006738500     1.0011950   -0.0513957    -0.0000002    0.0000005     0.0000009    0.0000016     1.0009190   -0.0015409 
   0.006988000     1.0008690   -0.0530017     0.0000002    0.0000011     0.0000005   -0.0000010     1.0008270   -0.0015132 
   0.007237500     1.0003650   -0.0546329     0.0000004    0.0000007    -0.0000004    0.0000009     1.0007410   -0.0014304 
   0.007487000     0.9999363   -0.0563047     0.0000003    0.0000011    -0.0000002    0.0000008     1.0006160   -0.0013956 
   0.007736500     0.9996043   -0.0579617     0.0000003    0.0000008     0.0000020    0.0000005     1.0006180   -0.0014262 
   0.007986000     0.9991605   -0.0597201     0.0000013    0.0000007     0.0000014   -0.0000005     1.0006800   -0.0014475 
   0.008235500     0.9988128   -0.0613869    -0.0000005   -0.0000001     0.0000000   -0.0000010     1.0006780   -0.0014497 
   0.008485000     0.9985641   -0.0630773     0.0000014    0.0000001    -0.0000005    0.0000007     1.0007020   -0.0014361 
   0.008734500     0.9982321   -0.0646971     0.0000003    0.0000001    -0.0000004    0.0000003     1.0006500   -0.0015322 
   0.008984000     0.9980908   -0.0664089    -0.0000001   -0.0000002     0.0000001   -0.0000002     1.0006130   -0.0014826 
   0.009233500     0.9976705   -0.0681297     0.0000001    0.0000004     0.0000002    0.0000003     1.0006490   -0.0015037 
   0.009483000     0.9976652   -0.0700463     0.0000003    0.0000003    -0.0000007   -0.0000001     1.0006530   -0.0014427 
   0.009732500     0.9974011   -0.0719517     0.0000001    0.0000000     0.0000003    0.0000002     1.0006530   -0.0015472 
   0.009982000     0.9972626   -0.0738005     0.0000003   -0.0000005     0.0000010   -0.0000004     1.0006040   -0.0015654 
   0.010231500     0.9970499   -0.0756004    -0.0000001   -0.0000002    -0.0000008   -0.0000009     1.0005510   -0.0014874 
   0.010481000     0.9969838   -0.0774575    -0.0000003    0.0000012     0.0000006   -0.0000003     1.0005900   -0.0015266 
   0.010730500     0.9967509   -0.0793205     0.0000014    0.0000010     0.0000003    0.0000000     1.0006130   -0.0015431 
   0.010980000     0.9967416   -0.0811302     0.0000001    0.0000007     0.0000002    0.0000001     1.0005970   -0.0015170 
   0.011229500     0.9966490   -0.0828385     0.0000008    0.0000007     0.0000003    0.0000008     1.0005450   -0.0015541 
   0.011479000     0.9964567   -0.0847989    -0.0000008    0.0000000     0.0000001   -0.0000001     1.0004950   -0.0015696 
   0.011728500     0.9962304   -0.0866966    -0.0000005   -0.0000001     0.0000010   -0.0000008     1.0004870   -0.0016218 
   0.011978000     0.9961331   -0.0885468    -0.0000011    0.0000011     0.0000003   -0.0000001     1.0004660   -0.0015982 
   0.012227500     0.9958966   -0.0905358     0.0000009   -0.0000001    -0.0000003    0.0000000     1.0004830   -0.0015824 
   0.012477000     0.9956161   -0.0923480    -0.0000015   -0.0000001    -0.0000001    0.0000005     1.0004880   -0.0015578 
   0.012726500     0.9954205   -0.0942082     0.0000008    0.0000001     0.0000005   -0.0000002     1.0005220   -0.0015664 
   0.012976000     0.9952706   -0.0960449    -0.0000002   -0.0000004     0.0000000   -0.0000006     1.0004750   -0.0016117 
   0.013225500     0.9951870   -0.0977146     0.0000004    0.0000001     0.0000009    0.0000011     1.0005180   -0.0016047 
   0.013475000     0.9950200   -0.0993738     0.0000013    0.0000012     0.0000003    0.0000001     1.0005080   -0.0015877 
   0.013724500     0.9948484   -0.1012317    -0.0000006    0.0000002     0.0000004   -0.0000007     1.0004460   -0.0015905 
   0.013974000     0.9947276   -0.1030870    -0.0000011   -0.0000006     0.0000002   -0.0000005     1.0004770   -0.0015868 
   0.014223500     0.9945388   -0.1049074     0.0000001    0.0000003     0.0000003    0.0000000     1.0004110   -0.0015930 
   0.014473000     0.9943787   -0.1070120     0.0000000    0.0000003     0.0000007    0.0000007     1.0004390   -0.0016782 
   0.014722500     0.9941229   -0.1088142    -0.0000005   -0.0000003    -0.0000011   -0.0000007     1.0004780   -0.0016379 
   0.014972000     0.9939159   -0.1106676     0.0000016    0.0000000     0.0000003    0.0000003     1.0004240   -0.0017140 
   0.015221500     0.9937183   -0.1124689    -0.0000010   -0.0000008     0.0000002   -0.0000003     1.0004150   -0.0016748 
   0.015471000     0.9934195   -0.1142464    -0.0000011    0.0000003     0.0000003   -0.0000002     1.0004130   -0.0017410 
   0.015720500     0.9932601   -0.1159856    -0.0000012    0.0000001     0.0000001   -0.0000009     1.0003600   -0.0018126 
   0.015970000     0.9931576   -0.1178387    -0.0000013    0.0000004     0.0000007   -0.0000008     1.0003360   -0.0016480 
   0.016219500     0.9928804   -0.1196648     0.0000009    0.0000000    -0.0000002   -0.0000010     1.0003230   -0.0017723 
   0.016469000     0.9927505   -0.1214308     0.0000007   -0.0000017     0.0000007    0.0000002     1.0003500   -0.0017433 
   0.016718500     0.9925690   -0.1233480     0.0000002    0.0000004    -0.0000007    0.0000001     1.0003790   -0.0016918 
   0.016968000     0.9922777   -0.1251202    -0.0000007    0.0000015    -0.0000004    0.0000003     1.0003770   -0.0016783 
   0.017217500     0.9919699   -0.1270398     0.0000009    0.0000009    -0.0000003    0.0000004     1.0002790   -0.0017571 
   0.017467000     0.9916537   -0.1288524    -0.0000011   -0.0000002    -0.0000004    0.0000010     1.0003480   -0.0017697 
   0.017716500     0.9913321   -0.1307336    -0.0000002   -0.0000004     0.0000007    0.0000001     1.0002410   -0.0018322 
   0.017966000     0.9909943   -0.1325383     0.0000009   -0.0000007     0.0000000    0.0000004     1.0003530   -0.0017469 
   0.018215500     0.9907932   -0.1342774    -0.0000009   -0.0000004     0.0000005    0.0000011     1.0002440   -0.0018347 
   0.018465000     0.9904111   -0.1360359    -0.0000002    0.0000015    -0.0000006    0.0000001     1.0002400   -0.0018172 
   0.018714500     0.9902133   -0.1377438     0.0000002    0.0000000    -0.0000002   -0.0000003     1.0002450   -0.0018048 
   0.018964000     0.9899740   -0.1396442    -0.0000001   -0.0000003     0.0000005   -0.0000001     1.0002660   -0.0017714 
   0.019213500     0.9896194   -0.1414438     0.0000003   -0.0000004    -0.0000009   -0.0000011     1.0002700   -0.0018212 
   0.019463000     0.9894564   -0.1431924    -0.0000006   -0.0000003     0.0000006    0.0000007     1.0002350   -0.0018280 
   0.019712500     0.9892382   -0.1450502     0.0000004   -0.0000008     0.0000001   -0.0000008     1.0001370   -0.0018520 
   0.019962000     0.9890359   -0.1469056     0.0000006   -0.0000007     0.0000007    0.0000003     1.0001620   -0.0019807 
   0.020211500     0.9887426   -0.1488153     0.0000000    0.0000006     0.0000016    0.0000004     1.0001890   -0.0019789 
   0.020461000     0.9884188   -0.1506566    -0.0000008   -0.0000003    -0.0000001    0.0000006     1.0001240   -0.0019674 
   0.020710500     0.9880246   -0.1525023     0.0000009    0.0000002    -0.0000001   -0.0000007     1.0000440   -0.0019245 
   0.020960000     0.9878239   -0.1543709    -0.0000003   -0.0000007     0.0000005    0.0000000     1.0001000   -0.0019279 
   0.021209500     0.9875619   -0.1560719    -0.0000002    0.0000005     0.0000010    0.0000012     1.0001160   -0.0019185 
   0.021459000     0.9872515   -0.1578887    -0.0000006   -0.0000011    -0.0000003    0.0000002     1.0001760   -0.0019112 
   0.021708500     0.9869687   -0.1597010     0.0000003    0.0000004    -0.0000006    0.0000003     1.0001100   -0.0020412 
   0.021958000     0.9865862   -0.1615192     0.0000010   -0.0000005    -0.0000006    0.0000008     1.0001380   -0.0019661 
   0.022207500     0.9862920   -0.1634425     0.0000004   -0.0000016    -0.0000004    0.0000001     1.0000550   -0.0020408 
   0.022457000     0.9860582   -0.1652738    -0.0000008    0.0000001     0.0000010    0.0000003     1.0000440   -0.0020163 
   0.022706500     0.9856392   -0.1671098     0.0000002    0.0000000     0.0000007   -0.0000010     0.9999756   -0.0019884 
   0.022956000     0.9852978   -0.1690315    -0.0000005    0.0000005     0.0000003    0.0000000     1.0000690   -0.0019688 
   0.023205500     0.9850590   -0.1708672     0.0000009   -0.0000004    -0.0000007    0.0000003     0.9999608   -0.0020355 
   0.023455000     0.9847149   -0.1726468     0.0000007    0.0000004    -0.0000009    0.0000005     0.9999508   -0.0020706 
   0.023704500     0.9844782   -0.1743882    -0.0000006   -0.0000004     0.0000007    0.0000012     1.0000220   -0.0021859 
   0.023954000     0.9841802   -0.1762359    -0.0000004    0.0000003     0.0000022   -0.0000001     0.9998991   -0.0020846 
   0.024203500     0.9838230   -0.1780462    -0.0000010   -0.0000002    -0.0000002    0.0000006     0.9999245   -0.0021447 
   0.024453000     0.9835591   -0.1796786     0.0000007    0.0000003     0.0000008    0.0000003     0.9999169   -0.0020843 
   0.024702500     0.9831476   -0.1815516    -0.0000007   -0.0000001    -0.0000001   -0.0000010     0.9999099   -0.0020872 
   0.024952000     0.9828261   -0.1833111    -0.0000008   -0.0000005     0.0000001   -0.0000002     0.9999004   -0.0020746 
   0.025201500     0.9826334   -0.1852252     0.0000008    0.0000005     0.0000006   -0.0000004     1.0003210   -0.0017202 
   0.025451000     0.9821146   -0.1868885    -0.0000002    0.0000004     0.0000014    0.0000002     0.9998842   -0.0020504 
   0.025700500     0.9817963   -0.1886789     0.0000008    0.0000000     0.0000006   -0.0000002     0.9998828   -0.0021462 
   0.025950000     0.9814926   -0.1904336    -0.0000006    0.0000002    -0.0000005    0.0000001     0.9998990   -0.0020681 
   0.026199500     0.9810822   -0.1922129    -0.0000005   -0.0000002    -0.0000007    0.0000011     0.9998440   -0.0021288 
   0.026449000     0.9806798   -0.1939794     0.0000010    0.0000001     0.0000002    0.0000000     0.9998462   -0.0021604 
   0.026698500     0.9802551   -0.1958480    -0.0000007    0.0000013    -0.0000010    0.0000005     0.9999396   -0.0022042 
   0.026948000     0.9798672   -0.1977349     0.0000011   -0.0000006    -0.0000001    0.0000000     0.9998116   -0.0022028 
   0.027197500     0.9794936   -0.1995461     0.0000008    0.0000006     0.0000000   -0.0000001     0.9998251   -0.0021700 
   0.027447000     0.9791359   -0.2012642     0.0000000    0.0000005    -0.0000001    0.0000003     0.9997664   -0.0021539 
   0.027696500     0.9787696   -0.2031617     0.0000001   -0.0000003    -0.0000006   -0.0000003     0.9997534   -0.0021948 
   0.027946000     0.9783868   -0.2049210     0.0000010   -0.0000003     0.0000011    0.0000003     0.9997478   -0.0022868 
   0.028195500     0.9779952   -0.2067361     0.0000001    0.0000015    -0.0000009   -0.0000012     0.9997994   -0.0022008 
   0.028445000     0.9775895   -0.2083824    -0.0000005    0.0000002    -0.0000002   -0.0000011     0.9997130   -0.0022086 
   0.028694500     0.9773314   -0.2103146     0.0000002    0.0000003     0.0000000    0.0000000     0.9997718   -0.0022000 
   0.028944000     0.9769089   -0.2120190     0.0000005    0.0000014    -0.0000007   -0.0000004     0.9997127   -0.0022816 
   0.029193500     0.9764879   -0.2138622    -0.0000002    0.0000006    -0.0000015   -0.0000010     0.9996848   -0.0022805 
   0.029443000     0.9761487   -0.2156357     0.0000007   -0.0000012    -0.0000003    0.0000000     0.9996484   -0.0022174 
   0.029692500     0.9758311   -0.2173415     0.0000003   -0.0000007    -0.0000004   -0.0000003     0.9995756   -0.0022797 
   0.029942000     0.9753901   -0.2191707     0.0000001   -0.0000014    -0.0000005    0.0000007     0.9995551   -0.0022955 
   0.030191500     0.9750530   -0.2209562     0.0000011    0.0000010    -0.0000022   -0.0000006     0.9996265   -0.0022699 
   0.030441000     0.9745786   -0.2227041     0.0000007   -0.0000001     0.0000005    0.0000005     0.9995919   -0.0022306 
   0.030690500     0.9740997   -0.2244152     0.0000005    0.0000002    -0.0000012    0.0000005     0.9995741   -0.0023894 
   0.030940000     0.9736664   -0.2262088    -0.0000002    0.0000006    -0.0000007   -0.0000008     0.9996054   -0.0023417 
   0.031189500     0.9731920   -0.2281168     0.0000014    0.0000007     0.0000014   -0.0000009     0.9996019   -0.0023804 
   0.031439000     0.9727204   -0.2298694     0.0000000   -0.0000004    -0.0000005    0.0000002     0.9995883   -0.0023806 
   0.031688500     0.9722214   -0.2317281    -0.0000011   -0.0000008    -0.0000005   -0.0000004     0.9995836   -0.0023491 
   0.031938000     0.9718887   -0.2335084    -0.0000021   -0.0000015    -0.0000012   -0.0000011     0.9994084   -0.0025047 
   0.032187500     0.9714457   -0.2352867     0.0000002    0.0000003    -0.0000012   -0.0000001     0.9995092   -0.0023947 
   0.032437000     0.9709286   -0.2370597    -0.0000010    0.0000008     0.0000005   -0.0000001     0.9995148   -0.0023684 
   0.032686500     0.9705219   -0.2388583     0.0000007   -0.0000011     0.0000011   -0.0000003     0.9993605   -0.0022461 
   0.032936000     0.9700699   -0.2405420     0.0000008    0.0000009    -0.0000001    0.0000000     0.9994592   -0.0024515 
   0.033185500     0.9697130   -0.2424017    -0.0000005   -0.0000005    -0.0000007   -0.0000007     0.9993558   -0.0021955 
   0.033435000     0.9691784   -0.2441838    -0.0000007    0.0000013     0.0000005    0.0000000     0.9994743   -0.0024871 
   0.033684500     0.9686924   -0.2459244     0.0000010    0.0000000    -0.0000013   -0.0000003     0.9994673   -0.0024747 
   0.033934000     0.9682261   -0.2478207     0.0000006    0.0000005    -0.0000003    0.0000000     0.9994842   -0.0025066 
   0.034183500     0.9677749   -0.2496166    -0.0000007    0.0000008     0.0000003   -0.0000003     0.9993915   -0.0025660 
   0.034433000     0.9673272   -0.2514070     0.0000000   -0.0000001    -0.0000009   -0.0000004     0.9993739   -0.0025736 
   0.034682500     0.9669763   -0.2532023    -0.0000001   -0.0000012    -0.0000003   -0.0000005     0.9993722   -0.0025640 
   0.034932000     0.9665238   -0.2547995     0.0000012   -0.0000007    -0.0000008    0.0000010     0.9994432   -0.0025706 
   0.035181500     0.9660282   -0.2565024     0.0000011   -0.0000002     0.0000002    0.0000008     0.9993923   -0.0025567 
   0.035431000     0.9655676   -0.2582085    -0.0000006    0.0000003    -0.0000002    0.0000013     0.9993769   -0.0025513 
   0.035680500     0.9650858   -0.2599992    -0.0000007   -0.0000011     0.0000001   -0.0000006     0.9993914   -0.0026135 
   0.035930000     0.9645816   -0.2617318     0.0000004   -0.0000007    -0.0000019    0.0000001     0.9993895   -0.0025944 
   0.036179500     0.9640167   -0.2636032     0.0000006   -0.0000006    -0.0000009   -0.0000001     0.9994150   -0.0025924 
   0.036429000     0.9635713   -0.2654046    -0.0000002   -0.0000001     0.0000005   -0.0000008     0.9993888   -0.0025919 
   0.036678500     0.9631394   -0.2672200    -0.0000014    0.0000006    -0.0000010    0.0000002     0.9994302   -0.0025952 
   0.036928000     0.9626987   -0.2688872     0.0000006   -0.0000003    -0.0000014    0.0000010     0.9994224   -0.0026593 
   0.037177500     0.9622659   -0.2706292     0.0000001   -0.0000001    -0.0000012    0.0000010     0.9994197   -0.0026163 
   0.037427000     0.9617726   -0.2723520     0.0000005    0.0000009    -0.0000006    0.0000017     0.9994238   -0.0026934 
   0.037676500     0.9612554   -0.2739953    -0.0000004   -0.0000002     0.0000005   -0.0000013     0.9993657   -0.0026345 
   0.037926000     0.9607393   -0.2757373     0.0000018    0.0000002     0.0000012   -0.0000011     0.9993405   -0.0026558 
   0.038175500     0.9602357   -0.2774146     0.0000001    0.0000010     0.0000001    0.0000002     0.9993991   -0.0026894 
   0.038425000     0.9596844   -0.2791550     0.0000002    0.0000002     0.0000000   -0.0000007     0.9994187   -0.0026404 
   0.038674500     0.9590894   -0.2809663     0.0000017   -0.0000004    -0.0000012    0.0000002     0.9993765   -0.0027267 
   0.038924000     0.9585139   -0.2827955    -0.0000001    0.0000008     0.0000008   -0.0000001     0.9993278   -0.0027333 
   0.039173500     0.9579630   -0.2845265     0.0000010   -0.0000010     0.0000004    0.0000001     0.9993724   -0.0027711 
   0.039423000     0.9574074   -0.2863176     0.0000004    0.0000002    -0.0000009   -0.0000007     0.9993649   -0.0027811 
   0.039672500     0.9570819   -0.2879631     0.0000013   -0.0000006     0.0000009   -0.0000013     0.9990795   -0.0025696 
   0.039922000     0.9566708   -0.2897347    -0.0000004   -0.0000003     0.0000008   -0.0000017     0.9996888   -0.0024818 
