! MS46122B
! 1746301/73750021
! 11/3/2023 2:44:55 PM
! C:\USERS\SPEGWAL\DOWNLOADS\SAURABH\REACH\NODES\FRONT END\MEASUREMENTS\MEASURED S-PARAMETERS_03-11-2023\MS3-MS4_MS1_CABLE\MS1_OFF-MS391_ON-MS4250_OFF_S11.S2P
! CHANNEL.1
! TR.MEASUREMENT
! CORRECTED.DATA
# GHZ S RI R 50.0
! FREQ.GHZ         S11RE         S11IM         S21RE         S21IM         S12RE         S12IM         S22RE         S22IM         
!; PortSelection: Port_12
   0.001000000     1.0012020   -0.0092491     0.0000050   -0.0000002    -0.0000008    0.0000015     1.0031760   -0.0014990 
   0.001249500     1.0020740   -0.0103899    -0.0000005   -0.0000004    -0.0000002   -0.0000004     1.0021160   -0.0018033 
   0.001499000     1.0019910   -0.0122631    -0.0000003    0.0000012     0.0000009    0.0000000     1.0021010   -0.0016991 
   0.001748500     1.0019920   -0.0140911    -0.0000007    0.0000007    -0.0000003   -0.0000009     1.0020590   -0.0015738 
   0.001998000     1.0020180   -0.0159818     0.0000019   -0.0000011    -0.0000010   -0.0000009     1.0019910   -0.0015688 
   0.002247500     1.0023210   -0.0183094     0.0000006   -0.0000005     0.0000000   -0.0000015     1.0021830   -0.0018440 
   0.002497000     1.0022940   -0.0201234     0.0000002    0.0000007     0.0000006   -0.0000007     1.0021580   -0.0018905 
   0.002746500     1.0023620   -0.0219290    -0.0000009   -0.0000006     0.0000001   -0.0000007     1.0020740   -0.0017383 
   0.002996000     1.0022330   -0.0238676    -0.0000012   -0.0000007    -0.0000003    0.0000000     1.0020360   -0.0018390 
   0.003245500     1.0021840   -0.0257436     0.0000007    0.0000004     0.0000000   -0.0000019     1.0019550   -0.0017114 
   0.003495000     1.0022020   -0.0277987    -0.0000004   -0.0000002     0.0000006    0.0000002     1.0019400   -0.0017458 
   0.003744500     1.0022340   -0.0296237    -0.0000003   -0.0000011    -0.0000005   -0.0000004     1.0020570   -0.0016665 
   0.003994000     1.0021910   -0.0314016     0.0000007    0.0000004    -0.0000010    0.0000001     1.0018340   -0.0017172 
   0.004243500     1.0022760   -0.0331322    -0.0000001    0.0000008     0.0000009    0.0000009     1.0019590   -0.0020149 
   0.004493000     1.0021420   -0.0350873    -0.0000007    0.0000006     0.0000000    0.0000005     1.0019480   -0.0020671 
   0.004742500     1.0022110   -0.0369151    -0.0000008    0.0000003    -0.0000001    0.0000015     1.0019360   -0.0020151 
   0.004992000     1.0021570   -0.0387419     0.0000008    0.0000001    -0.0000016   -0.0000001     1.0018650   -0.0019946 
   0.005241500     1.0021210   -0.0406235     0.0000000    0.0000000     0.0000001    0.0000011     1.0017700   -0.0018913 
   0.005491000     1.0020120   -0.0425010    -0.0000002    0.0000004     0.0000001    0.0000001     1.0016550   -0.0018398 
   0.005740500     1.0019870   -0.0445492     0.0000000    0.0000000     0.0000009   -0.0000005     1.0016390   -0.0018156 
   0.005990000     1.0018760   -0.0463899    -0.0000002   -0.0000003     0.0000005   -0.0000005     1.0015010   -0.0017365 
   0.006239500     1.0017490   -0.0481810     0.0000004   -0.0000004    -0.0000009    0.0000005     1.0013310   -0.0016436 
   0.006489000     1.0015290   -0.0498035     0.0000005    0.0000004    -0.0000021   -0.0000001     1.0011460   -0.0016009 
   0.006738500     1.0011660   -0.0513718     0.0000007    0.0000000    -0.0000001   -0.0000003     1.0009260   -0.0015333 
   0.006988000     1.0008270   -0.0529956     0.0000012   -0.0000014     0.0000009    0.0000003     1.0008450   -0.0014843 
   0.007237500     1.0003570   -0.0545951    -0.0000004   -0.0000004     0.0000004    0.0000006     1.0007170   -0.0014313 
   0.007487000     0.9999022   -0.0563303    -0.0000015   -0.0000002     0.0000006   -0.0000008     1.0005590   -0.0013903 
   0.007736500     0.9996166   -0.0579420     0.0000002    0.0000015    -0.0000008   -0.0000006     1.0006000   -0.0014029 
   0.007986000     0.9991527   -0.0596824    -0.0000010    0.0000008    -0.0000009   -0.0000004     1.0006500   -0.0014374 
   0.008235500     0.9987955   -0.0613632     0.0000007    0.0000011    -0.0000007   -0.0000007     1.0006590   -0.0014298 
   0.008485000     0.9985532   -0.0630644     0.0000008    0.0000005     0.0000002   -0.0000006     1.0006710   -0.0014521 
   0.008734500     0.9982114   -0.0646836     0.0000006    0.0000003    -0.0000008   -0.0000006     1.0006480   -0.0015118 
   0.008984000     0.9980518   -0.0664096    -0.0000009   -0.0000007     0.0000003   -0.0000011     1.0005760   -0.0015361 
   0.009233500     0.9977327   -0.0681395    -0.0000009   -0.0000004    -0.0000001   -0.0000006     1.0006310   -0.0015163 
   0.009483000     0.9976033   -0.0700333    -0.0000005   -0.0000001     0.0000003    0.0000000     1.0006360   -0.0014288 
   0.009732500     0.9974188   -0.0718861    -0.0000008   -0.0000008     0.0000003   -0.0000008     1.0006370   -0.0015623 
   0.009982000     0.9972786   -0.0737831     0.0000007   -0.0000009    -0.0000008   -0.0000003     1.0005760   -0.0015285 
   0.010231500     0.9970282   -0.0755783    -0.0000004   -0.0000009     0.0000009    0.0000001     1.0005580   -0.0014590 
   0.010481000     0.9969578   -0.0773743    -0.0000002   -0.0000002    -0.0000014    0.0000004     1.0005600   -0.0015275 
   0.010730500     0.9967260   -0.0793035    -0.0000006   -0.0000004    -0.0000009   -0.0000005     1.0006300   -0.0015091 
   0.010980000     0.9967145   -0.0810560     0.0000012   -0.0000001     0.0000005    0.0000009     1.0005420   -0.0015480 
   0.011229500     0.9965986   -0.0828644    -0.0000005   -0.0000002     0.0000004   -0.0000013     1.0005120   -0.0015249 
   0.011479000     0.9963951   -0.0847887    -0.0000007    0.0000014    -0.0000003   -0.0000016     1.0004660   -0.0015679 
   0.011728500     0.9962155   -0.0865974     0.0000005    0.0000013    -0.0000002   -0.0000006     1.0004820   -0.0015874 
   0.011978000     0.9961249   -0.0884986    -0.0000002   -0.0000002    -0.0000004   -0.0000003     1.0004880   -0.0016278 
   0.012227500     0.9958935   -0.0904932     0.0000004    0.0000007     0.0000002    0.0000001     1.0004990   -0.0015904 
   0.012477000     0.9956527   -0.0923002     0.0000019    0.0000000     0.0000000    0.0000000     1.0005020   -0.0016072 
   0.012726500     0.9954113   -0.0941695     0.0000004   -0.0000002     0.0000010   -0.0000003     1.0005250   -0.0015373 
   0.012976000     0.9953197   -0.0959810    -0.0000013   -0.0000006    -0.0000007    0.0000005     1.0005000   -0.0015507 
   0.013225500     0.9951504   -0.0977244     0.0000001    0.0000004     0.0000002    0.0000010     1.0005340   -0.0015843 
   0.013475000     0.9950080   -0.0993925     0.0000007    0.0000000    -0.0000004    0.0000002     1.0005030   -0.0015792 
   0.013724500     0.9948414   -0.1012785    -0.0000001   -0.0000004     0.0000004   -0.0000004     1.0004640   -0.0015778 
   0.013974000     0.9947112   -0.1030578     0.0000001    0.0000005     0.0000000    0.0000008     1.0004530   -0.0015845 
   0.014223500     0.9945787   -0.1049204     0.0000002    0.0000011     0.0000003   -0.0000003     1.0003920   -0.0016488 
   0.014473000     0.9943398   -0.1069859    -0.0000001   -0.0000016     0.0000014    0.0000021     1.0004310   -0.0016617 
   0.014722500     0.9941067   -0.1087415     0.0000019    0.0000003    -0.0000012    0.0000001     1.0004850   -0.0016017 
   0.014972000     0.9938917   -0.1106334     0.0000007    0.0000006     0.0000002    0.0000006     1.0003630   -0.0016940 
   0.015221500     0.9936684   -0.1124487     0.0000001    0.0000009     0.0000008    0.0000010     1.0004260   -0.0016726 
   0.015471000     0.9933845   -0.1142382    -0.0000006    0.0000003     0.0000003   -0.0000014     1.0003780   -0.0017356 
   0.015720500     0.9931964   -0.1159142     0.0000001    0.0000000    -0.0000008    0.0000011     1.0003430   -0.0017861 
   0.015970000     0.9930604   -0.1178004     0.0000002   -0.0000008     0.0000003   -0.0000007     1.0003670   -0.0016294 
   0.016219500     0.9929379   -0.1196853     0.0000000    0.0000002     0.0000014    0.0000002     1.0003400   -0.0017734 
   0.016469000     0.9926953   -0.1214184     0.0000009   -0.0000008    -0.0000002   -0.0000005     1.0003540   -0.0017761 
   0.016718500     0.9925638   -0.1232877     0.0000005    0.0000009    -0.0000005   -0.0000006     1.0003630   -0.0016996 
   0.016968000     0.9922335   -0.1251788     0.0000007    0.0000000     0.0000007   -0.0000003     1.0003600   -0.0016886 
   0.017217500     0.9919651   -0.1270056     0.0000000   -0.0000002     0.0000001    0.0000006     1.0002610   -0.0017048 
   0.017467000     0.9916388   -0.1288435    -0.0000009   -0.0000012    -0.0000003    0.0000010     1.0003180   -0.0017712 
   0.017716500     0.9913223   -0.1307021    -0.0000003    0.0000000    -0.0000007    0.0000006     1.0002240   -0.0018460 
   0.017966000     0.9909773   -0.1325120    -0.0000002    0.0000008     0.0000007   -0.0000007     1.0003160   -0.0017291 
   0.018215500     0.9907426   -0.1342928    -0.0000008   -0.0000002     0.0000000    0.0000000     1.0002130   -0.0018205 
   0.018465000     0.9903973   -0.1359832     0.0000013    0.0000016    -0.0000015   -0.0000007     1.0002570   -0.0017964 
   0.018714500     0.9901459   -0.1377468     0.0000003    0.0000001     0.0000001   -0.0000019     1.0002590   -0.0018065 
   0.018964000     0.9899263   -0.1396017    -0.0000009   -0.0000016    -0.0000006   -0.0000006     1.0001870   -0.0017689 
   0.019213500     0.9896181   -0.1413650    -0.0000001    0.0000004    -0.0000005    0.0000004     1.0002560   -0.0018009 
   0.019463000     0.9894564   -0.1431250     0.0000005    0.0000010     0.0000000    0.0000002     1.0001600   -0.0018385 
   0.019712500     0.9892157   -0.1451063     0.0000001    0.0000011    -0.0000002    0.0000000     1.0002040   -0.0018957 
   0.019962000     0.9889924   -0.1468910     0.0000003   -0.0000006    -0.0000004   -0.0000001     1.0001310   -0.0018893 
   0.020211500     0.9886873   -0.1488004     0.0000002    0.0000001     0.0000009   -0.0000004     1.0002100   -0.0019384 
   0.020461000     0.9884009   -0.1506611     0.0000006    0.0000002     0.0000006   -0.0000008     1.0001350   -0.0019340 
   0.020710500     0.9879990   -0.1524674    -0.0000012    0.0000001     0.0000007    0.0000008     1.0000650   -0.0019599 
   0.020960000     0.9878390   -0.1542735     0.0000009   -0.0000007    -0.0000004    0.0000005     1.0000520   -0.0019891 
   0.021209500     0.9875048   -0.1560721    -0.0000004    0.0000005    -0.0000002   -0.0000004     1.0001340   -0.0019355 
   0.021459000     0.9871942   -0.1578444    -0.0000004   -0.0000006     0.0000001    0.0000002     1.0001050   -0.0019471 
   0.021708500     0.9869331   -0.1596775    -0.0000001    0.0000020    -0.0000003    0.0000001     1.0001380   -0.0020230 
   0.021958000     0.9865627   -0.1615215     0.0000002    0.0000000     0.0000002    0.0000004     1.0000920   -0.0020159 
   0.022207500     0.9862763   -0.1634485     0.0000000   -0.0000008     0.0000008    0.0000004     1.0000700   -0.0020260 
   0.022457000     0.9860003   -0.1652749    -0.0000001    0.0000004     0.0000001    0.0000003     1.0000310   -0.0020045 
   0.022706500     0.9855937   -0.1670649     0.0000005    0.0000006     0.0000003    0.0000002     0.9999959   -0.0020018 
   0.022956000     0.9853019   -0.1689872     0.0000013   -0.0000002    -0.0000011   -0.0000007     1.0000270   -0.0019730 
   0.023205500     0.9850770   -0.1708585    -0.0000004   -0.0000004     0.0000000    0.0000002     0.9999809   -0.0020213 
   0.023455000     0.9846639   -0.1726658     0.0000011    0.0000009     0.0000004    0.0000004     0.9999690   -0.0020837 
   0.023704500     0.9844985   -0.1743897    -0.0000005   -0.0000006     0.0000000   -0.0000015     0.9999878   -0.0021184 
   0.023954000     0.9841316   -0.1761620     0.0000006   -0.0000005    -0.0000008   -0.0000003     0.9998941   -0.0020454 
   0.024203500     0.9837851   -0.1780007     0.0000012   -0.0000008     0.0000007    0.0000002     0.9999664   -0.0020739 
   0.024453000     0.9834861   -0.1796865    -0.0000005    0.0000003    -0.0000004   -0.0000005     0.9999360   -0.0020415 
   0.024702500     0.9831223   -0.1815429     0.0000001    0.0000011     0.0000009   -0.0000019     0.9999332   -0.0021304 
   0.024952000     0.9827507   -0.1832936     0.0000000    0.0000005     0.0000004    0.0000005     0.9998863   -0.0020713 
   0.025201500     0.9825848   -0.1851707    -0.0000004    0.0000000     0.0000001    0.0000006     1.0003220   -0.0017440 
   0.025451000     0.9820958   -0.1868787     0.0000002   -0.0000004    -0.0000004   -0.0000008     0.9998814   -0.0020750 
   0.025700500     0.9818110   -0.1886526    -0.0000002    0.0000001    -0.0000001   -0.0000016     0.9999204   -0.0021301 
   0.025950000     0.9814410   -0.1904192    -0.0000010    0.0000004     0.0000007    0.0000002     0.9998896   -0.0021105 
   0.026199500     0.9810364   -0.1922005     0.0000003   -0.0000005    -0.0000010    0.0000007     0.9998144   -0.0021681 
   0.026449000     0.9806301   -0.1939499     0.0000007   -0.0000013     0.0000006    0.0000002     0.9998375   -0.0021542 
   0.026698500     0.9802586   -0.1958276    -0.0000013    0.0000006    -0.0000003    0.0000005     0.9999458   -0.0021842 
   0.026948000     0.9798408   -0.1977177     0.0000004   -0.0000001    -0.0000006   -0.0000001     0.9998186   -0.0021392 
   0.027197500     0.9794636   -0.1995491     0.0000003    0.0000006     0.0000009    0.0000003     0.9997450   -0.0021242 
   0.027447000     0.9790810   -0.2012691     0.0000008   -0.0000007     0.0000005    0.0000017     0.9997797   -0.0021902 
   0.027696500     0.9787493   -0.2030964     0.0000006   -0.0000004    -0.0000001   -0.0000002     0.9997678   -0.0021567 
   0.027946000     0.9783962   -0.2048580    -0.0000006    0.0000000     0.0000005    0.0000000     0.9997507   -0.0022253 
   0.028195500     0.9780318   -0.2066315     0.0000019   -0.0000001    -0.0000010   -0.0000002     0.9997782   -0.0022043 
   0.028445000     0.9776102   -0.2083743     0.0000004    0.0000000     0.0000011    0.0000005     0.9997410   -0.0022143 
   0.028694500     0.9772901   -0.2102734     0.0000002    0.0000001     0.0000014   -0.0000001     0.9997059   -0.0022111 
   0.028944000     0.9768642   -0.2119929    -0.0000005   -0.0000011     0.0000004   -0.0000018     0.9997094   -0.0022837 
   0.029193500     0.9764616   -0.2138008    -0.0000002    0.0000009     0.0000005    0.0000001     0.9996666   -0.0022284 
   0.029443000     0.9761121   -0.2155863     0.0000003   -0.0000003    -0.0000004   -0.0000001     0.9996203   -0.0022118 
   0.029692500     0.9757922   -0.2173006    -0.0000002   -0.0000001     0.0000009   -0.0000011     0.9996149   -0.0022860 
   0.029942000     0.9753752   -0.2190937    -0.0000004    0.0000000    -0.0000011   -0.0000009     0.9995817   -0.0023386 
   0.030191500     0.9750055   -0.2209297    -0.0000011    0.0000004    -0.0000009    0.0000004     0.9996370   -0.0022853 
   0.030441000     0.9744583   -0.2227185    -0.0000011   -0.0000005    -0.0000011    0.0000008     0.9996147   -0.0022251 
   0.030690500     0.9740826   -0.2244178     0.0000012    0.0000001    -0.0000006    0.0000003     0.9995711   -0.0024139 
   0.030940000     0.9736581   -0.2261959     0.0000004   -0.0000010     0.0000002   -0.0000012     0.9995915   -0.0023666 
   0.031189500     0.9731343   -0.2280371     0.0000002   -0.0000003    -0.0000012   -0.0000003     0.9996279   -0.0023592 
   0.031439000     0.9726810   -0.2298393    -0.0000006   -0.0000010     0.0000000   -0.0000005     0.9995643   -0.0023798 
   0.031688500     0.9721714   -0.2316796    -0.0000008   -0.0000013    -0.0000011    0.0000004     0.9995540   -0.0023520 
   0.031938000     0.9718471   -0.2334511     0.0000002    0.0000002    -0.0000008   -0.0000019     0.9995115   -0.0024073 
   0.032187500     0.9713991   -0.2352575    -0.0000007   -0.0000003     0.0000000   -0.0000010     0.9995148   -0.0024000 
   0.032437000     0.9709079   -0.2370060    -0.0000004   -0.0000020     0.0000003   -0.0000011     0.9994985   -0.0023678 
   0.032686500     0.9705200   -0.2388212     0.0000005   -0.0000020    -0.0000005   -0.0000003     0.9993716   -0.0022082 
   0.032936000     0.9700319   -0.2405288    -0.0000005    0.0000002     0.0000003    0.0000003     0.9994513   -0.0024654 
   0.033185500     0.9696518   -0.2423616     0.0000005    0.0000000     0.0000013    0.0000015     0.9993111   -0.0022506 
   0.033435000     0.9691286   -0.2441227     0.0000000   -0.0000010     0.0000000    0.0000005     0.9994247   -0.0025066 
   0.033684500     0.9686564   -0.2459325    -0.0000008    0.0000006     0.0000001   -0.0000008     0.9994143   -0.0024624 
   0.033934000     0.9681773   -0.2477298    -0.0000005    0.0000001    -0.0000011    0.0000000     0.9994903   -0.0025002 
   0.034183500     0.9677384   -0.2495760     0.0000004   -0.0000009    -0.0000011    0.0000000     0.9993772   -0.0025142 
   0.034433000     0.9672921   -0.2513707     0.0000000    0.0000004     0.0000008    0.0000007     0.9994368   -0.0025629 
   0.034682500     0.9669558   -0.2531629    -0.0000001   -0.0000007     0.0000003   -0.0000002     0.9993934   -0.0025700 
   0.034932000     0.9665033   -0.2547520    -0.0000002    0.0000002    -0.0000015   -0.0000003     0.9994576   -0.0025459 
   0.035181500     0.9659942   -0.2564907    -0.0000001   -0.0000003    -0.0000013    0.0000010     0.9994069   -0.0025642 
   0.035431000     0.9655629   -0.2581761    -0.0000010    0.0000003     0.0000006   -0.0000003     0.9993688   -0.0025618 
   0.035680500     0.9650533   -0.2600074     0.0000011    0.0000003    -0.0000005    0.0000004     0.9994217   -0.0026531 
   0.035930000     0.9645143   -0.2617761    -0.0000014   -0.0000001    -0.0000012   -0.0000004     0.9993996   -0.0025932 
   0.036179500     0.9640013   -0.2635664    -0.0000005   -0.0000009     0.0000008    0.0000016     0.9994326   -0.0025909 
   0.036429000     0.9634730   -0.2653446    -0.0000003    0.0000001     0.0000002   -0.0000006     0.9993823   -0.0025831 
   0.036678500     0.9631102   -0.2671880     0.0000002   -0.0000002     0.0000011   -0.0000014     0.9994074   -0.0026319 
   0.036928000     0.9626750   -0.2688593    -0.0000008   -0.0000003    -0.0000002    0.0000003     0.9994332   -0.0026758 
   0.037177500     0.9622018   -0.2705861    -0.0000009    0.0000004     0.0000010   -0.0000001     0.9994323   -0.0026489 
   0.037427000     0.9617474   -0.2723242     0.0000011   -0.0000012     0.0000002   -0.0000003     0.9994180   -0.0026805 
   0.037676500     0.9612100   -0.2739599     0.0000007   -0.0000005    -0.0000002    0.0000000     0.9993507   -0.0026122 
   0.037926000     0.9607272   -0.2756980     0.0000004   -0.0000005     0.0000001   -0.0000005     0.9993520   -0.0026350 
   0.038175500     0.9602056   -0.2774018     0.0000017    0.0000001     0.0000009   -0.0000008     0.9994420   -0.0026944 
   0.038425000     0.9596599   -0.2791657    -0.0000007    0.0000008     0.0000004    0.0000009     0.9994316   -0.0026544 
   0.038674500     0.9590971   -0.2809230     0.0000000   -0.0000002     0.0000003   -0.0000005     0.9993910   -0.0027416 
   0.038924000     0.9584889   -0.2827539     0.0000004    0.0000004     0.0000016   -0.0000006     0.9993480   -0.0027395 
   0.039173500     0.9579139   -0.2844940     0.0000001   -0.0000002    -0.0000002    0.0000003     0.9993542   -0.0027397 
   0.039423000     0.9573922   -0.2862889    -0.0000011    0.0000009    -0.0000012   -0.0000006     0.9993673   -0.0027756 
   0.039672500     0.9570786   -0.2879231     0.0000000    0.0000001     0.0000011    0.0000004     0.9991526   -0.0024804 
   0.039922000     0.9566407   -0.2896920    -0.0000004    0.0000006    -0.0000009   -0.0000008     0.9996760   -0.0024720 
