! MS46122B
! 1746301/73750021
! 11/3/2023 2:19:07 PM
! C:\USERS\SPEGWAL\DOWNLOADS\SAURABH\REACH\NODES\FRONT END\MEASUREMENTS\MEASURED S-PARAMETERS_03-11-2023\MS3-MS4_MS1_CABLE\NOISE_SOURCE_S11.S2P
! CHANNEL.1
! TR.MEASUREMENT
! CORRECTED.DATA
# GHZ S RI R 50.0
! FREQ.GHZ         S11RE         S11IM         S21RE         S21IM         S12RE         S12IM         S22RE         S22IM         
!; PortSelection: Port_12
   0.001000000     0.0124899   -0.0072543     0.0000045   -0.0000014     0.0000011   -0.0000020     1.0025650   -0.0017009 
   0.001249500     0.0109734   -0.0075221     0.0000000    0.0000001    -0.0000002   -0.0000008     1.0017030   -0.0015583 
   0.001499000     0.0096818   -0.0075658     0.0000006    0.0000019     0.0000004    0.0000003     1.0016990   -0.0014850 
   0.001748500     0.0085969   -0.0074505    -0.0000009   -0.0000005     0.0000003   -0.0000010     1.0016780   -0.0013916 
   0.001998000     0.0076919   -0.0072728     0.0000010   -0.0000010    -0.0000005   -0.0000006     1.0016170   -0.0013334 
   0.002247500     0.0069490   -0.0070529     0.0000005   -0.0000003     0.0000005    0.0000001     1.0018040   -0.0015972 
   0.002497000     0.0062882   -0.0068318     0.0000003    0.0000002     0.0000007   -0.0000010     1.0017760   -0.0015680 
   0.002746500     0.0057687   -0.0065923    -0.0000011    0.0000009     0.0000005   -0.0000001     1.0017160   -0.0015174 
   0.002996000     0.0052810   -0.0063493     0.0000002    0.0000014     0.0000007    0.0000010     1.0016690   -0.0016170 
   0.003245500     0.0048836   -0.0060812    -0.0000001    0.0000016     0.0000008   -0.0000007     1.0016550   -0.0014629 
   0.003495000     0.0045377   -0.0058351    -0.0000006    0.0000005    -0.0000013    0.0000005     1.0016430   -0.0015357 
   0.003744500     0.0042203   -0.0056187     0.0000003    0.0000009    -0.0000010    0.0000004     1.0015460   -0.0014535 
   0.003994000     0.0039565   -0.0053998     0.0000004    0.0000005    -0.0000003    0.0000014     1.0015540   -0.0014588 
   0.004243500     0.0037448   -0.0051803    -0.0000007   -0.0000004    -0.0000007   -0.0000006     1.0016290   -0.0016992 
   0.004493000     0.0035533   -0.0049924    -0.0000001   -0.0000024    -0.0000001    0.0000001     1.0016910   -0.0018420 
   0.004742500     0.0033582   -0.0047840    -0.0000009    0.0000000    -0.0000005   -0.0000004     1.0015910   -0.0017542 
   0.004992000     0.0032061   -0.0045719     0.0000007   -0.0000003    -0.0000001    0.0000006     1.0015320   -0.0017001 
   0.005241500     0.0030637   -0.0043945     0.0000000    0.0000008    -0.0000010   -0.0000007     1.0014610   -0.0016524 
   0.005491000     0.0029468   -0.0042029    -0.0000009   -0.0000003    -0.0000001    0.0000007     1.0014070   -0.0016453 
   0.005740500     0.0028286   -0.0040300    -0.0000001    0.0000012    -0.0000002    0.0000002     1.0013980   -0.0015690 
   0.005990000     0.0027286   -0.0038774     0.0000000    0.0000005    -0.0000006    0.0000003     1.0012680   -0.0015303 
   0.006239500     0.0026404   -0.0037275     0.0000011    0.0000001    -0.0000005    0.0000004     1.0010950   -0.0015143 
   0.006489000     0.0025592   -0.0035714     0.0000002   -0.0000003     0.0000007   -0.0000012     1.0009460   -0.0014495 
   0.006738500     0.0024899   -0.0034399    -0.0000008    0.0000000    -0.0000013    0.0000009     1.0007810   -0.0013623 
   0.006988000     0.0024153   -0.0033120    -0.0000011   -0.0000001     0.0000008    0.0000003     1.0007000   -0.0013378 
   0.007237500     0.0023600   -0.0031782    -0.0000007    0.0000011     0.0000011    0.0000018     1.0006090   -0.0012686 
   0.007487000     0.0023073   -0.0030741     0.0000011   -0.0000001    -0.0000006    0.0000003     1.0004630   -0.0012188 
   0.007736500     0.0022709   -0.0029704     0.0000009    0.0000008    -0.0000008    0.0000000     1.0005240   -0.0012773 
   0.007986000     0.0022278   -0.0028656    -0.0000002    0.0000005     0.0000006   -0.0000006     1.0005470   -0.0012714 
   0.008235500     0.0021891   -0.0027645     0.0000006   -0.0000008     0.0000012    0.0000006     1.0005350   -0.0012926 
   0.008485000     0.0021569   -0.0026650    -0.0000004    0.0000007     0.0000003   -0.0000004     1.0005520   -0.0012961 
   0.008734500     0.0021419   -0.0025872    -0.0000001   -0.0000002     0.0000005   -0.0000002     1.0005560   -0.0013573 
   0.008984000     0.0021127   -0.0024968     0.0000001    0.0000010    -0.0000003    0.0000009     1.0004980   -0.0013674 
   0.009233500     0.0020714   -0.0024013     0.0000000    0.0000003     0.0000002    0.0000005     1.0005320   -0.0014184 
   0.009483000     0.0020684   -0.0023443    -0.0000002    0.0000001     0.0000007   -0.0000020     1.0005210   -0.0013211 
   0.009732500     0.0020545   -0.0022584    -0.0000016    0.0000003     0.0000003   -0.0000005     1.0005260   -0.0014179 
   0.009982000     0.0020375   -0.0021971    -0.0000002    0.0000007    -0.0000017    0.0000004     1.0005110   -0.0013734 
   0.010231500     0.0020213   -0.0021424    -0.0000002    0.0000003     0.0000000   -0.0000006     1.0004280   -0.0013362 
   0.010481000     0.0020126   -0.0020772     0.0000010    0.0000004    -0.0000017   -0.0000004     1.0004750   -0.0013895 
   0.010730500     0.0020036   -0.0020182     0.0000008    0.0000005    -0.0000013   -0.0000006     1.0004780   -0.0014163 
   0.010980000     0.0019980   -0.0019614     0.0000008    0.0000001    -0.0000005    0.0000001     1.0004540   -0.0014167 
   0.011229500     0.0019930   -0.0019070    -0.0000001   -0.0000008    -0.0000008   -0.0000002     1.0004320   -0.0013814 
   0.011479000     0.0019896   -0.0018511    -0.0000003    0.0000003    -0.0000005    0.0000002     1.0004240   -0.0013708 
   0.011728500     0.0019836   -0.0017981     0.0000009    0.0000004     0.0000002    0.0000000     1.0004110   -0.0014375 
   0.011978000     0.0019772   -0.0017551     0.0000012   -0.0000003    -0.0000004   -0.0000008     1.0003950   -0.0014551 
   0.012227500     0.0019575   -0.0016971     0.0000012   -0.0000008    -0.0000003    0.0000005     1.0003890   -0.0014405 
   0.012477000     0.0019587   -0.0016624     0.0000001    0.0000005    -0.0000004   -0.0000001     1.0004300   -0.0014442 
   0.012726500     0.0019531   -0.0016260     0.0000005    0.0000009     0.0000000    0.0000002     1.0004540   -0.0014657 
   0.012976000     0.0019406   -0.0015861     0.0000007   -0.0000013    -0.0000012   -0.0000001     1.0004280   -0.0014840 
   0.013225500     0.0019518   -0.0015536     0.0000010   -0.0000007     0.0000000    0.0000004     1.0004770   -0.0014347 
   0.013475000     0.0019515   -0.0015142    -0.0000001   -0.0000003    -0.0000007   -0.0000001     1.0003880   -0.0013815 
   0.013724500     0.0019466   -0.0014802     0.0000001    0.0000009    -0.0000002    0.0000007     1.0003760   -0.0014007 
   0.013974000     0.0019581   -0.0014355    -0.0000011    0.0000002    -0.0000005   -0.0000005     1.0003760   -0.0015319 
   0.014223500     0.0019421   -0.0014045    -0.0000007   -0.0000008     0.0000000    0.0000003     1.0003250   -0.0014761 
   0.014473000     0.0019413   -0.0013763    -0.0000001    0.0000014     0.0000005    0.0000008     1.0003610   -0.0015169 
   0.014722500     0.0019339   -0.0013516    -0.0000007    0.0000009    -0.0000002    0.0000000     1.0004470   -0.0014605 
   0.014972000     0.0019313   -0.0013174    -0.0000015   -0.0000004    -0.0000003   -0.0000012     1.0003170   -0.0015718 
   0.015221500     0.0019456   -0.0012904    -0.0000006   -0.0000006     0.0000000   -0.0000003     1.0003690   -0.0015390 
   0.015471000     0.0019403   -0.0012553    -0.0000001    0.0000013     0.0000013   -0.0000002     1.0003900   -0.0015726 
   0.015720500     0.0019398   -0.0012340    -0.0000007    0.0000003    -0.0000005   -0.0000002     1.0003060   -0.0015908 
   0.015970000     0.0019523   -0.0012123    -0.0000010    0.0000009    -0.0000003   -0.0000001     1.0002670   -0.0014911 
   0.016219500     0.0019392   -0.0011873     0.0000003   -0.0000014    -0.0000001    0.0000006     1.0002530   -0.0015839 
   0.016469000     0.0019516   -0.0011558    -0.0000001   -0.0000007     0.0000001   -0.0000015     1.0002880   -0.0016061 
   0.016718500     0.0019586   -0.0011412     0.0000002   -0.0000010    -0.0000001   -0.0000010     1.0002880   -0.0015300 
   0.016968000     0.0019609   -0.0011227     0.0000008    0.0000003     0.0000001   -0.0000020     1.0002880   -0.0015469 
   0.017217500     0.0019627   -0.0010986     0.0000012   -0.0000008     0.0000012    0.0000001     1.0002060   -0.0015601 
   0.017467000     0.0019643   -0.0010773    -0.0000003   -0.0000005    -0.0000009    0.0000001     1.0002850   -0.0016008 
   0.017716500     0.0019652   -0.0010654    -0.0000002   -0.0000007    -0.0000003   -0.0000003     1.0001910   -0.0016922 
   0.017966000     0.0019560   -0.0010482    -0.0000005   -0.0000004    -0.0000001   -0.0000006     1.0002760   -0.0016099 
   0.018215500     0.0019730   -0.0010185     0.0000003    0.0000006    -0.0000003    0.0000005     1.0002430   -0.0016459 
   0.018465000     0.0019896   -0.0010051     0.0000010    0.0000003    -0.0000011   -0.0000001     1.0001980   -0.0016584 
   0.018714500     0.0019935   -0.0009958     0.0000000    0.0000002     0.0000007    0.0000009     1.0002470   -0.0016599 
   0.018964000     0.0019911   -0.0009727     0.0000000    0.0000015    -0.0000016    0.0000015     1.0001950   -0.0016088 
   0.019213500     0.0019989   -0.0009735    -0.0000010   -0.0000003     0.0000009    0.0000004     1.0001940   -0.0016665 
   0.019463000     0.0019986   -0.0009467    -0.0000005    0.0000003     0.0000006    0.0000008     1.0001850   -0.0017136 
   0.019712500     0.0020155   -0.0009353    -0.0000005    0.0000006     0.0000002   -0.0000015     1.0001890   -0.0017366 
   0.019962000     0.0020146   -0.0009182    -0.0000002   -0.0000010    -0.0000006    0.0000007     1.0001400   -0.0017363 
   0.020211500     0.0020181   -0.0009099    -0.0000002    0.0000013     0.0000007    0.0000012     1.0002040   -0.0017838 
   0.020461000     0.0020251   -0.0009061    -0.0000006   -0.0000005     0.0000002   -0.0000004     1.0001240   -0.0018140 
   0.020710500     0.0020364   -0.0008847    -0.0000006    0.0000004     0.0000003   -0.0000006     1.0000520   -0.0018008 
   0.020960000     0.0020364   -0.0008670    -0.0000003   -0.0000006    -0.0000004    0.0000001     1.0000270   -0.0018644 
   0.021209500     0.0020467   -0.0008759     0.0000007   -0.0000002     0.0000009    0.0000007     1.0001130   -0.0017916 
   0.021459000     0.0020461   -0.0008662    -0.0000003   -0.0000005     0.0000004    0.0000011     1.0000980   -0.0017660 
   0.021708500     0.0020500   -0.0008638     0.0000010   -0.0000010     0.0000008   -0.0000007     1.0000950   -0.0018414 
   0.021958000     0.0020657   -0.0008510    -0.0000015   -0.0000006     0.0000007   -0.0000005     1.0000590   -0.0018332 
   0.022207500     0.0020707   -0.0008370     0.0000009   -0.0000004    -0.0000004   -0.0000005     1.0000750   -0.0018581 
   0.022457000     0.0020893   -0.0008343    -0.0000002    0.0000011     0.0000000    0.0000000     1.0000460   -0.0018493 
   0.022706500     0.0020880   -0.0008384     0.0000007   -0.0000012    -0.0000001    0.0000003     1.0000590   -0.0018507 
   0.022956000     0.0021090   -0.0008290     0.0000000   -0.0000006    -0.0000007    0.0000003     1.0000590   -0.0017784 
   0.023205500     0.0021121   -0.0008162     0.0000001    0.0000012    -0.0000003   -0.0000003     0.9999787   -0.0018438 
   0.023455000     0.0021117   -0.0008138    -0.0000007    0.0000005     0.0000009   -0.0000007     0.9999932   -0.0018965 
   0.023704500     0.0021177   -0.0008182    -0.0000008   -0.0000010    -0.0000005   -0.0000004     1.0000190   -0.0019791 
   0.023954000     0.0021367   -0.0007986    -0.0000003    0.0000004     0.0000001    0.0000000     0.9999003   -0.0018646 
   0.024203500     0.0021402   -0.0007988    -0.0000011    0.0000019    -0.0000010   -0.0000004     0.9999964   -0.0019310 
   0.024453000     0.0021563   -0.0007993    -0.0000001    0.0000009    -0.0000003    0.0000005     0.9999678   -0.0018740 
   0.024702500     0.0021491   -0.0007910    -0.0000002    0.0000008    -0.0000002   -0.0000001     0.9999862   -0.0019191 
   0.024952000     0.0021674   -0.0007912    -0.0000005   -0.0000009     0.0000009   -0.0000005     0.9999369   -0.0019112 
   0.025201500     0.0022060   -0.0007649     0.0000005   -0.0000011    -0.0000003   -0.0000012     1.0003080   -0.0015935 
   0.025451000     0.0021801   -0.0007866     0.0000007   -0.0000005     0.0000001    0.0000005     0.9998909   -0.0018651 
   0.025700500     0.0022135   -0.0007914    -0.0000006    0.0000008    -0.0000003    0.0000008     0.9999162   -0.0019680 
   0.025950000     0.0022149   -0.0007782     0.0000012   -0.0000001    -0.0000005    0.0000006     0.9999476   -0.0018957 
   0.026199500     0.0022209   -0.0007964     0.0000005    0.0000002     0.0000010   -0.0000003     0.9998987   -0.0019421 
   0.026449000     0.0022349   -0.0007849     0.0000012    0.0000005     0.0000001    0.0000005     0.9999165   -0.0019707 
   0.026698500     0.0022476   -0.0007853    -0.0000011    0.0000010    -0.0000003    0.0000002     0.9999956   -0.0020145 
   0.026948000     0.0022613   -0.0007842    -0.0000005   -0.0000013    -0.0000008   -0.0000001     0.9999011   -0.0019790 
   0.027197500     0.0022561   -0.0007782     0.0000008    0.0000003    -0.0000002   -0.0000001     0.9998662   -0.0019488 
   0.027447000     0.0022660   -0.0007824     0.0000005   -0.0000005     0.0000016    0.0000012     0.9998454   -0.0020283 
   0.027696500     0.0022964   -0.0007822     0.0000016    0.0000006     0.0000003    0.0000002     0.9998067   -0.0020234 
   0.027946000     0.0022818   -0.0007791    -0.0000011   -0.0000002     0.0000000    0.0000000     0.9997916   -0.0020948 
   0.028195500     0.0023058   -0.0007890     0.0000006    0.0000004     0.0000000    0.0000012     0.9998582   -0.0020032 
   0.028445000     0.0023164   -0.0007982    -0.0000007    0.0000000     0.0000005    0.0000010     0.9997851   -0.0020495 
   0.028694500     0.0023297   -0.0007994    -0.0000001    0.0000005    -0.0000003   -0.0000001     0.9998122   -0.0020113 
   0.028944000     0.0023404   -0.0007947     0.0000010    0.0000004     0.0000010    0.0000008     0.9997763   -0.0020944 
   0.029193500     0.0023456   -0.0007916    -0.0000008   -0.0000005     0.0000009    0.0000006     0.9997334   -0.0021132 
   0.029443000     0.0023624   -0.0008044     0.0000001   -0.0000005     0.0000007   -0.0000013     0.9997501   -0.0020507 
   0.029692500     0.0023676   -0.0008026     0.0000012   -0.0000013     0.0000001    0.0000003     0.9996960   -0.0020787 
   0.029942000     0.0023744   -0.0008111     0.0000014   -0.0000001     0.0000002    0.0000006     0.9996455   -0.0021284 
   0.030191500     0.0023818   -0.0008152     0.0000005   -0.0000004    -0.0000010   -0.0000009     0.9997129   -0.0021272 
   0.030441000     0.0023895   -0.0008168     0.0000004    0.0000008     0.0000017   -0.0000010     0.9996765   -0.0020447 
   0.030690500     0.0024131   -0.0008109     0.0000008    0.0000004    -0.0000006    0.0000002     0.9997086   -0.0021908 
   0.030940000     0.0024198   -0.0008200    -0.0000005    0.0000001    -0.0000001   -0.0000001     0.9997140   -0.0021682 
   0.031189500     0.0024331   -0.0008238    -0.0000001    0.0000003     0.0000006   -0.0000004     0.9997281   -0.0022007 
   0.031439000     0.0024307   -0.0008468     0.0000001   -0.0000003     0.0000002    0.0000000     0.9996656   -0.0021737 
   0.031688500     0.0024497   -0.0008465    -0.0000010   -0.0000007     0.0000004    0.0000012     0.9996726   -0.0021721 
   0.031938000     0.0024439   -0.0008532     0.0000005   -0.0000005     0.0000007   -0.0000012     0.9995795   -0.0022717 
   0.032187500     0.0024646   -0.0008565    -0.0000001   -0.0000008    -0.0000003    0.0000007     0.9996455   -0.0022508 
   0.032437000     0.0024828   -0.0008661    -0.0000014   -0.0000008     0.0000009    0.0000011     0.9996107   -0.0022005 
   0.032686500     0.0024380   -0.0009060    -0.0000007    0.0000008     0.0000002   -0.0000007     0.9994860   -0.0020814 
   0.032936000     0.0024853   -0.0008886    -0.0000016   -0.0000007     0.0000008   -0.0000012     0.9996065   -0.0022638 
   0.033185500     0.0024462   -0.0009201    -0.0000003    0.0000005     0.0000000    0.0000010     0.9994391   -0.0020914 
   0.033435000     0.0025180   -0.0008987    -0.0000003    0.0000011    -0.0000006    0.0000001     0.9996034   -0.0022906 
   0.033684500     0.0025311   -0.0009104     0.0000001    0.0000014    -0.0000006   -0.0000002     0.9995571   -0.0022642 
   0.033934000     0.0025350   -0.0009168    -0.0000019    0.0000001     0.0000001    0.0000007     0.9996064   -0.0023215 
   0.034183500     0.0025424   -0.0009277     0.0000013    0.0000001    -0.0000005   -0.0000008     0.9995430   -0.0023871 
   0.034433000     0.0025627   -0.0009423     0.0000014    0.0000004    -0.0000010    0.0000004     0.9996136   -0.0023409 
   0.034682500     0.0025721   -0.0009527     0.0000000   -0.0000004    -0.0000003    0.0000003     0.9995984   -0.0023760 
   0.034932000     0.0025874   -0.0009628    -0.0000010   -0.0000002     0.0000019    0.0000004     0.9995946   -0.0023552 
   0.035181500     0.0025921   -0.0009600    -0.0000002    0.0000001     0.0000012    0.0000004     0.9995706   -0.0024018 
   0.035431000     0.0025858   -0.0009759     0.0000001    0.0000002    -0.0000012   -0.0000002     0.9995214   -0.0023562 
   0.035680500     0.0026175   -0.0009875     0.0000006   -0.0000002    -0.0000001   -0.0000010     0.9995243   -0.0023677 
   0.035930000     0.0026237   -0.0010065     0.0000000   -0.0000011     0.0000006   -0.0000006     0.9995281   -0.0023568 
   0.036179500     0.0026389   -0.0010049     0.0000010    0.0000000    -0.0000004   -0.0000012     0.9995422   -0.0024063 
   0.036429000     0.0026438   -0.0010230     0.0000005   -0.0000002     0.0000010   -0.0000001     0.9995373   -0.0023916 
   0.036678500     0.0026636   -0.0010411     0.0000013   -0.0000007     0.0000005   -0.0000002     0.9995528   -0.0024261 
   0.036928000     0.0026791   -0.0010570     0.0000002    0.0000004    -0.0000010    0.0000008     0.9995667   -0.0024463 
   0.037177500     0.0026814   -0.0010728     0.0000000   -0.0000010    -0.0000005   -0.0000002     0.9995584   -0.0024804 
   0.037427000     0.0026910   -0.0010782    -0.0000013    0.0000001     0.0000002   -0.0000005     0.9995699   -0.0025066 
   0.037676500     0.0027119   -0.0010811     0.0000001    0.0000004     0.0000001    0.0000008     0.9995137   -0.0024021 
   0.037926000     0.0027148   -0.0010984    -0.0000004   -0.0000010     0.0000012    0.0000003     0.9994884   -0.0024596 
   0.038175500     0.0027315   -0.0011176     0.0000005    0.0000003    -0.0000015   -0.0000023     0.9995459   -0.0024770 
   0.038425000     0.0027503   -0.0011178     0.0000009    0.0000004    -0.0000004   -0.0000011     0.9995367   -0.0024796 
   0.038674500     0.0027688   -0.0011293     0.0000018    0.0000007     0.0000003    0.0000001     0.9995179   -0.0025233 
   0.038924000     0.0027679   -0.0011509     0.0000006    0.0000005     0.0000005   -0.0000007     0.9994861   -0.0025145 
   0.039173500     0.0027765   -0.0011543    -0.0000013   -0.0000010     0.0000001   -0.0000009     0.9994907   -0.0025508 
   0.039423000     0.0028004   -0.0011791    -0.0000002   -0.0000004    -0.0000009   -0.0000014     0.9995004   -0.0025535 
   0.039672500     0.0028057   -0.0012002    -0.0000019   -0.0000010     0.0000007    0.0000003     0.9993083   -0.0023205 
   0.039922000     0.0028255   -0.0011737     0.0000012   -0.0000006     0.0000010   -0.0000017     0.9997483   -0.0023178 
