! MS46122B
! 1746301/73750021
! 11/3/2023 2:22:56 PM
! C:\USERS\SPEGWAL\DOWNLOADS\SAURABH\REACH\NODES\FRONT END\MEASUREMENTS\MEASURED S-PARAMETERS_03-11-2023\MS3-MS4_MS1_CABLE\100OHMS_SOURCE_S11.S2P
! CHANNEL.1
! TR.MEASUREMENT
! CORRECTED.DATA
# GHZ S RI R 50.0
! FREQ.GHZ         S11RE         S11IM         S21RE         S21IM         S12RE         S12IM         S22RE         S22IM         
!; PortSelection: Port_12
   0.001000000     0.3444408   -0.0152233     0.0000011   -0.0000043     0.0000007    0.0000011     1.0019270   -0.0016313 
   0.001249500     0.3455385   -0.0170593     0.0000000   -0.0000001     0.0000000   -0.0000003     1.0018550   -0.0016025 
   0.001499000     0.3461318   -0.0180757    -0.0000012   -0.0000003     0.0000006   -0.0000006     1.0018200   -0.0015382 
   0.001748500     0.3463473   -0.0188304    -0.0000003   -0.0000021     0.0000013    0.0000035     1.0018400   -0.0013846 
   0.001998000     0.3465480   -0.0194483    -0.0000001    0.0000009     0.0000002    0.0000011     1.0017200   -0.0013566 
   0.002247500     0.3431165   -0.0165825     0.0000001   -0.0000004    -0.0000008    0.0000011     1.0018970   -0.0016547 
   0.002497000     0.3429714   -0.0172606     0.0000010   -0.0000017    -0.0000001    0.0000001     1.0018310   -0.0016637 
   0.002746500     0.3427988   -0.0178778     0.0000002   -0.0000001     0.0000003   -0.0000015     1.0018150   -0.0015727 
   0.002996000     0.3424748   -0.0184838     0.0000004    0.0000015    -0.0000015    0.0000008     1.0017770   -0.0016765 
   0.003245500     0.3421896   -0.0191003     0.0000008    0.0000011     0.0000002    0.0000002     1.0016970   -0.0015349 
   0.003495000     0.3418769   -0.0196977     0.0000016    0.0000007     0.0000000    0.0000008     1.0016540   -0.0015656 
   0.003744500     0.3415628   -0.0203327    -0.0000009   -0.0000004     0.0000020    0.0000000     1.0017230   -0.0015434 
   0.003994000     0.3412545   -0.0209681    -0.0000008    0.0000001     0.0000003   -0.0000003     1.0015820   -0.0015359 
   0.004243500     0.3409635   -0.0215618     0.0000010    0.0000001    -0.0000003    0.0000008     1.0017050   -0.0017811 
   0.004493000     0.3406461   -0.0222443     0.0000002    0.0000001     0.0000002   -0.0000003     1.0017090   -0.0018019 
   0.004742500     0.3403401   -0.0229385     0.0000003   -0.0000001     0.0000004   -0.0000005     1.0016850   -0.0017997 
   0.004992000     0.3400074   -0.0236189     0.0000002   -0.0000012    -0.0000002    0.0000013     1.0016250   -0.0017677 
   0.005241500     0.3396961   -0.0243158     0.0000022    0.0000015    -0.0000006    0.0000003     1.0015190   -0.0016702 
   0.005491000     0.3393408   -0.0250104    -0.0000004    0.0000008    -0.0000001    0.0000001     1.0014840   -0.0016985 
   0.005740500     0.3390377   -0.0257395     0.0000001   -0.0000008     0.0000001    0.0000009     1.0014720   -0.0016250 
   0.005990000     0.3387070   -0.0264937     0.0000003   -0.0000006     0.0000003   -0.0000010     1.0013330   -0.0016040 
   0.006239500     0.3383678   -0.0272216    -0.0000007    0.0000007    -0.0000011   -0.0000001     1.0011240   -0.0015529 
   0.006489000     0.3380215   -0.0279066     0.0000014   -0.0000004    -0.0000001    0.0000000     1.0009770   -0.0015077 
   0.006738500     0.3376996   -0.0285875     0.0000001    0.0000005     0.0000000    0.0000003     1.0008310   -0.0014341 
   0.006988000     0.3373910   -0.0293188     0.0000002   -0.0000015     0.0000005    0.0000002     1.0007290   -0.0013686 
   0.007237500     0.3370846   -0.0300893    -0.0000006    0.0000008    -0.0000002    0.0000005     1.0006410   -0.0013040 
   0.007487000     0.3368030   -0.0308901    -0.0000006   -0.0000005    -0.0000006    0.0000003     1.0005080   -0.0012828 
   0.007736500     0.3365896   -0.0316777    -0.0000009   -0.0000013    -0.0000004   -0.0000010     1.0005670   -0.0013283 
   0.007986000     0.3363326   -0.0325355    -0.0000005   -0.0000003    -0.0000010    0.0000002     1.0005840   -0.0013326 
   0.008235500     0.3361371   -0.0334176     0.0000001   -0.0000009    -0.0000008    0.0000016     1.0005770   -0.0013201 
   0.008485000     0.3360149   -0.0342861     0.0000000    0.0000005     0.0000001    0.0000001     1.0005910   -0.0013496 
   0.008734500     0.3358544   -0.0351594     0.0000006    0.0000006     0.0000008    0.0000002     1.0005850   -0.0014034 
   0.008984000     0.3357213   -0.0360284    -0.0000010   -0.0000010    -0.0000002    0.0000002     1.0005200   -0.0014460 
   0.009233500     0.3355356   -0.0366186    -0.0000001   -0.0000003    -0.0000009    0.0000008     1.0005660   -0.0014159 
   0.009483000     0.3354369   -0.0375313    -0.0000008    0.0000005    -0.0000010    0.0000016     1.0005610   -0.0014032 
   0.009732500     0.3353305   -0.0384389     0.0000001    0.0000008     0.0000001   -0.0000009     1.0005590   -0.0014657 
   0.009982000     0.3352153   -0.0393418     0.0000003    0.0000006     0.0000001    0.0000010     1.0005410   -0.0014291 
   0.010231500     0.3350806   -0.0402165     0.0000003    0.0000001    -0.0000006    0.0000002     1.0005020   -0.0013994 
   0.010481000     0.3349923   -0.0410992     0.0000000   -0.0000006     0.0000013   -0.0000002     1.0005310   -0.0014403 
   0.010730500     0.3348767   -0.0420137    -0.0000004   -0.0000004    -0.0000003    0.0000002     1.0005310   -0.0013992 
   0.010980000     0.3348068   -0.0429417    -0.0000002    0.0000010     0.0000007    0.0000011     1.0005010   -0.0014341 
   0.011229500     0.3346744   -0.0438249     0.0000015   -0.0000001     0.0000006    0.0000017     1.0004920   -0.0013756 
   0.011479000     0.3345587   -0.0447089     0.0000005    0.0000010    -0.0000003   -0.0000006     1.0004310   -0.0014570 
   0.011728500     0.3344450   -0.0455990     0.0000012   -0.0000005     0.0000002    0.0000005     1.0004380   -0.0014906 
   0.011978000     0.3343316   -0.0464979     0.0000004   -0.0000002    -0.0000007   -0.0000002     1.0004250   -0.0015028 
   0.012227500     0.3342365   -0.0473852     0.0000002    0.0000009    -0.0000001   -0.0000004     1.0004300   -0.0015268 
   0.012477000     0.3341091   -0.0483460    -0.0000004   -0.0000002     0.0000004   -0.0000002     1.0004610   -0.0015338 
   0.012726500     0.3339600   -0.0492853    -0.0000011    0.0000000    -0.0000003   -0.0000002     1.0004620   -0.0015017 
   0.012976000     0.3338490   -0.0501903     0.0000014   -0.0000006     0.0000000    0.0000004     1.0004530   -0.0015081 
   0.013225500     0.3336944   -0.0509870     0.0000011   -0.0000001     0.0000001   -0.0000005     1.0004140   -0.0014915 
   0.013475000     0.3335339   -0.0518323     0.0000009    0.0000014     0.0000005    0.0000012     1.0004750   -0.0014560 
   0.013724500     0.3333857   -0.0527025    -0.0000002   -0.0000017    -0.0000009   -0.0000009     1.0004120   -0.0015025 
   0.013974000     0.3332480   -0.0536089     0.0000007    0.0000008     0.0000004    0.0000000     1.0003980   -0.0014688 
   0.014223500     0.3330941   -0.0545184    -0.0000006   -0.0000010    -0.0000008    0.0000006     1.0003760   -0.0015742 
   0.014473000     0.3329461   -0.0554397    -0.0000007   -0.0000011    -0.0000001   -0.0000002     1.0003900   -0.0015546 
   0.014722500     0.3327893   -0.0563431     0.0000015   -0.0000001     0.0000003    0.0000005     1.0004400   -0.0014977 
   0.014972000     0.3326444   -0.0572844    -0.0000002    0.0000005    -0.0000002    0.0000002     1.0003740   -0.0016291 
   0.015221500     0.3325036   -0.0581525     0.0000011    0.0000001     0.0000004   -0.0000005     1.0003660   -0.0016662 
   0.015471000     0.3322999   -0.0590137     0.0000000    0.0000002    -0.0000004   -0.0000002     1.0003570   -0.0015972 
   0.015720500     0.3321259   -0.0598515     0.0000011    0.0000003     0.0000007    0.0000006     1.0003580   -0.0017212 
   0.015970000     0.3319815   -0.0607216    -0.0000008    0.0000012     0.0000004    0.0000002     1.0003220   -0.0015014 
   0.016219500     0.3317834   -0.0616124    -0.0000005   -0.0000001     0.0000002    0.0000006     1.0003050   -0.0016383 
   0.016469000     0.3316334   -0.0625159     0.0000007   -0.0000001    -0.0000002   -0.0000001     1.0003410   -0.0016730 
   0.016718500     0.3314812   -0.0633771    -0.0000004    0.0000000     0.0000006    0.0000007     1.0003490   -0.0016270 
   0.016968000     0.3312950   -0.0642906    -0.0000011   -0.0000004    -0.0000008   -0.0000003     1.0003190   -0.0015718 
   0.017217500     0.3311265   -0.0651778     0.0000009    0.0000007     0.0000004    0.0000004     1.0002460   -0.0016170 
   0.017467000     0.3309545   -0.0660694     0.0000007    0.0000002    -0.0000009   -0.0000003     1.0003320   -0.0016283 
   0.017716500     0.3307696   -0.0669986    -0.0000001    0.0000006    -0.0000001   -0.0000002     1.0002010   -0.0016945 
   0.017966000     0.3305824   -0.0678932    -0.0000010   -0.0000004     0.0000005    0.0000013     1.0003170   -0.0016119 
   0.018215500     0.3304205   -0.0687757    -0.0000007    0.0000000    -0.0000003    0.0000006     1.0002390   -0.0016626 
   0.018465000     0.3302187   -0.0696193    -0.0000003    0.0000003    -0.0000004    0.0000000     1.0002390   -0.0017153 
   0.018714500     0.3300311   -0.0704871     0.0000007    0.0000000    -0.0000001   -0.0000001     1.0002540   -0.0016857 
   0.018964000     0.3298333   -0.0713498     0.0000000    0.0000007     0.0000002    0.0000002     1.0002120   -0.0016726 
   0.019213500     0.3296805   -0.0721963    -0.0000004    0.0000004    -0.0000006   -0.0000015     1.0002480   -0.0016856 
   0.019463000     0.3295394   -0.0730588    -0.0000010   -0.0000005     0.0000002   -0.0000010     1.0001750   -0.0017037 
   0.019712500     0.3293613   -0.0739257    -0.0000003    0.0000000     0.0000009    0.0000003     1.0002160   -0.0017854 
   0.019962000     0.3291878   -0.0748421    -0.0000004    0.0000004     0.0000001    0.0000010     1.0001800   -0.0017968 
   0.020211500     0.3290032   -0.0757156     0.0000006   -0.0000004    -0.0000004   -0.0000001     1.0002420   -0.0018139 
   0.020461000     0.3288527   -0.0766250     0.0000003   -0.0000002     0.0000001   -0.0000015     1.0001480   -0.0018076 
   0.020710500     0.3286510   -0.0775276     0.0000003   -0.0000013     0.0000010   -0.0000018     1.0000470   -0.0018378 
   0.020960000     0.3284332   -0.0784021    -0.0000003   -0.0000006     0.0000002   -0.0000009     1.0000800   -0.0018783 
   0.021209500     0.3282354   -0.0793214     0.0000002   -0.0000003    -0.0000005    0.0000001     1.0001550   -0.0018417 
   0.021459000     0.3280213   -0.0802249    -0.0000002    0.0000000    -0.0000008    0.0000000     1.0000850   -0.0018136 
   0.021708500     0.3278286   -0.0811100     0.0000007   -0.0000006     0.0000009   -0.0000003     1.0001690   -0.0018696 
   0.021958000     0.3276020   -0.0820502    -0.0000014    0.0000001     0.0000001   -0.0000001     1.0001120   -0.0018446 
   0.022207500     0.3273868   -0.0829640     0.0000011   -0.0000010    -0.0000020   -0.0000012     1.0001010   -0.0018963 
   0.022457000     0.3271858   -0.0840780     0.0000000   -0.0000013    -0.0000016   -0.0000009     1.0000870   -0.0019564 
   0.022706500     0.3269585   -0.0850087     0.0000002   -0.0000003     0.0000006   -0.0000001     1.0000610   -0.0018847 
   0.022956000     0.3267123   -0.0858973     0.0000001   -0.0000007     0.0000014    0.0000005     1.0000730   -0.0018535 
   0.023205500     0.3264936   -0.0867556     0.0000012    0.0000002     0.0000001    0.0000007     1.0000140   -0.0018743 
   0.023455000     0.3262693   -0.0876020    -0.0000003   -0.0000010     0.0000000    0.0000001     1.0000170   -0.0019567 
   0.023704500     0.3260761   -0.0884431     0.0000000    0.0000002    -0.0000002    0.0000000     1.0000390   -0.0020339 
   0.023954000     0.3258408   -0.0892607    -0.0000001   -0.0000003     0.0000008    0.0000000     0.9999000   -0.0019294 
   0.024203500     0.3255994   -0.0901513    -0.0000009    0.0000005     0.0000007    0.0000003     0.9999639   -0.0019631 
   0.024453000     0.3253762   -0.0909628     0.0000006    0.0000001    -0.0000008    0.0000006     0.9999487   -0.0019760 
   0.024702500     0.3251042   -0.0918089    -0.0000015   -0.0000020    -0.0000001   -0.0000007     1.0000150   -0.0019915 
   0.024952000     0.3248506   -0.0926812     0.0000003   -0.0000003    -0.0000007    0.0000013     0.9999638   -0.0019704 
   0.025201500     0.3247529   -0.0933856     0.0000006    0.0000007     0.0000006    0.0000003     1.0003320   -0.0016566 
   0.025451000     0.3243521   -0.0943600    -0.0000002   -0.0000001    -0.0000001   -0.0000006     0.9999027   -0.0019131 
   0.025700500     0.3240887   -0.0952204     0.0000005    0.0000001    -0.0000020    0.0000002     0.9999527   -0.0019609 
   0.025950000     0.3238629   -0.0960443     0.0000009    0.0000008     0.0000011    0.0000002     0.9999444   -0.0019573 
   0.026199500     0.3236293   -0.0969101    -0.0000003    0.0000016    -0.0000004    0.0000001     0.9998913   -0.0019979 
   0.026449000     0.3233510   -0.0977897    -0.0000005    0.0000002     0.0000011   -0.0000002     0.9999751   -0.0020272 
   0.026698500     0.3231025   -0.0986596     0.0000004    0.0000011     0.0000001    0.0000015     1.0000140   -0.0020714 
   0.026948000     0.3228432   -0.0995042     0.0000006    0.0000003    -0.0000006   -0.0000007     0.9998498   -0.0020245 
   0.027197500     0.3225811   -0.1003611    -0.0000013    0.0000003    -0.0000005    0.0000006     0.9998142   -0.0020387 
   0.027447000     0.3223184   -0.1012300     0.0000010   -0.0000001     0.0000004   -0.0000001     0.9998481   -0.0020430 
   0.027696500     0.3220516   -0.1021040    -0.0000002    0.0000005     0.0000002   -0.0000005     0.9998360   -0.0020516 
   0.027946000     0.3218250   -0.1029939    -0.0000002    0.0000004     0.0000016   -0.0000009     0.9998093   -0.0020925 
   0.028195500     0.3215948   -0.1038964     0.0000004    0.0000011     0.0000012   -0.0000003     0.9998555   -0.0020731 
   0.028445000     0.3213316   -0.1047601     0.0000006    0.0000002     0.0000003    0.0000012     0.9997993   -0.0020734 
   0.028694500     0.3210371   -0.1056704    -0.0000007   -0.0000009     0.0000007    0.0000006     0.9998227   -0.0020623 
   0.028944000     0.3207741   -0.1065726    -0.0000001   -0.0000003    -0.0000003    0.0000003     0.9997783   -0.0021575 
   0.029193500     0.3204911   -0.1074427    -0.0000005    0.0000000     0.0000002   -0.0000004     0.9997466   -0.0021726 
   0.029443000     0.3202461   -0.1083268     0.0000003    0.0000001     0.0000001   -0.0000012     0.9997383   -0.0020792 
   0.029692500     0.3199941   -0.1092255     0.0000003    0.0000001    -0.0000012    0.0000004     0.9996403   -0.0021458 
   0.029942000     0.3197066   -0.1101433     0.0000004    0.0000001     0.0000004    0.0000009     0.9996564   -0.0022009 
   0.030191500     0.3194238   -0.1110151     0.0000003   -0.0000006     0.0000002    0.0000012     0.9997252   -0.0021751 
   0.030441000     0.3191285   -0.1118648    -0.0000005    0.0000003    -0.0000007    0.0000010     0.9996790   -0.0021096 
   0.030690500     0.3188239   -0.1127469    -0.0000007    0.0000003     0.0000005    0.0000000     0.9996765   -0.0021957 
   0.030940000     0.3185475   -0.1135742    -0.0000009    0.0000005     0.0000007    0.0000012     0.9997218   -0.0022105 
   0.031189500     0.3182239   -0.1144642    -0.0000005    0.0000003     0.0000015   -0.0000011     0.9997220   -0.0022358 
   0.031439000     0.3179065   -0.1153441    -0.0000001    0.0000002    -0.0000003   -0.0000006     0.9996594   -0.0022459 
   0.031688500     0.3175997   -0.1161778     0.0000005    0.0000005     0.0000005   -0.0000001     0.9996641   -0.0022202 
   0.031938000     0.3173115   -0.1170178    -0.0000013   -0.0000004    -0.0000009   -0.0000007     0.9995735   -0.0023248 
   0.032187500     0.3169856   -0.1178787     0.0000010    0.0000001     0.0000007   -0.0000009     0.9996426   -0.0022749 
   0.032437000     0.3166917   -0.1186953     0.0000000   -0.0000009    -0.0000008   -0.0000013     0.9996532   -0.0022714 
   0.032686500     0.3162633   -0.1193152     0.0000000   -0.0000005    -0.0000013   -0.0000015     0.9994922   -0.0020664 
   0.032936000     0.3160315   -0.1203544     0.0000006    0.0000006     0.0000000   -0.0000009     0.9995691   -0.0023363 
   0.033185500     0.3156334   -0.1210058    -0.0000003   -0.0000006     0.0000015   -0.0000016     0.9994297   -0.0021185 
   0.033435000     0.3154136   -0.1220359    -0.0000002   -0.0000002    -0.0000006   -0.0000004     0.9995768   -0.0023611 
   0.033684500     0.3150899   -0.1228807     0.0000003   -0.0000006     0.0000014   -0.0000016     0.9996079   -0.0023559 
   0.033934000     0.3147610   -0.1237045    -0.0000007   -0.0000006    -0.0000003   -0.0000008     0.9995790   -0.0023754 
   0.034183500     0.3144512   -0.1245659     0.0000009   -0.0000004    -0.0000007    0.0000004     0.9995540   -0.0023869 
   0.034433000     0.3141600   -0.1253941     0.0000011    0.0000004     0.0000005    0.0000000     0.9995499   -0.0024349 
   0.034682500     0.3138742   -0.1262388    -0.0000003    0.0000003     0.0000019    0.0000006     0.9995506   -0.0024398 
   0.034932000     0.3135754   -0.1270383     0.0000000   -0.0000006    -0.0000004   -0.0000005     0.9995993   -0.0024232 
   0.035181500     0.3132372   -0.1278529    -0.0000018   -0.0000007     0.0000000   -0.0000004     0.9995456   -0.0024604 
   0.035431000     0.3128893   -0.1286986    -0.0000004    0.0000004     0.0000000   -0.0000011     0.9994855   -0.0024054 
   0.035680500     0.3125587   -0.1295175     0.0000006    0.0000000    -0.0000006    0.0000009     0.9995396   -0.0024264 
   0.035930000     0.3122572   -0.1303473    -0.0000001    0.0000002     0.0000001    0.0000002     0.9994957   -0.0024536 
   0.036179500     0.3119512   -0.1311905     0.0000013   -0.0000003     0.0000013   -0.0000014     0.9995441   -0.0024453 
   0.036429000     0.3116025   -0.1320163    -0.0000012    0.0000008     0.0000011    0.0000007     0.9995098   -0.0024471 
   0.036678500     0.3112678   -0.1328255    -0.0000002   -0.0000001     0.0000004   -0.0000003     0.9995531   -0.0024774 
   0.036928000     0.3109319   -0.1336232    -0.0000002    0.0000001     0.0000002   -0.0000002     0.9995527   -0.0025323 
   0.037177500     0.3105760   -0.1344695     0.0000004   -0.0000001     0.0000008   -0.0000009     0.9995382   -0.0025074 
   0.037427000     0.3102099   -0.1352759    -0.0000009    0.0000007     0.0000002   -0.0000003     0.9995579   -0.0025333 
   0.037676500     0.3098525   -0.1360783     0.0000013   -0.0000004     0.0000012    0.0000010     0.9995095   -0.0024601 
   0.037926000     0.3094877   -0.1369147    -0.0000019   -0.0000002     0.0000017    0.0000002     0.9995353   -0.0025159 
   0.038175500     0.3091260   -0.1377338     0.0000004   -0.0000008     0.0000007    0.0000002     0.9995286   -0.0025373 
   0.038425000     0.3087632   -0.1385936    -0.0000017   -0.0000010     0.0000001    0.0000005     0.9995531   -0.0025478 
   0.038674500     0.3084114   -0.1394251    -0.0000003    0.0000006     0.0000008    0.0000005     0.9994959   -0.0025903 
   0.038924000     0.3080326   -0.1403136     0.0000010   -0.0000005    -0.0000001   -0.0000016     0.9994814   -0.0025801 
   0.039173500     0.3076565   -0.1411405    -0.0000002   -0.0000002     0.0000003    0.0000002     0.9995039   -0.0026185 
   0.039423000     0.3072682   -0.1420370     0.0000004   -0.0000007     0.0000001    0.0000010     0.9994993   -0.0026246 
   0.039672500     0.3067300   -0.1425993     0.0000003   -0.0000002    -0.0000006   -0.0000011     0.9992520   -0.0024420 
   0.039922000     0.3065547   -0.1434865     0.0000001    0.0000005     0.0000010    0.0000007     0.9997755   -0.0023702 
