! MS46122B
! 1746301/73750021
! 11/3/2023 2:21:32 PM
! C:\USERS\SPEGWAL\DOWNLOADS\SAURABH\REACH\NODES\FRONT END\MEASUREMENTS\MEASURED S-PARAMETERS_03-11-2023\MS3-MS4_MS1_CABLE\25OHMS_SOURCE_S11.S2P
! CHANNEL.1
! TR.MEASUREMENT
! CORRECTED.DATA
# GHZ S RI R 50.0
! FREQ.GHZ         S11RE         S11IM         S21RE         S21IM         S12RE         S12IM         S22RE         S22IM         
!; PortSelection: Port_12
   0.001000000    -0.3347668    0.0119150     0.0000002   -0.0000012    -0.0000019   -0.0000004     1.0013690   -0.0029179 
   0.001249500    -0.3353333    0.0131034    -0.0000013    0.0000014    -0.0000009    0.0000011     1.0017820   -0.0016078 
   0.001499000    -0.3355882    0.0139569     0.0000006    0.0000000     0.0000008   -0.0000001     1.0017360   -0.0015502 
   0.001748500    -0.3356881    0.0146946    -0.0000009   -0.0000004     0.0000001   -0.0000002     1.0017220   -0.0014130 
   0.001998000    -0.3356745    0.0153992    -0.0000003    0.0000001     0.0000014    0.0000006     1.0015980   -0.0014480 
   0.002247500    -0.3341044    0.0145241     0.0000002    0.0000002    -0.0000014   -0.0000003     1.0018570   -0.0017114 
   0.002497000    -0.3340371    0.0152644     0.0000004   -0.0000003     0.0000000    0.0000004     1.0017830   -0.0016759 
   0.002746500    -0.3339390    0.0159802    -0.0000006   -0.0000004    -0.0000011    0.0000000     1.0017580   -0.0015807 
   0.002996000    -0.3337719    0.0166932    -0.0000005    0.0000010    -0.0000003   -0.0000003     1.0017020   -0.0016412 
   0.003245500    -0.3336052    0.0175040    -0.0000003   -0.0000010     0.0000000   -0.0000002     1.0016580   -0.0015353 
   0.003495000    -0.3334340    0.0182972    -0.0000005   -0.0000009    -0.0000002   -0.0000007     1.0017240   -0.0015525 
   0.003744500    -0.3332944    0.0190325    -0.0000004   -0.0000003     0.0000004    0.0000003     1.0016590   -0.0015561 
   0.003994000    -0.3331294    0.0197896     0.0000006   -0.0000003     0.0000000    0.0000007     1.0015920   -0.0015304 
   0.004243500    -0.3329857    0.0204832     0.0000028    0.0000001    -0.0000003   -0.0000001     1.0016750   -0.0017706 
   0.004493000    -0.3328130    0.0212439    -0.0000008   -0.0000009     0.0000008    0.0000002     1.0016620   -0.0018407 
   0.004742500    -0.3326643    0.0219935    -0.0000004    0.0000001     0.0000004    0.0000000     1.0016500   -0.0018306 
   0.004992000    -0.3324528    0.0228021     0.0000003    0.0000001     0.0000002   -0.0000011     1.0016230   -0.0018250 
   0.005241500    -0.3322622    0.0236102     0.0000003   -0.0000010    -0.0000004    0.0000003     1.0015160   -0.0017171 
   0.005491000    -0.3320696    0.0244098    -0.0000011    0.0000005     0.0000010   -0.0000016     1.0014130   -0.0016793 
   0.005740500    -0.3318747    0.0252319     0.0000001   -0.0000001    -0.0000003   -0.0000005     1.0014180   -0.0016292 
   0.005990000    -0.3316323    0.0260541    -0.0000018    0.0000017     0.0000000   -0.0000008     1.0013090   -0.0015793 
   0.006239500    -0.3314660    0.0268586    -0.0000001    0.0000015     0.0000001   -0.0000003     1.0011710   -0.0014913 
   0.006489000    -0.3312956    0.0276505     0.0000001    0.0000009     0.0000000   -0.0000005     1.0009750   -0.0014696 
   0.006738500    -0.3311029    0.0284145    -0.0000003   -0.0000001    -0.0000017   -0.0000011     1.0007690   -0.0014494 
   0.006988000    -0.3308968    0.0292637    -0.0000005    0.0000001     0.0000004   -0.0000008     1.0006960   -0.0013824 
   0.007237500    -0.3306966    0.0300753     0.0000005    0.0000011    -0.0000004   -0.0000006     1.0006120   -0.0013063 
   0.007487000    -0.3304981    0.0309216    -0.0000011    0.0000003    -0.0000003    0.0000013     1.0004770   -0.0012649 
   0.007736500    -0.3303545    0.0317735    -0.0000011    0.0000000     0.0000013    0.0000003     1.0005390   -0.0013106 
   0.007986000    -0.3302079    0.0326919     0.0000003   -0.0000008     0.0000000   -0.0000002     1.0005690   -0.0013246 
   0.008235500    -0.3300400    0.0335615    -0.0000009    0.0000008    -0.0000004    0.0000006     1.0005680   -0.0013208 
   0.008485000    -0.3298796    0.0344191     0.0000002    0.0000019     0.0000007   -0.0000002     1.0005640   -0.0013365 
   0.008734500    -0.3297447    0.0352990    -0.0000001    0.0000006     0.0000006   -0.0000001     1.0005340   -0.0014267 
   0.008984000    -0.3296243    0.0361973     0.0000004   -0.0000002     0.0000004   -0.0000002     1.0004960   -0.0014090 
   0.009233500    -0.3294174    0.0368976     0.0000002    0.0000007    -0.0000006   -0.0000010     1.0005270   -0.0014014 
   0.009483000    -0.3292896    0.0377743     0.0000013    0.0000000     0.0000014   -0.0000001     1.0005430   -0.0013545 
   0.009732500    -0.3291397    0.0387212     0.0000004   -0.0000001     0.0000011   -0.0000009     1.0005500   -0.0014692 
   0.009982000    -0.3290112    0.0396290    -0.0000002    0.0000013    -0.0000004   -0.0000003     1.0005010   -0.0014491 
   0.010231500    -0.3288641    0.0404888     0.0000010   -0.0000002     0.0000001    0.0000002     1.0004370   -0.0013682 
   0.010481000    -0.3287390    0.0413635    -0.0000010    0.0000008     0.0000002    0.0000002     1.0004880   -0.0014418 
   0.010730500    -0.3285851    0.0422827    -0.0000013    0.0000007     0.0000010   -0.0000011     1.0005150   -0.0014346 
   0.010980000    -0.3284309    0.0431865    -0.0000005   -0.0000002     0.0000005   -0.0000013     1.0005010   -0.0013903 
   0.011229500    -0.3282587    0.0440768    -0.0000004    0.0000000     0.0000010    0.0000006     1.0004330   -0.0014244 
   0.011479000    -0.3281284    0.0449502    -0.0000001    0.0000013     0.0000010   -0.0000003     1.0004230   -0.0014480 
   0.011728500    -0.3279665    0.0458113     0.0000001    0.0000001     0.0000006   -0.0000008     1.0004060   -0.0014902 
   0.011978000    -0.3278408    0.0466872     0.0000001   -0.0000013    -0.0000003    0.0000008     1.0003800   -0.0014621 
   0.012227500    -0.3276824    0.0475729    -0.0000002   -0.0000012    -0.0000001    0.0000010     1.0004160   -0.0014788 
   0.012477000    -0.3275429    0.0484171    -0.0000004    0.0000001    -0.0000005    0.0000011     1.0004480   -0.0014632 
   0.012726500    -0.3274302    0.0492171    -0.0000002   -0.0000003    -0.0000006    0.0000010     1.0004480   -0.0014921 
   0.012976000    -0.3272572    0.0500912     0.0000007    0.0000001     0.0000001    0.0000008     1.0004390   -0.0014790 
   0.013225500    -0.3270897    0.0509202     0.0000000    0.0000004    -0.0000002    0.0000011     1.0004760   -0.0014637 
   0.013475000    -0.3269120    0.0517638     0.0000000    0.0000000     0.0000007    0.0000000     1.0004570   -0.0014911 
   0.013724500    -0.3267333    0.0526066    -0.0000013   -0.0000016    -0.0000005   -0.0000001     1.0003980   -0.0014469 
   0.013974000    -0.3265733    0.0534894     0.0000002    0.0000000     0.0000003   -0.0000006     1.0004350   -0.0014728 
   0.014223500    -0.3264177    0.0543719     0.0000009    0.0000013    -0.0000007   -0.0000011     1.0003340   -0.0014611 
   0.014473000    -0.3262717    0.0552266     0.0000002   -0.0000015    -0.0000004   -0.0000001     1.0003690   -0.0015487 
   0.014722500    -0.3260981    0.0560893    -0.0000024   -0.0000005     0.0000005    0.0000000     1.0004610   -0.0014995 
   0.014972000    -0.3259042    0.0570103     0.0000014   -0.0000001     0.0000002   -0.0000004     1.0003880   -0.0015832 
   0.015221500    -0.3257959    0.0578377     0.0000001    0.0000003    -0.0000002    0.0000001     1.0003490   -0.0015551 
   0.015471000    -0.3256119    0.0587001    -0.0000006   -0.0000013     0.0000009   -0.0000006     1.0003400   -0.0016106 
   0.015720500    -0.3254555    0.0595167     0.0000005   -0.0000003     0.0000001    0.0000004     1.0003170   -0.0016800 
   0.015970000    -0.3252793    0.0604214     0.0000012    0.0000003     0.0000002   -0.0000008     1.0002960   -0.0015478 
   0.016219500    -0.3250954    0.0612748     0.0000008   -0.0000007     0.0000000    0.0000003     1.0002770   -0.0016269 
   0.016469000    -0.3248818    0.0621462    -0.0000003   -0.0000007    -0.0000008   -0.0000007     1.0002950   -0.0016114 
   0.016718500    -0.3246866    0.0630010    -0.0000014    0.0000011    -0.0000005   -0.0000004     1.0003040   -0.0016446 
   0.016968000    -0.3244894    0.0638749     0.0000002    0.0000001    -0.0000001    0.0000003     1.0003130   -0.0015651 
   0.017217500    -0.3242871    0.0647233     0.0000013   -0.0000004     0.0000010    0.0000013     1.0002140   -0.0015914 
   0.017467000    -0.3240926    0.0655960    -0.0000002    0.0000000     0.0000008   -0.0000009     1.0003060   -0.0016851 
   0.017716500    -0.3238952    0.0665031     0.0000016    0.0000010     0.0000005    0.0000009     1.0002470   -0.0017120 
   0.017966000    -0.3237146    0.0673514     0.0000004    0.0000018    -0.0000009    0.0000001     1.0002980   -0.0016489 
   0.018215500    -0.3234853    0.0682649    -0.0000009    0.0000002     0.0000000    0.0000005     1.0001730   -0.0017226 
   0.018465000    -0.3232217    0.0691178     0.0000003   -0.0000008    -0.0000009   -0.0000001     1.0002060   -0.0017055 
   0.018714500    -0.3230128    0.0699366    -0.0000002   -0.0000006     0.0000014    0.0000008     1.0001700   -0.0016864 
   0.018964000    -0.3227687    0.0708187     0.0000005   -0.0000004     0.0000006   -0.0000002     1.0001340   -0.0017113 
   0.019213500    -0.3225575    0.0716309     0.0000012    0.0000012     0.0000001   -0.0000001     1.0002400   -0.0016838 
   0.019463000    -0.3223463    0.0724656     0.0000000    0.0000012    -0.0000012    0.0000002     1.0001730   -0.0017174 
   0.019712500    -0.3221257    0.0732768    -0.0000009    0.0000002     0.0000003   -0.0000002     1.0002150   -0.0017977 
   0.019962000    -0.3219282    0.0740721    -0.0000014   -0.0000002    -0.0000007    0.0000000     1.0001520   -0.0017983 
   0.020211500    -0.3217162    0.0749033    -0.0000014    0.0000009     0.0000011   -0.0000003     1.0001870   -0.0018196 
   0.020461000    -0.3214857    0.0757515     0.0000009    0.0000012     0.0000004   -0.0000001     1.0001140   -0.0018614 
   0.020710500    -0.3212322    0.0766009     0.0000002    0.0000007    -0.0000006    0.0000002     1.0000760   -0.0018402 
   0.020960000    -0.3210073    0.0774860    -0.0000010    0.0000005    -0.0000004   -0.0000004     1.0000930   -0.0018488 
   0.021209500    -0.3207503    0.0783487     0.0000002   -0.0000006    -0.0000003   -0.0000009     1.0001180   -0.0018121 
   0.021459000    -0.3205101    0.0792329    -0.0000003   -0.0000005    -0.0000006   -0.0000002     1.0001200   -0.0018037 
   0.021708500    -0.3202914    0.0800678     0.0000000    0.0000009     0.0000014   -0.0000007     1.0001540   -0.0018702 
   0.021958000    -0.3200235    0.0809434    -0.0000003    0.0000004     0.0000007    0.0000002     1.0000760   -0.0018872 
   0.022207500    -0.3197922    0.0818194     0.0000006    0.0000006    -0.0000002    0.0000009     1.0000490   -0.0019216 
   0.022457000    -0.3195927    0.0828371     0.0000016    0.0000001     0.0000002   -0.0000004     1.0000570   -0.0019226 
   0.022706500    -0.3193792    0.0836739    -0.0000017   -0.0000015    -0.0000004   -0.0000015     0.9999760   -0.0018493 
   0.022956000    -0.3191071    0.0844983     0.0000003   -0.0000006     0.0000001    0.0000013     1.0000500   -0.0018676 
   0.023205500    -0.3188343    0.0853279     0.0000008   -0.0000011     0.0000001    0.0000002     0.9999843   -0.0018737 
   0.023455000    -0.3185938    0.0861512     0.0000001   -0.0000017    -0.0000005   -0.0000001     0.9999926   -0.0019371 
   0.023704500    -0.3183671    0.0869290    -0.0000013    0.0000002    -0.0000009    0.0000006     1.0000420   -0.0019467 
   0.023954000    -0.3181082    0.0877452     0.0000006    0.0000002    -0.0000010   -0.0000005     0.9998959   -0.0019072 
   0.024203500    -0.3178377    0.0885672     0.0000001    0.0000006     0.0000017    0.0000011     0.9999919   -0.0019280 
   0.024453000    -0.3175772    0.0893792     0.0000003    0.0000004    -0.0000006    0.0000006     0.9999568   -0.0019403 
   0.024702500    -0.3173539    0.0902266    -0.0000011    0.0000009    -0.0000002    0.0000009     0.9999675   -0.0019913 
   0.024952000    -0.3170972    0.0910938     0.0000001    0.0000002    -0.0000002    0.0000001     0.9999200   -0.0019416 
   0.025201500    -0.3167744    0.0915119     0.0000002   -0.0000014     0.0000015   -0.0000003     1.0003150   -0.0016506 
   0.025451000    -0.3166219    0.0926883     0.0000012    0.0000010    -0.0000013   -0.0000011     0.9999125   -0.0019174 
   0.025700500    -0.3163427    0.0935214    -0.0000002    0.0000003    -0.0000006   -0.0000008     0.9999627   -0.0019834 
   0.025950000    -0.3160633    0.0943539    -0.0000002    0.0000003    -0.0000002    0.0000006     0.9999412   -0.0019597 
   0.026199500    -0.3157808    0.0951606    -0.0000012    0.0000001    -0.0000002    0.0000009     0.9998494   -0.0020062 
   0.026449000    -0.3154761    0.0960032     0.0000008   -0.0000004    -0.0000016   -0.0000001     0.9999323   -0.0020255 
   0.026698500    -0.3152152    0.0968183     0.0000005   -0.0000014    -0.0000007   -0.0000007     1.0000040   -0.0020086 
   0.026948000    -0.3149536    0.0976306     0.0000011    0.0000005    -0.0000005    0.0000001     0.9998610   -0.0020158 
   0.027197500    -0.3146605    0.0984877    -0.0000001    0.0000009    -0.0000002   -0.0000007     0.9998094   -0.0020054 
   0.027447000    -0.3143250    0.0993020     0.0000005   -0.0000002     0.0000001    0.0000007     0.9997981   -0.0020686 
   0.027696500    -0.3140467    0.1001396    -0.0000007   -0.0000009     0.0000002   -0.0000006     0.9998432   -0.0021134 
   0.027946000    -0.3137541    0.1009564    -0.0000008    0.0000004    -0.0000009    0.0000000     0.9997988   -0.0020807 
   0.028195500    -0.3134196    0.1018242     0.0000006   -0.0000006     0.0000009    0.0000000     0.9998378   -0.0020782 
   0.028445000    -0.3131160    0.1026232    -0.0000014    0.0000019    -0.0000002    0.0000000     0.9998319   -0.0020954 
   0.028694500    -0.3128047    0.1034959     0.0000006    0.0000013     0.0000007   -0.0000004     0.9998267   -0.0020430 
   0.028944000    -0.3125582    0.1044431     0.0000006   -0.0000005    -0.0000005    0.0000005     0.9997233   -0.0021622 
   0.029193500    -0.3122347    0.1052990     0.0000005    0.0000009     0.0000000   -0.0000023     0.9997090   -0.0022006 
   0.029443000    -0.3119420    0.1061336    -0.0000009   -0.0000004    -0.0000002    0.0000006     0.9997376   -0.0020649 
   0.029692500    -0.3116293    0.1069696     0.0000014   -0.0000001     0.0000000    0.0000003     0.9996994   -0.0021215 
   0.029942000    -0.3113202    0.1078313     0.0000015    0.0000008     0.0000012    0.0000001     0.9996483   -0.0021916 
   0.030191500    -0.3110142    0.1086329    -0.0000004   -0.0000007     0.0000003    0.0000007     0.9997069   -0.0021585 
   0.030441000    -0.3106948    0.1094797     0.0000012    0.0000004    -0.0000004   -0.0000005     0.9996712   -0.0020994 
   0.030690500    -0.3103752    0.1102571    -0.0000009    0.0000000    -0.0000009   -0.0000001     0.9996774   -0.0022303 
   0.030940000    -0.3100668    0.1110570    -0.0000012    0.0000001     0.0000000    0.0000004     0.9996990   -0.0022373 
   0.031189500    -0.3097358    0.1118622    -0.0000002   -0.0000018     0.0000003    0.0000007     0.9996935   -0.0022630 
   0.031439000    -0.3094218    0.1126396     0.0000002   -0.0000007     0.0000000    0.0000004     0.9996650   -0.0022333 
   0.031688500    -0.3091147    0.1134039     0.0000010    0.0000007     0.0000001   -0.0000001     0.9996734   -0.0022155 
   0.031938000    -0.3088254    0.1141647    -0.0000016    0.0000013     0.0000007    0.0000002     0.9995682   -0.0022703 
   0.032187500    -0.3085362    0.1149144    -0.0000007   -0.0000010     0.0000016    0.0000010     0.9996066   -0.0022797 
   0.032437000    -0.3082005    0.1156899     0.0000010   -0.0000010     0.0000006    0.0000000     0.9995992   -0.0022307 
   0.032686500    -0.3076275    0.1162011    -0.0000007    0.0000003    -0.0000004   -0.0000009     0.9994874   -0.0020551 
   0.032936000    -0.3075321    0.1172581    -0.0000013    0.0000000    -0.0000003    0.0000010     0.9995717   -0.0023338 
   0.033185500    -0.3069465    0.1177909    -0.0000004   -0.0000017    -0.0000001    0.0000007     0.9994150   -0.0021288 
   0.033435000    -0.3068102    0.1188872    -0.0000001   -0.0000014     0.0000009   -0.0000002     0.9995519   -0.0023754 
   0.033684500    -0.3064639    0.1197159     0.0000004    0.0000007     0.0000006   -0.0000005     0.9995200   -0.0022993 
   0.033934000    -0.3061321    0.1205035    -0.0000002   -0.0000003     0.0000003    0.0000002     0.9995965   -0.0023499 
   0.034183500    -0.3057943    0.1213054     0.0000002    0.0000009     0.0000008   -0.0000004     0.9995050   -0.0024035 
   0.034433000    -0.3054161    0.1220727     0.0000006    0.0000001     0.0000009    0.0000004     0.9995261   -0.0024366 
   0.034682500    -0.3050606    0.1228788     0.0000000    0.0000000     0.0000003    0.0000004     0.9994969   -0.0024241 
   0.034932000    -0.3047009    0.1236563    -0.0000004    0.0000009     0.0000002   -0.0000006     0.9995971   -0.0023892 
   0.035181500    -0.3043318    0.1245011    -0.0000014    0.0000000     0.0000008    0.0000008     0.9995488   -0.0024425 
   0.035431000    -0.3039526    0.1253242    -0.0000013   -0.0000001     0.0000003    0.0000000     0.9994908   -0.0024043 
   0.035680500    -0.3035816    0.1261198     0.0000005   -0.0000005     0.0000001   -0.0000003     0.9995198   -0.0024189 
   0.035930000    -0.3032383    0.1269086     0.0000013   -0.0000001    -0.0000003    0.0000002     0.9995095   -0.0024400 
   0.036179500    -0.3028645    0.1277231    -0.0000008    0.0000004     0.0000003    0.0000004     0.9995267   -0.0024395 
   0.036429000    -0.3025415    0.1284649     0.0000000    0.0000008    -0.0000009   -0.0000001     0.9995134   -0.0024651 
   0.036678500    -0.3022011    0.1292393     0.0000000   -0.0000003     0.0000001   -0.0000011     0.9995224   -0.0024490 
   0.036928000    -0.3018237    0.1300202     0.0000003   -0.0000002    -0.0000011   -0.0000006     0.9995592   -0.0024968 
   0.037177500    -0.3014638    0.1307915    -0.0000005    0.0000003     0.0000004    0.0000001     0.9995468   -0.0024841 
   0.037427000    -0.3010817    0.1315778    -0.0000013    0.0000001    -0.0000009   -0.0000001     0.9995413   -0.0025267 
   0.037676500    -0.3006776    0.1323548    -0.0000002   -0.0000009     0.0000004   -0.0000001     0.9994838   -0.0024590 
   0.037926000    -0.3003029    0.1331561    -0.0000017    0.0000010     0.0000006    0.0000015     0.9994743   -0.0025005 
   0.038175500    -0.2999026    0.1339546     0.0000003   -0.0000003     0.0000006   -0.0000007     0.9995174   -0.0025515 
   0.038425000    -0.2995118    0.1347204    -0.0000005   -0.0000002    -0.0000008    0.0000002     0.9995283   -0.0024738 
   0.038674500    -0.2991267    0.1355153    -0.0000004   -0.0000010    -0.0000003    0.0000005     0.9994989   -0.0025653 
   0.038924000    -0.2987323    0.1362726     0.0000003   -0.0000014     0.0000008   -0.0000005     0.9994439   -0.0025807 
   0.039173500    -0.2983600    0.1370987     0.0000007   -0.0000006    -0.0000006   -0.0000004     0.9995050   -0.0026145 
   0.039423000    -0.2979525    0.1378363    -0.0000003    0.0000000     0.0000006   -0.0000014     0.9995072   -0.0026071 
   0.039672500    -0.2974660    0.1384630     0.0000007    0.0000001     0.0000002   -0.0000008     0.9992728   -0.0024090 
   0.039922000    -0.2971559    0.1393394    -0.0000003   -0.0000004     0.0000000   -0.0000001     0.9998218   -0.0023872 
