! AWR Design Environment (17415) Wed Apr 10 23:13:20 2024
! Document = 'Schematic 1'
! nPorts: 2, nXvals: 101

# GHz S DB R 50
!Freq DBS11 AngS11 DBS21 AngS21 DBS12 AngS12 DBS22 AngS22 
1 -2.7807891 -158.06173 -8.061757 -67.910354 -8.061757 -67.910354 -5.3199907 121.40487 
1.01 -2.6128136 -159.93498 -7.778121 -72.699171 -7.778121 -72.699171 -5.7814296 116.85261 
1.02 -2.4851487 -161.92502 -7.4771584 -77.663387 -7.4771584 -77.663387 -6.2996781 111.72933 
1.03 -2.4007015 -164.03234 -7.1614446 -82.85452 -7.1614446 -82.85452 -6.8917877 105.86414 
1.04 -2.3646713 -166.25221 -6.8353233 -88.324244 -6.8353233 -88.324244 -7.5782024 99.021673 
1.05 -2.3846619 -168.56913 -6.5052854 -94.122771 -6.5052854 -94.122771 -8.3815768 90.864242 
1.06 -2.4706756 -170.9489 -6.1803644 -100.29549 -6.1803644 -100.29549 -9.3214003 80.88949 
1.07 -2.6347277 -173.32752 -5.8724283 -106.87746 -5.8724283 -106.87746 -10.396786 68.340209 
1.08 -2.8896388 -175.59674 -5.5961621 -113.88546 -5.5961621 -113.88546 -11.539789 52.145196 
1.09 -3.2463437 -177.58784 -5.3684681 -121.30859 -5.3684681 -121.30859 -12.520706 31.224611 
1.1 -3.7088933 -179.05885 -5.2070263 -129.09908 -5.2070263 -129.09908 -12.896144 5.9176739 
1.11 -4.2664997 -179.69699 -5.1279594 -137.16744 -5.1279594 -137.16744 -12.327357 -20.369971 
1.12 -4.8831881 -179.15771 -5.142973 -145.38563 -5.142973 -145.38563 -11.034745 -43.528737 
1.13 -5.4891177 -177.16778 -5.2567999 -153.6006 -5.2567999 -153.6006 -9.5072511 -62.297002 
1.14 -5.9839143 -173.69767 -5.4659086 -161.65567 -5.4659086 -161.65567 -8.0544411 -77.431007 
1.15 -6.2647432 -169.12054 -5.7589656 -169.41341 -5.7589656 -169.41341 -6.7846421 -89.950887 
1.16 -6.2735149 -164.17436 -6.1187237 -176.77314 -6.1187237 -176.77314 -5.7092989 -100.60829 
1.17 -6.0250636 -159.65798 -6.5244283 176.31992 -6.5244283 176.31992 -4.8063806 -109.90684 
1.18 -5.5872804 -156.10599 -6.9538773 169.87147 -6.9538773 169.87147 -4.0472694 -118.19568 
1.19 -5.0373858 -153.70851 -7.3848175 163.8356 -7.3848175 163.8356 -3.4071442 -125.73087 
1.2 -4.4330864 -152.43658 -7.7960297 158.10669 -7.7960297 158.10669 -2.8685286 -132.70302 
1.21 -3.8066059 -152.19974 -8.1689985 152.50133 -8.1689985 152.50133 -2.4216376 -139.24322 
1.22 -3.1701985 -152.95625 -8.4914053 146.7261 -8.4914053 146.7261 -2.0626182 -145.41565 
1.23 -2.5241382 -154.79252 -8.7642442 140.3218 -8.7642442 140.3218 -1.7894774 -151.20183 
1.24 -1.8666705 -158.02597 -9.0174519 132.55101 -9.0174519 132.55101 -1.5937344 -156.47856 
1.25 -1.2186051 -163.41409 -9.3544536 122.13824 -9.3544536 122.13824 -1.440365 -161.00547 
1.26 -0.71946167 -172.54067 -10.115605 106.71677 -10.115605 106.71677 -1.2167968 -164.59055 
1.27 -0.98925117 172.45304 -12.537217 82.552244 -12.537217 82.552244 -0.70283756 -168.2882 
1.28 -3.6205684 155.99523 -21.716694 49.727942 -21.716694 49.727942 -0.086522267 -175.50113 
1.29 -8.5713411 162.18533 -22.674622 -159.96352 -22.674622 -159.96352 -0.076499357 175.47144 
1.3 -9.7334442 -166.428 -15.663861 -179.84481 -15.663861 -179.84481 -0.44196633 168.54658 
1.31 -7.8382518 -151.60213 -13.45428 167.07909 -13.45428 167.07909 -0.8420906 163.38003 
1.32 -6.31475 -147.74203 -12.416978 157.69802 -12.416978 157.69802 -1.2066536 159.11606 
1.33 -5.2850428 -147.18162 -11.820126 150.36542 -11.820126 150.36542 -1.5374984 155.32993 
1.34 -4.558189 -147.71519 -11.420841 144.24717 -11.420841 144.24717 -1.8438254 151.81772 
1.35 -4.0163681 -148.66533 -11.117273 138.89256 -11.117273 138.89256 -2.1329435 148.46287 
1.36 -3.5941685 -149.79385 -10.859556 134.03706 -10.859556 134.03706 -2.4102952 145.18443 
1.37 -3.2540115 -151.00981 -10.620355 129.51197 -10.620355 129.51197 -2.6803167 141.91685 
1.38 -2.9732952 -152.2785 -10.383347 125.20064 -10.383347 125.20064 -2.947055 138.60093 
1.39 -2.7379429 -153.58906 -10.138137 121.01588 -10.138137 121.01588 -3.214559 135.17873 
1.4 -2.5390668 -154.94164 -9.8778 116.88736 -9.8778 116.88736 -3.4871558 131.5898 
1.41 -2.3711874 -156.34199 -9.5976317 112.75405 -9.5976317 112.75405 -3.7696867 127.76769 
1.42 -2.2312786 -157.79876 -9.2945094 108.55943 -9.2945094 108.55943 -4.0677464 123.63605 
1.43 -2.1182854 -159.32211 -8.9666083 104.24809 -8.9666083 104.24809 -4.387943 119.10372 
1.44 -2.0329424 -160.92237 -8.6133597 99.763291 -8.6133597 99.763291 -4.73817 114.0585 
1.45 -1.9778012 -162.60855 -8.2356071 95.045186 -8.2356071 95.045186 -5.1278291 108.35844 
1.46 -1.9574142 -164.38575 -7.8359557 90.029838 -7.8359557 90.029838 -5.5678332 101.81986 
1.47 -1.9786127 -166.25097 -7.4193201 84.649331 -7.4193201 84.649331 -6.0699577 94.200618 
1.48 -2.0507654 -168.18606 -6.9936639 78.833727 -6.9936639 78.833727 -6.6445345 85.177813 
1.49 -2.1857646 -170.1466 -6.570863 72.515987 -6.570863 72.515987 -7.2943017 74.322772 
1.5 -2.3972261 -172.04562 -6.1674913 65.641233 -6.1674913 65.641233 -8.0003194 61.091529 
1.51 -2.6979814 -173.73283 -5.8051071 58.181331 -5.8051071 58.181331 -8.69532 44.895716 
1.52 -3.0945281 -174.97574 -5.5093665 50.153994 -5.5093665 50.153994 -9.2318972 25.40556 
1.53 -3.5773109 -175.45996 -5.3072461 41.641678 -5.3072461 41.641678 -9.3975551 3.1852238 
1.54 -4.108015 -174.84189 -5.222196 32.800842 -5.222196 32.800842 -9.0500644 -19.90497 
1.55 -4.6113492 -172.88821 -5.2683204 23.851064 -5.2683204 23.851064 -8.2658077 -41.588814 
1.56 -4.9866334 -169.67829 -5.4459644 15.041035 -5.4459644 15.041035 -7.2709098 -60.557728 
1.57 -5.1485375 -165.71311 -5.7409378 6.6023829 -5.7409378 6.6023829 -6.2631353 -76.652902 
1.58 -5.0728619 -161.74324 -6.1275932 -1.2895434 -6.1275932 -1.2895434 -5.3438795 -90.259684 
1.59 -4.8022924 -158.4081 -6.5737591 -8.5351539 -6.5737591 -8.5351539 -4.5426123 -101.87185 
1.6 -4.4093626 -156.01952 -7.0450698 -15.112271 -7.0450698 -15.112271 -3.8547142 -111.9426 
1.61 -3.958221 -154.60817 -7.5075462 -21.071814 -7.5075462 -21.071814 -3.2661708 -120.85653 
1.62 -3.4898421 -154.07698 -7.9289746 -26.539312 -7.9289746 -26.539312 -2.7660257 -128.927 
1.63 -3.0244364 -154.32226 -8.2805826 -31.727388 -8.2805826 -31.727388 -2.3513417 -136.3899 
1.64 -2.5688942 -155.29969 -8.5403352 -36.957208 -8.5403352 -36.957208 -2.0276848 -143.38902 
1.65 -2.1237141 -157.06685 -8.6980076 -42.688531 -8.6980076 -42.688531 -1.8065572 -149.95377 
1.66 -1.6901722 -159.84492 -8.7620143 -49.582956 -8.7620143 -49.582956 -1.7000427 -155.96356 
1.67 -1.2864935 -164.159 -8.7753566 -58.6881 -8.7753566 -58.6881 -1.7085632 -161.07128 
1.68 -1.0101274 -171.13864 -8.8844159 -71.932339 -8.8844159 -71.932339 -1.7738615 -164.55751 
1.69 -1.3002428 177.33969 -9.6569399 -92.965684 -9.6569399 -92.965684 -1.6010584 -165.74828 
1.7 -3.6177271 163.58531 -13.197572 -125.00389 -13.197572 -125.00389 -0.72117222 -168.30473 
1.71 -8.2287348 173.77903 -26.76896 -158.85939 -26.76896 -158.85939 -0.033012988 -177.04196 
1.72 -7.9967766 -156.75255 -22.243532 -2.3273518 -22.243532 -2.3273518 -0.10568244 174.2149 
1.73 -6.0054569 -148.21082 -16.871953 -17.079611 -16.871953 -17.079611 -0.41770989 167.72661 
1.74 -4.7409185 -147.2071 -14.895093 -27.146002 -14.895093 -27.146002 -0.74657257 162.63929 
1.75 -3.9491346 -147.92096 -13.875843 -34.711215 -13.875843 -34.711215 -1.0523302 158.31264 
1.76 -3.4121879 -149.04688 -13.246717 -40.839035 -13.246717 -40.839035 -1.3334352 154.42037 
1.77 -3.0219269 -150.25424 -12.802514 -46.081442 -12.802514 -46.081442 -1.5943189 150.78315 
1.78 -2.7229839 -151.45479 -12.451109 -50.751478 -12.451109 -50.751478 -1.8396053 147.28729 
1.79 -2.4849614 -152.62986 -12.144927 -55.04286 -12.144927 -55.04286 -2.0733557 143.85007 
1.8 -2.2901164 -153.78254 -11.856791 -59.085768 -11.856791 -59.085768 -2.2991803 140.40366 
1.81 -2.12763 -154.92283 -11.569922 -62.974892 -11.569922 -62.974892 -2.520449 136.88669 
1.82 -1.9907703 -156.06284 -11.273307 -66.78467 -11.273307 -66.78467 -2.7404809 133.2388 
1.83 -1.8754227 -157.21519 -10.959374 -70.578245 -10.959374 -70.578245 -2.9627124 129.39648 
1.84 -1.7793177 -158.39257 -10.622772 -74.41321 -10.622772 -74.41321 -3.1908592 125.28905 
1.85 -1.7016488 -159.60761 -10.25974 -78.345653 -10.25974 -78.345653 -3.4290811 120.83438 
1.86 -1.6429366 -160.87258 -9.8678398 -82.433283 -9.8678398 -82.433283 -3.6821492 115.93373 
1.87 -1.6050709 -162.19885 -9.4459574 -86.738015 -9.4459574 -86.738015 -3.9555897 110.46524 
1.88 -1.5915 -163.59548 -8.9945464 -91.32811 -8.9945464 -91.32811 -4.2557316 104.2756 
1.89 -1.6075406 -165.06652 -8.5161418 -96.27966 -8.5161418 -96.27966 -4.5894798 97.169615 
1.9 -1.660752 -166.60599 -8.0161845 -101.67682 -8.0161845 -101.67682 -4.9634127 88.897686 
1.91 -1.7612142 -168.18907 -7.5041868 -107.60956 -7.5041868 -107.60956 -5.3813793 79.143904 
1.92 -1.9213115 -169.75788 -6.9951756 -114.16679 -6.9951756 -114.16679 -5.8390961 67.523038 
1.93 -2.1541719 -171.20091 -6.5111036 -121.42222 -6.5111036 -121.42222 -6.3137781 53.610014 
1.94 -2.4692735 -172.32963 -6.0814562 -129.41046 -6.0814562 -129.41046 -6.7489258 37.05286 
1.95 -2.8634648 -172.8681 -5.7417147 -138.09464 -5.7417147 -138.09464 -7.0448196 17.833759 
1.96 -3.3076042 -172.49132 -5.5282415 -147.33576 -5.5282415 -147.33576 -7.0836235 -3.3752388 
1.97 -3.7361105 -170.95752 -5.4695287 -156.88346 -5.4695287 -156.88346 -6.8046045 -25.137854 
1.98 -4.0566499 -168.31726 -5.576768 -166.40777 -5.576768 -166.40777 -6.2623044 -45.821345 
1.99 -4.1910105 -165.02871 -5.8388583 -175.56809 -5.8388583 -175.56809 -5.5853449 -64.342559 
2 -4.1203687 -161.77895 -6.2248651 175.91259 -6.2248651 175.91259 -4.8894206 -80.36871 
