! MS46122B
! 1746301/73750021
! 8/7/2023 2:59:58 PM
! C:\USERS\SPEGWAL\DOWNLOADS\SAURABH\REACH\NODES\FRONT END\MEASUREMENTS\MEASURED S-PARAMETER_07-08-2023\MS-3\P2_J1\J1_ON.S2P
! CHANNEL.1
! TR.MEASUREMENT
! CORRECTED.DATA
# GHZ S RI R 50.0
! FREQ.GHZ         S11RE         S11IM         S21RE         S21IM         S12RE         S12IM         S22RE         S22IM         
!; PortSelection: Port_12
   0.001000000    -0.0018130    0.0024358     0.9998138   -0.0036572     0.9986926   -0.0046139    -0.0005376    0.0031563 
   0.001249500    -0.0019189    0.0027456     0.9999647   -0.0031814     0.9995654   -0.0047260    -0.0008199    0.0029829 
   0.001499000    -0.0020856    0.0029908     0.9998106   -0.0032476     0.9995316   -0.0050400    -0.0010021    0.0030930 
   0.001748500    -0.0020499    0.0032126     0.9997358   -0.0034199     0.9994414   -0.0054443    -0.0010076    0.0031725 
   0.001998000    -0.0018626    0.0033872     0.9996642   -0.0036328     0.9992900   -0.0058391    -0.0009436    0.0032206 
   0.002247500    -0.0014832    0.0030389     0.9995452   -0.0039371     0.9992267   -0.0063392    -0.0005891    0.0028552 
   0.002497000    -0.0012334    0.0030790     0.9994129   -0.0039870     0.9991303   -0.0065767    -0.0004420    0.0028215 
   0.002746500    -0.0009749    0.0030801     0.9993454   -0.0041264     0.9990651   -0.0068089    -0.0002404    0.0027866 
   0.002996000    -0.0007187    0.0030483     0.9992206   -0.0041721     0.9989752   -0.0070229    -0.0000812    0.0027332 
   0.003245500    -0.0004597    0.0029352     0.9991211   -0.0042377     0.9988538   -0.0072709     0.0000839    0.0026540 
   0.003495000    -0.0002370    0.0028522     0.9989492   -0.0043396     0.9988885   -0.0075335     0.0002384    0.0025950 
   0.003744500    -0.0000117    0.0027137     0.9988102   -0.0043622     0.9987664   -0.0077031     0.0003869    0.0024603 
   0.003994000     0.0001691    0.0025574     0.9988012   -0.0045452     0.9986611   -0.0079513     0.0005268    0.0023187 
   0.004243500     0.0003498    0.0023818     0.9986073   -0.0047827     0.9984670   -0.0081972     0.0009008    0.0019217 
   0.004493000     0.0004962    0.0022190     0.9985355   -0.0049224     0.9983834   -0.0082781     0.0009980    0.0018335 
   0.004742500     0.0006219    0.0020579     0.9984848   -0.0051563     0.9983940   -0.0083763     0.0010732    0.0017367 
   0.004992000     0.0007303    0.0018903     0.9985093   -0.0053109     0.9982288   -0.0085374     0.0011365    0.0016478 
   0.005241500     0.0008212    0.0017354     0.9985776   -0.0054926     0.9981428   -0.0085867     0.0011815    0.0015555 
   0.005491000     0.0008743    0.0015992     0.9985376   -0.0057681     0.9980885   -0.0086838     0.0012079    0.0014651 
   0.005740500     0.0009190    0.0014887     0.9985706   -0.0058387     0.9979620   -0.0089322     0.0012274    0.0013890 
   0.005990000     0.0009456    0.0013737     0.9985220   -0.0060992     0.9978847   -0.0090679     0.0012532    0.0013145 
   0.006239500     0.0009867    0.0012698     0.9984070   -0.0063276     0.9978495   -0.0093267     0.0012777    0.0012404 
   0.006489000     0.0009988    0.0011785     0.9984232   -0.0065686     0.9978130   -0.0096009     0.0012868    0.0011897 
   0.006738500     0.0010132    0.0011118     0.9985136   -0.0068965     0.9977406   -0.0097475     0.0013039    0.0011338 
   0.006988000     0.0010131    0.0010423     0.9984580   -0.0070609     0.9977044   -0.0099267     0.0012769    0.0011012 
   0.007237500     0.0009988    0.0009641     0.9984068   -0.0071781     0.9977114   -0.0101054     0.0012642    0.0010506 
   0.007487000     0.0010061    0.0009137     0.9984265   -0.0074851     0.9976636   -0.0103429     0.0012670    0.0010031 
   0.007736500     0.0009898    0.0008565     0.9983665   -0.0077327     0.9976714   -0.0105147     0.0012665    0.0009577 
   0.007986000     0.0009804    0.0008126     0.9984069   -0.0080342     0.9977336   -0.0108022     0.0012587    0.0009250 
   0.008235500     0.0009675    0.0007720     0.9983075   -0.0082480     0.9977114   -0.0109772     0.0012453    0.0008957 
   0.008485000     0.0009678    0.0007221     0.9983546   -0.0085976     0.9976662   -0.0112460     0.0012380    0.0008662 
   0.008734500     0.0009469    0.0006942     0.9983522   -0.0087417     0.9976791   -0.0114298     0.0012232    0.0008327 
   0.008984000     0.0009295    0.0006514     0.9983390   -0.0090029     0.9976583   -0.0116056     0.0012073    0.0007943 
   0.009233500     0.0009126    0.0006182     0.9984925   -0.0092677     0.9976956   -0.0118082     0.0012075    0.0007664 
   0.009483000     0.0009007    0.0005774     0.9983459   -0.0095479     0.9975442   -0.0120608     0.0012079    0.0007415 
   0.009732500     0.0008873    0.0005468     0.9983940   -0.0097000     0.9976247   -0.0123352     0.0012005    0.0007183 
   0.009982000     0.0008768    0.0005156     0.9982771   -0.0099276     0.9976517   -0.0125669     0.0011817    0.0006966 
   0.010231500     0.0008652    0.0004937     0.9984138   -0.0103108     0.9974592   -0.0128592     0.0011653    0.0006786 
   0.010481000     0.0008315    0.0004634     0.9982596   -0.0104807     0.9975460   -0.0130396     0.0011600    0.0006438 
   0.010730500     0.0008314    0.0004515     0.9983386   -0.0107379     0.9975423   -0.0133395     0.0011391    0.0006401 
   0.010980000     0.0008126    0.0004493     0.9983910   -0.0108889     0.9974908   -0.0134289     0.0011313    0.0006195 
   0.011229500     0.0007910    0.0004094     0.9982541   -0.0110613     0.9975852   -0.0137259     0.0011268    0.0005902 
   0.011479000     0.0007727    0.0003891     0.9982589   -0.0113524     0.9974549   -0.0138906     0.0010951    0.0005667 
   0.011728500     0.0007450    0.0003569     0.9983702   -0.0116287     0.9975559   -0.0140707     0.0010846    0.0005370 
   0.011978000     0.0007271    0.0003439     0.9985173   -0.0118683     0.9974892   -0.0143426     0.0010625    0.0005266 
   0.012227500     0.0006926    0.0003272     0.9983065   -0.0119964     0.9974950   -0.0145230     0.0010556    0.0005160 
   0.012477000     0.0006803    0.0003185     0.9982697   -0.0121978     0.9973924   -0.0147305     0.0010423    0.0004930 
   0.012726500     0.0006739    0.0003007     0.9983266   -0.0123833     0.9973758   -0.0151593     0.0010373    0.0004768 
   0.012976000     0.0006656    0.0002957     0.9981740   -0.0126393     0.9975399   -0.0153580     0.0010285    0.0004588 
   0.013225500     0.0006287    0.0002680     0.9982769   -0.0128481     0.9973491   -0.0154838     0.0010303    0.0004233 
   0.013475000     0.0006061    0.0002553     0.9981875   -0.0131435     0.9973205   -0.0156369     0.0010090    0.0004048 
   0.013724500     0.0005851    0.0002454     0.9983388   -0.0134335     0.9973894   -0.0158213     0.0009811    0.0003947 
   0.013974000     0.0005530    0.0002415     0.9983724   -0.0136775     0.9975033   -0.0161265     0.0009732    0.0003750 
   0.014223500     0.0005479    0.0002260     0.9983699   -0.0139615     0.9972804   -0.0162938     0.0009573    0.0003615 
   0.014473000     0.0005204    0.0002090     0.9982986   -0.0141828     0.9972165   -0.0165174     0.0009551    0.0003505 
   0.014722500     0.0005026    0.0002028     0.9981862   -0.0142329     0.9973450   -0.0167245     0.0009302    0.0003361 
   0.014972000     0.0004854    0.0001883     0.9980702   -0.0146090     0.9972799   -0.0171631     0.0009193    0.0003107 
   0.015221500     0.0004635    0.0001846     0.9982751   -0.0147122     0.9972298   -0.0173075     0.0008943    0.0002904 
   0.015471000     0.0004269    0.0001692     0.9982692   -0.0149601     0.9972679   -0.0174216     0.0008959    0.0002856 
   0.015720500     0.0004061    0.0001658     0.9981776   -0.0151759     0.9972559   -0.0177615     0.0008873    0.0002610 
   0.015970000     0.0003869    0.0001620     0.9982376   -0.0152931     0.9972535   -0.0178386     0.0008867    0.0002321 
   0.016219500     0.0003624    0.0001605     0.9982350   -0.0155842     0.9971602   -0.0180365     0.0008726    0.0002254 
   0.016469000     0.0003371    0.0001381     0.9982275   -0.0158408     0.9971877   -0.0182751     0.0008519    0.0001924 
   0.016718500     0.0003250    0.0001489     0.9982085   -0.0162367     0.9971064   -0.0185116     0.0008421    0.0001911 
   0.016968000     0.0002852    0.0001370     0.9981501   -0.0164953     0.9972107   -0.0186254     0.0008226    0.0001566 
   0.017217500     0.0002510    0.0001342     0.9982389   -0.0165987     0.9971403   -0.0188278     0.0008124    0.0001510 
   0.017467000     0.0002286    0.0001349     0.9982060   -0.0169449     0.9971566   -0.0192041     0.0008071    0.0001288 
   0.017716500     0.0002085    0.0001269     0.9981536   -0.0170841     0.9970967   -0.0194106     0.0007911    0.0001099 
   0.017966000     0.0001748    0.0001381     0.9982756   -0.0171796     0.9971996   -0.0195256     0.0007664    0.0000935 
   0.018215500     0.0001463    0.0001288     0.9980941   -0.0172933     0.9971666   -0.0198153     0.0007478    0.0000857 
   0.018465000     0.0001409    0.0001166     0.9980837   -0.0176124     0.9970062   -0.0201902     0.0007469    0.0000580 
   0.018714500     0.0001077    0.0001341     0.9980451   -0.0177796     0.9969806   -0.0203453     0.0007322    0.0000308 
   0.018964000     0.0000891    0.0001228     0.9980316   -0.0180756     0.9969204   -0.0205275     0.0007369    0.0000157 
   0.019213500     0.0000450    0.0001338     0.9982078   -0.0183032     0.9970719   -0.0207884     0.0007306    0.0000162 
   0.019463000     0.0000403    0.0001258     0.9980994   -0.0186319     0.9969923   -0.0209718     0.0007228   -0.0000026 
   0.019712500     0.0000212    0.0001381     0.9980685   -0.0187111     0.9969772   -0.0211866     0.0007068   -0.0000312 
   0.019962000     0.0000003    0.0001407     0.9981474   -0.0191607     0.9970051   -0.0215143     0.0007086   -0.0000420 
   0.020211500    -0.0000240    0.0001361     0.9981100   -0.0193716     0.9970208   -0.0216298     0.0006813   -0.0000605 
   0.020461000    -0.0000493    0.0001466     0.9979916   -0.0195316     0.9969888   -0.0218534     0.0006772   -0.0000679 
   0.020710500    -0.0000677    0.0001638     0.9981633   -0.0198766     0.9969155   -0.0219926     0.0006535   -0.0000898 
   0.020960000    -0.0000896    0.0001621     0.9981783   -0.0200394     0.9969519   -0.0222437     0.0006570   -0.0000995 
   0.021209500    -0.0001205    0.0001654     0.9981810   -0.0202232     0.9968732   -0.0225042     0.0006521   -0.0001210 
   0.021459000    -0.0001301    0.0001747     0.9981235   -0.0204246     0.9969556   -0.0227932     0.0006378   -0.0001359 
   0.021708500    -0.0001692    0.0001764     0.9981695   -0.0206052     0.9967983   -0.0229641     0.0006244   -0.0001499 
   0.021958000    -0.0001960    0.0001786     0.9980708   -0.0208448     0.9968958   -0.0230767     0.0006128   -0.0001834 
   0.022207500    -0.0002209    0.0001987     0.9981502   -0.0209880     0.9968314   -0.0233360     0.0006076   -0.0001933 
   0.022457000    -0.0002341    0.0002004     0.9980298   -0.0212786     0.9970571   -0.0238003     0.0006072   -0.0001813 
   0.022706500    -0.0002434    0.0001988     0.9980500   -0.0214226     0.9971147   -0.0240508     0.0005987   -0.0001950 
   0.022956000    -0.0002751    0.0002156     0.9980683   -0.0214905     0.9971292   -0.0242414     0.0005970   -0.0002081 
   0.023205500    -0.0002815    0.0002091     0.9979769   -0.0217884     0.9971983   -0.0245394     0.0005772   -0.0002323 
   0.023455000    -0.0003050    0.0002340     0.9979792   -0.0220438     0.9970542   -0.0247126     0.0005740   -0.0002522 
   0.023704500    -0.0003261    0.0002355     0.9979767   -0.0222614     0.9969810   -0.0249533     0.0005866   -0.0002589 
   0.023954000    -0.0003371    0.0002654     0.9979689   -0.0223708     0.9970588   -0.0251090     0.0005766   -0.0002719 
   0.024203500    -0.0003596    0.0002640     0.9979036   -0.0227474     0.9970178   -0.0251781     0.0005716   -0.0002760 
   0.024453000    -0.0003617    0.0002841     0.9980490   -0.0229368     0.9969951   -0.0254626     0.0005555   -0.0002870 
   0.024702500    -0.0003951    0.0002841     0.9979321   -0.0231557     0.9969367   -0.0256450     0.0005398   -0.0003102 
   0.024952000    -0.0003926    0.0002950     0.9978094   -0.0234763     0.9969822   -0.0258739     0.0005410   -0.0003197 
   0.025201500    -0.0004179    0.0003631     0.9983696   -0.0233537     0.9976999   -0.0256812     0.0004760   -0.0003108 
   0.025451000    -0.0004288    0.0003094     0.9977832   -0.0240022     0.9969211   -0.0263381     0.0005417   -0.0003375 
   0.025700500    -0.0004333    0.0003359     0.9978383   -0.0241099     0.9968733   -0.0266140     0.0005595   -0.0003528 
   0.025950000    -0.0004582    0.0003382     0.9978404   -0.0243707     0.9968725   -0.0267679     0.0005547   -0.0003682 
   0.026199500    -0.0004550    0.0003582     0.9977743   -0.0246927     0.9967368   -0.0269510     0.0005358   -0.0003830 
   0.026449000    -0.0004664    0.0003714     0.9979054   -0.0249285     0.9968383   -0.0271018     0.0005275   -0.0003867 
   0.026698500    -0.0004834    0.0003878     0.9978702   -0.0251088     0.9969158   -0.0273275     0.0005313   -0.0003963 
   0.026948000    -0.0004947    0.0003908     0.9977962   -0.0253572     0.9968168   -0.0275484     0.0005341   -0.0004022 
   0.027197500    -0.0005037    0.0003931     0.9978094   -0.0256942     0.9966944   -0.0277330     0.0005295   -0.0004046 
   0.027447000    -0.0005187    0.0004116     0.9978285   -0.0258516     0.9967557   -0.0279702     0.0005347   -0.0004233 
   0.027696500    -0.0005175    0.0004277     0.9978114   -0.0260959     0.9967023   -0.0282697     0.0005466   -0.0004235 
   0.027946000    -0.0005221    0.0004500     0.9978004   -0.0264116     0.9966972   -0.0284693     0.0005432   -0.0004537 
   0.028195500    -0.0005200    0.0004455     0.9978674   -0.0265153     0.9966073   -0.0286679     0.0005419   -0.0004561 
   0.028445000    -0.0005339    0.0004666     0.9977459   -0.0267691     0.9967110   -0.0288366     0.0005464   -0.0004651 
   0.028694500    -0.0005388    0.0004810     0.9978415   -0.0270154     0.9967219   -0.0290781     0.0005553   -0.0004634 
   0.028944000    -0.0005453    0.0005000     0.9978350   -0.0271562     0.9966962   -0.0292313     0.0005640   -0.0004778 
   0.029193500    -0.0005413    0.0004968     0.9978768   -0.0273761     0.9966857   -0.0295186     0.0005720   -0.0004525 
   0.029443000    -0.0005465    0.0005073     0.9978336   -0.0275254     0.9966440   -0.0297760     0.0005711   -0.0004837 
   0.029692500    -0.0005452    0.0005196     0.9977349   -0.0277248     0.9966371   -0.0300996     0.0005690   -0.0004802 
   0.029942000    -0.0005565    0.0005339     0.9977700   -0.0278810     0.9965958   -0.0303395     0.0005641   -0.0004880 
   0.030191500    -0.0005516    0.0005408     0.9977495   -0.0280877     0.9965684   -0.0306254     0.0005790   -0.0004927 
   0.030441000    -0.0005550    0.0005469     0.9976835   -0.0282594     0.9966127   -0.0308423     0.0005861   -0.0004835 
   0.030690500    -0.0005584    0.0005655     0.9976608   -0.0284991     0.9966156   -0.0310880     0.0005967   -0.0004975 
   0.030940000    -0.0005542    0.0005594     0.9977934   -0.0287178     0.9966229   -0.0312533     0.0006051   -0.0004962 
   0.031189500    -0.0005428    0.0005728     0.9977066   -0.0288970     0.9966877   -0.0314470     0.0005977   -0.0004955 
   0.031439000    -0.0005414    0.0005860     0.9975965   -0.0291600     0.9966761   -0.0316040     0.0006005   -0.0005008 
   0.031688500    -0.0005420    0.0006009     0.9976044   -0.0293855     0.9966547   -0.0318399     0.0006128   -0.0004900 
   0.031938000    -0.0005384    0.0006054     0.9975156   -0.0297261     0.9965793   -0.0320889     0.0006459   -0.0005069 
   0.032187500    -0.0005389    0.0006210     0.9975302   -0.0298076     0.9964606   -0.0323774     0.0006424   -0.0004914 
   0.032437000    -0.0005138    0.0006268     0.9975074   -0.0300678     0.9964543   -0.0325572     0.0006353   -0.0005008 
   0.032686500    -0.0005199    0.0007113     0.9975988   -0.0305266     0.9960611   -0.0316959     0.0006616   -0.0005368 
   0.032936000    -0.0004995    0.0006689     0.9975207   -0.0305363     0.9963929   -0.0329168     0.0006463   -0.0004870 
   0.033185500    -0.0004963    0.0007240     0.9974974   -0.0311042     0.9959759   -0.0321371     0.0006881   -0.0005630 
   0.033435000    -0.0004851    0.0006796     0.9974396   -0.0310298     0.9964125   -0.0333022     0.0006602   -0.0004733 
   0.033684500    -0.0004823    0.0006849     0.9974439   -0.0312230     0.9963155   -0.0335037     0.0006723   -0.0004705 
   0.033934000    -0.0004791    0.0006900     0.9974588   -0.0315194     0.9963396   -0.0336519     0.0006982   -0.0004590 
   0.034183500    -0.0004550    0.0007033     0.9974447   -0.0316921     0.9963399   -0.0339367     0.0007040   -0.0004591 
   0.034433000    -0.0004437    0.0007164     0.9974797   -0.0319466     0.9963230   -0.0341616     0.0007040   -0.0004549 
   0.034682500    -0.0004317    0.0007278     0.9974509   -0.0321649     0.9963779   -0.0343500     0.0007247   -0.0004553 
   0.034932000    -0.0004117    0.0007447     0.9974655   -0.0323810     0.9963397   -0.0345345     0.0007178   -0.0004487 
   0.035181500    -0.0004001    0.0007320     0.9974007   -0.0326693     0.9963903   -0.0347034     0.0007429   -0.0004486 
   0.035431000    -0.0003915    0.0007409     0.9973907   -0.0328353     0.9963570   -0.0349128     0.0007462   -0.0004553 
   0.035680500    -0.0003829    0.0007409     0.9973285   -0.0331496     0.9962841   -0.0351949     0.0007736   -0.0004608 
   0.035930000    -0.0003791    0.0007435     0.9973693   -0.0334466     0.9962671   -0.0354378     0.0007986   -0.0004534 
   0.036179500    -0.0003560    0.0007581     0.9973270   -0.0336265     0.9962159   -0.0355838     0.0008020   -0.0004516 
   0.036429000    -0.0003424    0.0007604     0.9973384   -0.0338122     0.9962284   -0.0359080     0.0008104   -0.0004179 
   0.036678500    -0.0003251    0.0007633     0.9973997   -0.0339545     0.9961948   -0.0361146     0.0008165   -0.0003925 
   0.036928000    -0.0003001    0.0007621     0.9973302   -0.0342724     0.9962087   -0.0362333     0.0008414   -0.0003876 
   0.037177500    -0.0002803    0.0007879     0.9973974   -0.0344542     0.9962463   -0.0364434     0.0008425   -0.0003608 
   0.037427000    -0.0002640    0.0007846     0.9974185   -0.0347274     0.9962309   -0.0366517     0.0008492   -0.0003568 
   0.037676500    -0.0002424    0.0007782     0.9973988   -0.0349082     0.9962374   -0.0369667     0.0008562   -0.0003537 
   0.037926000    -0.0002425    0.0007620     0.9973680   -0.0350878     0.9962381   -0.0371301     0.0008718   -0.0003494 
   0.038175500    -0.0002085    0.0007773     0.9973273   -0.0352938     0.9962166   -0.0374384     0.0009100   -0.0003518 
   0.038425000    -0.0002011    0.0007840     0.9972636   -0.0355718     0.9961914   -0.0375883     0.0009341   -0.0003224 
   0.038674500    -0.0001549    0.0007939     0.9973179   -0.0357177     0.9961506   -0.0378681     0.0009312   -0.0003051 
   0.038924000    -0.0001470    0.0007603     0.9973379   -0.0360144     0.9961255   -0.0380420     0.0009344   -0.0002740 
   0.039173500    -0.0001213    0.0007617     0.9973702   -0.0361602     0.9961578   -0.0381392     0.0009336   -0.0002716 
   0.039423000    -0.0001063    0.0007735     0.9973971   -0.0364270     0.9960492   -0.0383670     0.0009677   -0.0002625 
   0.039672500    -0.0000818    0.0008391     0.9973428   -0.0367914     0.9955705   -0.0376355     0.0010111   -0.0002339 
   0.039922000    -0.0000876    0.0007773     0.9977648   -0.0366049     0.9969751   -0.0386533     0.0010060   -0.0002449 
   0.040171500    -0.0000429    0.0007647     0.9977648   -0.0368490     0.9969181   -0.0388417     0.0010166   -0.0002282 
