! MS46122B
! 1746301/73750021
! 8/7/2023 3:00:39 PM
! C:\USERS\SPEGWAL\DOWNLOADS\SAURABH\REACH\NODES\FRONT END\MEASUREMENTS\MEASURED S-PARAMETER_07-08-2023\MS-3\P2_J1\J1_OFF.S2P
! CHANNEL.1
! TR.MEASUREMENT
! CORRECTED.DATA
# GHZ S RI R 50.0
! FREQ.GHZ         S11RE         S11IM         S21RE         S21IM         S12RE         S12IM         S22RE         S22IM         
!; PortSelection: Port_12
   0.001000000     1.0023970   -0.0081588     0.0000031    0.0000011    -0.0000004   -0.0000025    -0.0044060    0.0031550 
   0.001249500     1.0027510   -0.0063173    -0.0000002   -0.0000009     0.0000004    0.0000003    -0.0050220    0.0031673 
   0.001499000     1.0025950   -0.0061738     0.0000001   -0.0000003     0.0000006   -0.0000010    -0.0052451    0.0034049 
   0.001748500     1.0024450   -0.0062104    -0.0000015    0.0000003     0.0000000   -0.0000001    -0.0051965    0.0036207 
   0.001998000     1.0024720   -0.0062094     0.0000001    0.0000000    -0.0000011   -0.0000004    -0.0050338    0.0037474 
   0.002247500     1.0028680   -0.0069172     0.0000014    0.0000001     0.0000003    0.0000001    -0.0046293    0.0035326 
   0.002497000     1.0029750   -0.0069528     0.0000008    0.0000004     0.0000008   -0.0000012    -0.0043399    0.0035604 
   0.002746500     1.0029180   -0.0069704     0.0000005    0.0000003    -0.0000002   -0.0000006    -0.0040739    0.0035558 
   0.002996000     1.0030580   -0.0070416     0.0000002   -0.0000003     0.0000007   -0.0000004    -0.0037688    0.0034261 
   0.003245500     1.0030990   -0.0070658    -0.0000010    0.0000001    -0.0000006   -0.0000005    -0.0035322    0.0033422 
   0.003495000     1.0030630   -0.0070477     0.0000001   -0.0000003     0.0000007    0.0000001    -0.0032944    0.0032179 
   0.003744500     1.0031550   -0.0072409     0.0000018   -0.0000006    -0.0000010   -0.0000011    -0.0030823    0.0030259 
   0.003994000     1.0032180   -0.0074819    -0.0000009    0.0000011    -0.0000001   -0.0000010    -0.0028867    0.0028260 
   0.004243500     1.0032500   -0.0075405     0.0000009    0.0000008    -0.0000010    0.0000005    -0.0024504    0.0025527 
   0.004493000     1.0032990   -0.0076199     0.0000008    0.0000005     0.0000015   -0.0000001    -0.0023349    0.0024307 
   0.004742500     1.0033680   -0.0078143    -0.0000003   -0.0000007    -0.0000005    0.0000011    -0.0022357    0.0023047 
   0.004992000     1.0034390   -0.0080262    -0.0000002   -0.0000008     0.0000006    0.0000003    -0.0021522    0.0021621 
   0.005241500     1.0035210   -0.0082291    -0.0000012   -0.0000005    -0.0000001    0.0000007    -0.0020714    0.0020246 
   0.005491000     1.0036080   -0.0084660    -0.0000004    0.0000003    -0.0000007    0.0000013    -0.0020282    0.0019075 
   0.005740500     1.0036120   -0.0087176     0.0000003   -0.0000007     0.0000001   -0.0000013    -0.0020203    0.0018143 
   0.005990000     1.0036100   -0.0089647     0.0000003   -0.0000008     0.0000002    0.0000001    -0.0019924    0.0017171 
   0.006239500     1.0036650   -0.0091656     0.0000008    0.0000010     0.0000000   -0.0000009    -0.0019959    0.0016172 
   0.006489000     1.0037810   -0.0095367     0.0000004    0.0000004     0.0000000   -0.0000013    -0.0019981    0.0015365 
   0.006738500     1.0038080   -0.0097289    -0.0000010    0.0000007    -0.0000002    0.0000008    -0.0019999    0.0014620 
   0.006988000     1.0038420   -0.0099440    -0.0000012    0.0000002     0.0000009    0.0000006    -0.0020177    0.0014079 
   0.007237500     1.0037060   -0.0100789     0.0000000   -0.0000007    -0.0000003   -0.0000008    -0.0020236    0.0013671 
   0.007487000     1.0033570   -0.0100315    -0.0000014    0.0000005     0.0000006   -0.0000006    -0.0020547    0.0013474 
   0.007736500     1.0030280   -0.0099400     0.0000012   -0.0000009     0.0000007    0.0000000    -0.0020567    0.0012984 
   0.007986000     1.0024010   -0.0097522     0.0000006   -0.0000010    -0.0000008   -0.0000003    -0.0020725    0.0012662 
   0.008235500     1.0016540   -0.0097561     0.0000000    0.0000003    -0.0000006    0.0000014    -0.0020840    0.0012263 
   0.008485000     1.0008820   -0.0094648     0.0000000   -0.0000008     0.0000002   -0.0000010    -0.0020922    0.0011947 
   0.008734500     1.0001590   -0.0093755     0.0000002   -0.0000008     0.0000005    0.0000016    -0.0021110    0.0011634 
   0.008984000     0.9994548   -0.0091059     0.0000000   -0.0000009     0.0000006    0.0000003    -0.0021232    0.0011275 
   0.009233500     0.9971488   -0.0079735     0.0000007   -0.0000002     0.0000003    0.0000013    -0.0021634    0.0010919 
   0.009483000     0.9971243   -0.0081494     0.0000004   -0.0000004    -0.0000019    0.0000004    -0.0021591    0.0010707 
   0.009732500     0.9972191   -0.0083903    -0.0000007   -0.0000006     0.0000001    0.0000003    -0.0021832    0.0010490 
   0.009982000     0.9971803   -0.0084992     0.0000001    0.0000014     0.0000009   -0.0000004    -0.0021923    0.0010324 
   0.010231500     0.9971136   -0.0086470     0.0000007    0.0000001    -0.0000003    0.0000003    -0.0022028    0.0010230 
   0.010481000     0.9969890   -0.0088423    -0.0000008    0.0000004     0.0000004    0.0000008    -0.0022218    0.0010089 
   0.010730500     0.9970005   -0.0091393     0.0000000   -0.0000005     0.0000001    0.0000004    -0.0022350    0.0010145 
   0.010980000     0.9970567   -0.0093747    -0.0000001   -0.0000003     0.0000001   -0.0000006    -0.0022417    0.0009945 
   0.011229500     0.9969950   -0.0094379     0.0000000   -0.0000007    -0.0000007    0.0000011    -0.0022464    0.0009821 
   0.011479000     0.9969665   -0.0096971    -0.0000012    0.0000004    -0.0000006   -0.0000004    -0.0022509    0.0009684 
   0.011728500     0.9969658   -0.0097653     0.0000015    0.0000018     0.0000010   -0.0000012    -0.0022830    0.0009521 
   0.011978000     0.9969580   -0.0098655     0.0000002   -0.0000001     0.0000010   -0.0000012    -0.0022896    0.0009423 
   0.012227500     0.9970615   -0.0101550     0.0000001   -0.0000014     0.0000004   -0.0000012    -0.0022993    0.0009490 
   0.012477000     0.9969440   -0.0103833     0.0000006    0.0000007     0.0000008   -0.0000002    -0.0023205    0.0009155 
   0.012726500     0.9969500   -0.0105300     0.0000008    0.0000001    -0.0000007   -0.0000006    -0.0023255    0.0008953 
   0.012976000     0.9970143   -0.0106532     0.0000008   -0.0000002    -0.0000001    0.0000003    -0.0023211    0.0008901 
   0.013225500     0.9968604   -0.0108500     0.0000004    0.0000005     0.0000002   -0.0000006    -0.0023340    0.0008656 
   0.013475000     0.9969215   -0.0110899    -0.0000001   -0.0000006     0.0000002    0.0000009    -0.0023620    0.0008496 
   0.013724500     0.9968209   -0.0111574    -0.0000002    0.0000004     0.0000000    0.0000002    -0.0023656    0.0008450 
   0.013974000     0.9967834   -0.0114376     0.0000003    0.0000006     0.0000008    0.0000000    -0.0023726    0.0008376 
   0.014223500     0.9967833   -0.0116113     0.0000003    0.0000014    -0.0000001    0.0000001    -0.0023890    0.0008233 
   0.014473000     0.9967020   -0.0117504    -0.0000004    0.0000016     0.0000006    0.0000007    -0.0023826    0.0008330 
   0.014722500     0.9966945   -0.0119870    -0.0000003    0.0000009    -0.0000002   -0.0000004    -0.0023901    0.0008154 
   0.014972000     0.9967936   -0.0122206     0.0000008    0.0000003    -0.0000007   -0.0000005    -0.0023918    0.0007965 
   0.015221500     0.9967214   -0.0123149    -0.0000004    0.0000006     0.0000005   -0.0000004    -0.0023953    0.0007969 
   0.015471000     0.9967186   -0.0123931    -0.0000005    0.0000000     0.0000000   -0.0000006    -0.0023995    0.0007876 
   0.015720500     0.9966031   -0.0125608    -0.0000013    0.0000004     0.0000008    0.0000007    -0.0024147    0.0007928 
   0.015970000     0.9965379   -0.0126320    -0.0000013    0.0000004     0.0000003    0.0000005    -0.0024174    0.0007779 
   0.016219500     0.9964855   -0.0129705    -0.0000004    0.0000006     0.0000007    0.0000005    -0.0024354    0.0007760 
   0.016469000     0.9964772   -0.0131054    -0.0000001    0.0000006     0.0000001    0.0000006    -0.0024433    0.0007625 
   0.016718500     0.9965485   -0.0134046    -0.0000001    0.0000000     0.0000002    0.0000000    -0.0024573    0.0007636 
   0.016968000     0.9965937   -0.0135545    -0.0000002    0.0000003    -0.0000009   -0.0000007    -0.0024503    0.0007239 
   0.017217500     0.9965708   -0.0136556    -0.0000007    0.0000005    -0.0000014    0.0000007    -0.0024678    0.0007197 
   0.017467000     0.9966156   -0.0137436     0.0000005    0.0000004    -0.0000004   -0.0000007    -0.0024719    0.0007123 
   0.017716500     0.9966123   -0.0139790    -0.0000003    0.0000012    -0.0000008    0.0000003    -0.0024634    0.0007014 
   0.017966000     0.9965513   -0.0141938     0.0000000   -0.0000005     0.0000009   -0.0000001    -0.0024589    0.0006870 
   0.018215500     0.9966133   -0.0144578     0.0000013    0.0000010    -0.0000004   -0.0000013    -0.0024622    0.0006771 
   0.018465000     0.9965281   -0.0145933    -0.0000012    0.0000002     0.0000008   -0.0000007    -0.0024604    0.0006675 
   0.018714500     0.9964710   -0.0147441     0.0000000    0.0000003    -0.0000003   -0.0000005    -0.0024556    0.0006557 
   0.018964000     0.9963897   -0.0148046    -0.0000009    0.0000014     0.0000006    0.0000004    -0.0024542    0.0006516 
   0.019213500     0.9964390   -0.0150774    -0.0000002    0.0000003    -0.0000002    0.0000002    -0.0024479    0.0006377 
   0.019463000     0.9962602   -0.0153488    -0.0000001    0.0000003     0.0000005   -0.0000005    -0.0024439    0.0006283 
   0.019712500     0.9962548   -0.0154435    -0.0000008   -0.0000014     0.0000000    0.0000002    -0.0024380    0.0006234 
   0.019962000     0.9962904   -0.0154867    -0.0000010    0.0000009    -0.0000012    0.0000000    -0.0024327    0.0006162 
   0.020211500     0.9963299   -0.0157951     0.0000002    0.0000002    -0.0000004   -0.0000007    -0.0024351    0.0006068 
   0.020461000     0.9963477   -0.0158430     0.0000000   -0.0000003     0.0000010    0.0000000    -0.0024402    0.0005935 
   0.020710500     0.9962568   -0.0160173    -0.0000013   -0.0000001     0.0000000   -0.0000006    -0.0024507    0.0005758 
   0.020960000     0.9962304   -0.0162552     0.0000002   -0.0000002    -0.0000013    0.0000004    -0.0024371    0.0005722 
   0.021209500     0.9961811   -0.0164470     0.0000008   -0.0000004     0.0000011   -0.0000007    -0.0024422    0.0005441 
   0.021459000     0.9961113   -0.0165087     0.0000007    0.0000003     0.0000005    0.0000002    -0.0024378    0.0005456 
   0.021708500     0.9960980   -0.0167120     0.0000022   -0.0000001     0.0000001   -0.0000008    -0.0024333    0.0005257 
   0.021958000     0.9961952   -0.0170390     0.0000013   -0.0000009     0.0000011    0.0000007    -0.0024273    0.0005196 
   0.022207500     0.9961842   -0.0171961    -0.0000012    0.0000004     0.0000004   -0.0000015    -0.0024254    0.0005110 
   0.022457000     0.9962606   -0.0174356    -0.0000002    0.0000001    -0.0000001    0.0000002    -0.0024454    0.0005444 
   0.022706500     0.9962161   -0.0174960     0.0000006    0.0000000    -0.0000007   -0.0000002    -0.0024393    0.0005213 
   0.022956000     0.9961942   -0.0177874    -0.0000005   -0.0000002     0.0000010    0.0000014    -0.0024391    0.0004919 
   0.023205500     0.9961340   -0.0178777    -0.0000007    0.0000011    -0.0000002    0.0000009    -0.0024247    0.0005056 
   0.023455000     0.9959688   -0.0179802     0.0000001   -0.0000002     0.0000004    0.0000016    -0.0024192    0.0004871 
   0.023704500     0.9959672   -0.0181001     0.0000004   -0.0000007    -0.0000007   -0.0000006    -0.0024102    0.0004816 
   0.023954000     0.9959965   -0.0182254     0.0000005   -0.0000002     0.0000003    0.0000007    -0.0024024    0.0004825 
   0.024203500     0.9960257   -0.0185155     0.0000003   -0.0000006    -0.0000007   -0.0000003    -0.0023936    0.0004647 
   0.024453000     0.9959297   -0.0187708     0.0000009   -0.0000002    -0.0000007   -0.0000013    -0.0023948    0.0004503 
   0.024702500     0.9959673   -0.0188685     0.0000002    0.0000005     0.0000006   -0.0000016    -0.0023794    0.0004503 
   0.024952000     0.9958930   -0.0191047    -0.0000004   -0.0000011    -0.0000001   -0.0000003    -0.0023657    0.0004499 
   0.025201500     0.9963701   -0.0190414    -0.0000003   -0.0000007     0.0000006    0.0000008    -0.0024122    0.0004495 
   0.025451000     0.9959579   -0.0192691    -0.0000001   -0.0000004     0.0000005    0.0000001    -0.0023626    0.0004283 
   0.025700500     0.9959565   -0.0196373     0.0000010    0.0000004     0.0000008    0.0000008    -0.0023534    0.0004088 
   0.025950000     0.9960203   -0.0197543     0.0000004   -0.0000001    -0.0000006    0.0000002    -0.0023371    0.0004154 
   0.026199500     0.9958911   -0.0199156    -0.0000013   -0.0000005    -0.0000009    0.0000012    -0.0023298    0.0003996 
   0.026449000     0.9958554   -0.0200865    -0.0000001    0.0000004     0.0000008   -0.0000004    -0.0023150    0.0004055 
   0.026698500     0.9959064   -0.0201677     0.0000011    0.0000001     0.0000006    0.0000003    -0.0023158    0.0003856 
   0.026948000     0.9957306   -0.0204205    -0.0000006   -0.0000006    -0.0000012    0.0000003    -0.0022980    0.0003838 
   0.027197500     0.9957977   -0.0206093     0.0000012    0.0000009    -0.0000013   -0.0000007    -0.0022868    0.0003778 
   0.027447000     0.9958491   -0.0207602    -0.0000004    0.0000008    -0.0000009    0.0000010    -0.0022730    0.0003702 
   0.027696500     0.9956926   -0.0209106     0.0000002    0.0000002    -0.0000008    0.0000017    -0.0022522    0.0003705 
   0.027946000     0.9957702   -0.0211189    -0.0000012    0.0000002    -0.0000011    0.0000002    -0.0022428    0.0003620 
   0.028195500     0.9957595   -0.0211761     0.0000001    0.0000008    -0.0000010    0.0000008    -0.0022331    0.0003537 
   0.028445000     0.9956534   -0.0213231     0.0000005   -0.0000018    -0.0000008    0.0000007    -0.0022222    0.0003415 
   0.028694500     0.9955899   -0.0215078    -0.0000006    0.0000001    -0.0000005    0.0000003    -0.0022126    0.0003353 
   0.028944000     0.9954687   -0.0215600    -0.0000003   -0.0000003    -0.0000010    0.0000012    -0.0021954    0.0003387 
   0.029193500     0.9955520   -0.0218744    -0.0000008   -0.0000003     0.0000000    0.0000001    -0.0021722    0.0003288 
   0.029443000     0.9954629   -0.0221788     0.0000001    0.0000018     0.0000005   -0.0000003    -0.0021602    0.0003309 
   0.029692500     0.9954804   -0.0223947    -0.0000005    0.0000003    -0.0000005    0.0000001    -0.0021421    0.0003428 
   0.029942000     0.9953727   -0.0226116     0.0000000   -0.0000006    -0.0000003    0.0000006    -0.0021334    0.0003267 
   0.030191500     0.9955363   -0.0225735    -0.0000005   -0.0000005    -0.0000004   -0.0000003    -0.0021115    0.0003284 
   0.030441000     0.9954572   -0.0228212    -0.0000001   -0.0000007     0.0000008    0.0000002    -0.0021022    0.0003337 
   0.030690500     0.9954827   -0.0228475    -0.0000005    0.0000011    -0.0000004    0.0000007    -0.0020848    0.0003211 
   0.030940000     0.9955254   -0.0230768    -0.0000002   -0.0000005    -0.0000003   -0.0000002    -0.0020762    0.0003240 
   0.031189500     0.9954861   -0.0231440    -0.0000004    0.0000001     0.0000003   -0.0000001    -0.0020573    0.0003320 
   0.031439000     0.9955054   -0.0233663    -0.0000010    0.0000007    -0.0000003    0.0000019    -0.0020353    0.0003201 
   0.031688500     0.9954685   -0.0236190     0.0000011   -0.0000005     0.0000003   -0.0000009    -0.0020298    0.0003188 
   0.031938000     0.9953939   -0.0237996    -0.0000016    0.0000002     0.0000009    0.0000012    -0.0020073    0.0003237 
   0.032187500     0.9954476   -0.0238431    -0.0000002   -0.0000006     0.0000001   -0.0000011    -0.0019935    0.0003246 
   0.032437000     0.9954017   -0.0241373    -0.0000013   -0.0000014    -0.0000005   -0.0000003    -0.0019800    0.0003317 
   0.032686500     0.9954719   -0.0240241    -0.0000009   -0.0000003    -0.0000006   -0.0000005    -0.0019426    0.0002728 
   0.032936000     0.9954544   -0.0244626     0.0000001    0.0000013     0.0000002   -0.0000006    -0.0019432    0.0003406 
   0.033185500     0.9953830   -0.0244278     0.0000007    0.0000005     0.0000003   -0.0000010    -0.0019069    0.0002853 
   0.033435000     0.9953401   -0.0248110     0.0000000    0.0000001     0.0000004   -0.0000008    -0.0019006    0.0003475 
   0.033684500     0.9953020   -0.0250606    -0.0000003   -0.0000001     0.0000001    0.0000005    -0.0018860    0.0003418 
   0.033934000     0.9952637   -0.0252410    -0.0000007    0.0000015     0.0000001    0.0000016    -0.0018633    0.0003603 
   0.034183500     0.9953567   -0.0253914    -0.0000004    0.0000009    -0.0000002    0.0000016    -0.0018520    0.0003503 
   0.034433000     0.9953019   -0.0255443     0.0000014    0.0000017     0.0000007    0.0000002    -0.0018417    0.0003712 
   0.034682500     0.9953655   -0.0258061     0.0000015   -0.0000005    -0.0000005   -0.0000001    -0.0018191    0.0003835 
   0.034932000     0.9952700   -0.0259146     0.0000000    0.0000002     0.0000005   -0.0000001    -0.0017989    0.0003788 
   0.035181500     0.9953665   -0.0260746     0.0000006   -0.0000005    -0.0000007   -0.0000007    -0.0017829    0.0003930 
   0.035431000     0.9953865   -0.0261680     0.0000001    0.0000003     0.0000007    0.0000001    -0.0017741    0.0003926 
   0.035680500     0.9953256   -0.0262911    -0.0000010   -0.0000001     0.0000004   -0.0000009    -0.0017415    0.0004029 
   0.035930000     0.9952998   -0.0264643    -0.0000015   -0.0000005     0.0000013    0.0000005    -0.0017285    0.0004093 
   0.036179500     0.9952635   -0.0267005     0.0000019   -0.0000006    -0.0000005    0.0000008    -0.0017144    0.0004036 
   0.036429000     0.9952838   -0.0268414    -0.0000001   -0.0000021     0.0000005    0.0000005    -0.0016981    0.0004222 
   0.036678500     0.9952041   -0.0270917    -0.0000002   -0.0000002    -0.0000017   -0.0000007    -0.0016784    0.0004260 
   0.036928000     0.9951442   -0.0273273     0.0000009   -0.0000001     0.0000000    0.0000008    -0.0016528    0.0004276 
   0.037177500     0.9952334   -0.0276349     0.0000007    0.0000001     0.0000008    0.0000006    -0.0016305    0.0004418 
   0.037427000     0.9952140   -0.0276489    -0.0000013    0.0000000     0.0000004   -0.0000011    -0.0016216    0.0004662 
   0.037676500     0.9952153   -0.0278205     0.0000002    0.0000011     0.0000008   -0.0000010    -0.0015951    0.0004654 
   0.037926000     0.9952326   -0.0279909    -0.0000002    0.0000004     0.0000010   -0.0000002    -0.0015508    0.0004775 
   0.038175500     0.9952477   -0.0281819     0.0000004   -0.0000002     0.0000015   -0.0000010    -0.0015504    0.0005008 
   0.038425000     0.9952785   -0.0283533     0.0000006    0.0000005    -0.0000013    0.0000003    -0.0015284    0.0004988 
   0.038674500     0.9952787   -0.0284099    -0.0000007    0.0000010    -0.0000007   -0.0000001    -0.0015064    0.0005226 
   0.038924000     0.9952203   -0.0286024    -0.0000004   -0.0000006     0.0000003   -0.0000009    -0.0014989    0.0005477 
   0.039173500     0.9952272   -0.0287994    -0.0000003    0.0000008     0.0000006    0.0000002    -0.0014701    0.0005581 
   0.039423000     0.9952123   -0.0290221    -0.0000013    0.0000000    -0.0000017   -0.0000004    -0.0014380    0.0005688 
   0.039672500     0.9952449   -0.0289242     0.0000002   -0.0000008     0.0000003   -0.0000007    -0.0013861    0.0005392 
   0.039922000     0.9954371   -0.0291457    -0.0000005    0.0000015     0.0000013   -0.0000005    -0.0014386    0.0005185 
   0.040171500     0.9955280   -0.0292511     0.0000016   -0.0000010     0.0000010    0.0000002    -0.0014211    0.0005506 
