! MS46122B
! 1746301/73750021
! 8/7/2023 3:01:18 PM
! C:\USERS\SPEGWAL\DOWNLOADS\SAURABH\REACH\NODES\FRONT END\MEASUREMENTS\MEASURED S-PARAMETER_07-08-2023\MS-3\P2_J1\J2_ON.S2P
! CHANNEL.1
! TR.MEASUREMENT
! CORRECTED.DATA
# GHZ S RI R 50.0
! FREQ.GHZ         S11RE         S11IM         S21RE         S21IM         S12RE         S12IM         S22RE         S22IM         
!; PortSelection: Port_12
   0.001000000     1.0025580   -0.0090267     0.0000027    0.0000030    -0.0000023   -0.0000009    -0.0044634    0.0030439 
   0.001249500     1.0026220   -0.0076598    -0.0000006    0.0000002    -0.0000009    0.0000000    -0.0050338    0.0031511 
   0.001499000     1.0024950   -0.0079007     0.0000011   -0.0000002     0.0000000   -0.0000003    -0.0052532    0.0033899 
   0.001748500     1.0023540   -0.0081514    -0.0000002    0.0000009     0.0000003   -0.0000001    -0.0051948    0.0036087 
   0.001998000     1.0023820   -0.0084197    -0.0000001   -0.0000001     0.0000002    0.0000008    -0.0050334    0.0037311 
   0.002247500     1.0028040   -0.0094799    -0.0000003   -0.0000005    -0.0000011   -0.0000016    -0.0046290    0.0035183 
   0.002497000     1.0027650   -0.0098031     0.0000001    0.0000002     0.0000015   -0.0000006    -0.0043480    0.0035529 
   0.002746500     1.0028350   -0.0100800    -0.0000005   -0.0000003     0.0000004    0.0000007    -0.0040727    0.0035458 
   0.002996000     1.0029340   -0.0104143     0.0000006   -0.0000007    -0.0000002   -0.0000007    -0.0037636    0.0034197 
   0.003245500     1.0030290   -0.0107829     0.0000003   -0.0000002    -0.0000001   -0.0000011    -0.0035278    0.0033320 
   0.003495000     1.0029910   -0.0110470    -0.0000007   -0.0000002     0.0000015   -0.0000005    -0.0032858    0.0032180 
   0.003744500     1.0030830   -0.0114993     0.0000005    0.0000001    -0.0000002   -0.0000001    -0.0030673    0.0030149 
   0.003994000     1.0031760   -0.0119929    -0.0000008   -0.0000016    -0.0000002    0.0000006    -0.0028758    0.0028175 
   0.004243500     1.0031790   -0.0123367    -0.0000007   -0.0000002     0.0000004    0.0000002    -0.0024544    0.0025428 
   0.004493000     1.0032520   -0.0127729     0.0000008    0.0000009    -0.0000017   -0.0000002    -0.0023127    0.0024106 
   0.004742500     1.0033240   -0.0131968     0.0000007   -0.0000016     0.0000011    0.0000000    -0.0022192    0.0022860 
   0.004992000     1.0033730   -0.0136582     0.0000008    0.0000019    -0.0000008   -0.0000012    -0.0021383    0.0021571 
   0.005241500     1.0034840   -0.0141852     0.0000013    0.0000000     0.0000001   -0.0000014    -0.0020563    0.0020046 
   0.005491000     1.0035540   -0.0147213    -0.0000008   -0.0000001     0.0000014    0.0000009    -0.0020185    0.0018967 
   0.005740500     1.0035820   -0.0152347     0.0000003    0.0000008     0.0000010   -0.0000002    -0.0020045    0.0018055 
   0.005990000     1.0035580   -0.0157616    -0.0000003   -0.0000001    -0.0000002    0.0000002    -0.0019832    0.0017090 
   0.006239500     1.0036720   -0.0163209    -0.0000008    0.0000009    -0.0000011    0.0000011    -0.0019796    0.0016143 
   0.006489000     1.0037660   -0.0168837     0.0000012   -0.0000003     0.0000000   -0.0000004    -0.0019870    0.0015297 
   0.006738500     1.0037890   -0.0172848     0.0000003   -0.0000002    -0.0000006   -0.0000009    -0.0019798    0.0014573 
   0.006988000     1.0037190   -0.0177855    -0.0000003   -0.0000014     0.0000002   -0.0000007    -0.0019985    0.0014060 
   0.007237500     1.0036450   -0.0181903    -0.0000004   -0.0000002    -0.0000007    0.0000001    -0.0020044    0.0013615 
   0.007487000     1.0032810   -0.0184397    -0.0000005    0.0000003     0.0000005   -0.0000006    -0.0020256    0.0013287 
   0.007736500     1.0029260   -0.0186535     0.0000015   -0.0000004     0.0000003    0.0000006    -0.0020342    0.0012808 
   0.007986000     1.0022890   -0.0187421     0.0000009   -0.0000001     0.0000004    0.0000011    -0.0020522    0.0012563 
   0.008235500     1.0015320   -0.0189861    -0.0000001    0.0000007    -0.0000003   -0.0000003    -0.0020723    0.0012185 
   0.008485000     1.0007490   -0.0189865    -0.0000006    0.0000002     0.0000006   -0.0000009    -0.0020723    0.0011977 
   0.008734500     0.9999660   -0.0191101    -0.0000002    0.0000007     0.0000001    0.0000011    -0.0021054    0.0011527 
   0.008984000     0.9992968   -0.0191805    -0.0000008    0.0000003     0.0000005    0.0000003    -0.0021108    0.0011187 
   0.009233500     0.9970338   -0.0182295     0.0000000   -0.0000013     0.0000013   -0.0000002    -0.0021369    0.0010905 
   0.009483000     0.9970570   -0.0186395     0.0000008    0.0000005     0.0000009    0.0000005    -0.0021512    0.0010670 
   0.009732500     0.9970783   -0.0191509    -0.0000008    0.0000001     0.0000005    0.0000000    -0.0021554    0.0010472 
   0.009982000     0.9969988   -0.0195939    -0.0000004    0.0000008    -0.0000008   -0.0000011    -0.0021765    0.0010309 
   0.010231500     0.9968640   -0.0199888     0.0000007    0.0000001    -0.0000003    0.0000005    -0.0021882    0.0010285 
   0.010481000     0.9967980   -0.0204494     0.0000007    0.0000001     0.0000005    0.0000009    -0.0022019    0.0010100 
   0.010730500     0.9967461   -0.0210699     0.0000011   -0.0000006    -0.0000002    0.0000014    -0.0022134    0.0010128 
   0.010980000     0.9968576   -0.0215219    -0.0000005    0.0000004    -0.0000006   -0.0000001    -0.0022337    0.0009952 
   0.011229500     0.9967875   -0.0218519     0.0000001   -0.0000006    -0.0000002    0.0000008    -0.0022274    0.0009828 
   0.011479000     0.9966655   -0.0224008     0.0000000    0.0000000     0.0000000   -0.0000001    -0.0022446    0.0009635 
   0.011728500     0.9968742   -0.0227645     0.0000015    0.0000018     0.0000001   -0.0000008    -0.0022642    0.0009463 
   0.011978000     0.9967301   -0.0230988    -0.0000006   -0.0000017    -0.0000001    0.0000003    -0.0022617    0.0009603 
   0.012227500     0.9968230   -0.0236572    -0.0000012    0.0000014     0.0000011    0.0000000    -0.0022851    0.0009327 
   0.012477000     0.9966844   -0.0242369     0.0000008    0.0000007     0.0000010    0.0000011    -0.0022974    0.0009175 
   0.012726500     0.9966657   -0.0247065     0.0000002    0.0000007     0.0000017   -0.0000011    -0.0023030    0.0009059 
   0.012976000     0.9967290   -0.0251510    -0.0000004   -0.0000006    -0.0000005    0.0000003    -0.0023124    0.0008825 
   0.013225500     0.9966492   -0.0255628    -0.0000004    0.0000009    -0.0000005   -0.0000005    -0.0023275    0.0008684 
   0.013475000     0.9965911   -0.0260016    -0.0000003   -0.0000003    -0.0000002   -0.0000002    -0.0023330    0.0008625 
   0.013724500     0.9964944   -0.0264631    -0.0000009    0.0000011     0.0000005    0.0000000    -0.0023379    0.0008407 
   0.013974000     0.9964855   -0.0269154    -0.0000009    0.0000004    -0.0000005   -0.0000004    -0.0023528    0.0008400 
   0.014223500     0.9964785   -0.0273034     0.0000009    0.0000003    -0.0000008    0.0000003    -0.0023556    0.0008270 
   0.014473000     0.9963876   -0.0277756    -0.0000003   -0.0000003     0.0000006    0.0000004    -0.0023606    0.0008317 
   0.014722500     0.9963824   -0.0282372     0.0000004    0.0000001     0.0000009   -0.0000003    -0.0023707    0.0008296 
   0.014972000     0.9964611   -0.0287845     0.0000005    0.0000005     0.0000004    0.0000002    -0.0023727    0.0008060 
   0.015221500     0.9964619   -0.0291626     0.0000001   -0.0000004    -0.0000006   -0.0000006    -0.0023829    0.0008122 
   0.015471000     0.9963865   -0.0295692     0.0000004   -0.0000013    -0.0000004   -0.0000005    -0.0023776    0.0007949 
   0.015720500     0.9962175   -0.0299052     0.0000004   -0.0000004    -0.0000011    0.0000000    -0.0024052    0.0007881 
   0.015970000     0.9961752   -0.0302671    -0.0000008   -0.0000010    -0.0000001   -0.0000004    -0.0023969    0.0007862 
   0.016219500     0.9960730   -0.0309491    -0.0000006    0.0000008     0.0000000    0.0000002    -0.0024160    0.0007762 
   0.016469000     0.9961403   -0.0313102     0.0000002   -0.0000006    -0.0000006   -0.0000001    -0.0024312    0.0007727 
   0.016718500     0.9961047   -0.0318060    -0.0000010    0.0000001     0.0000019    0.0000004    -0.0024382    0.0007622 
   0.016968000     0.9961668   -0.0322625     0.0000002    0.0000012    -0.0000001    0.0000000    -0.0024355    0.0007298 
   0.017217500     0.9960761   -0.0326667     0.0000007   -0.0000001     0.0000001    0.0000007    -0.0024546    0.0007139 
   0.017467000     0.9961584   -0.0330763    -0.0000004   -0.0000011     0.0000002   -0.0000002    -0.0024447    0.0007181 
   0.017716500     0.9962251   -0.0336407     0.0000004   -0.0000001    -0.0000002    0.0000002    -0.0024406    0.0007086 
   0.017966000     0.9960821   -0.0341175    -0.0000004   -0.0000009    -0.0000006   -0.0000006    -0.0024517    0.0006937 
   0.018215500     0.9961530   -0.0345223    -0.0000012    0.0000000     0.0000006   -0.0000002    -0.0024483    0.0006808 
   0.018465000     0.9960169   -0.0349725     0.0000008    0.0000009     0.0000003    0.0000009    -0.0024438    0.0006690 
   0.018714500     0.9960001   -0.0354455    -0.0000006    0.0000008    -0.0000008   -0.0000004    -0.0024376    0.0006629 
   0.018964000     0.9957934   -0.0358929     0.0000006    0.0000004     0.0000000   -0.0000004    -0.0024341    0.0006588 
   0.019213500     0.9958252   -0.0362899     0.0000001    0.0000004    -0.0000001   -0.0000002    -0.0024280    0.0006428 
   0.019463000     0.9957742   -0.0367898     0.0000000   -0.0000003    -0.0000003    0.0000003    -0.0024393    0.0006310 
   0.019712500     0.9957242   -0.0371960    -0.0000004    0.0000001     0.0000011   -0.0000007    -0.0024236    0.0006238 
   0.019962000     0.9957070   -0.0376002     0.0000006   -0.0000006    -0.0000003    0.0000008    -0.0024255    0.0006247 
   0.020211500     0.9957347   -0.0380087    -0.0000001    0.0000004    -0.0000012    0.0000010    -0.0024188    0.0006088 
   0.020461000     0.9957279   -0.0384895    -0.0000010   -0.0000001     0.0000008   -0.0000008    -0.0024363    0.0005890 
   0.020710500     0.9956566   -0.0389506     0.0000000    0.0000000    -0.0000007   -0.0000008    -0.0024324    0.0005853 
   0.020960000     0.9955546   -0.0394089     0.0000007   -0.0000007     0.0000007    0.0000001    -0.0024371    0.0005812 
   0.021209500     0.9954939   -0.0398952     0.0000005   -0.0000006     0.0000007   -0.0000012    -0.0024289    0.0005582 
   0.021459000     0.9955314   -0.0403294     0.0000011   -0.0000001     0.0000007    0.0000003    -0.0024330    0.0005571 
   0.021708500     0.9953763   -0.0407816    -0.0000002    0.0000004     0.0000006    0.0000002    -0.0024261    0.0005359 
   0.021958000     0.9955696   -0.0413283    -0.0000002    0.0000001    -0.0000005   -0.0000004    -0.0024280    0.0005265 
   0.022207500     0.9954846   -0.0417563     0.0000010    0.0000003    -0.0000002    0.0000000    -0.0024217    0.0005164 
   0.022457000     0.9954771   -0.0422687     0.0000004    0.0000005     0.0000003    0.0000014    -0.0024455    0.0005441 
   0.022706500     0.9956023   -0.0425153    -0.0000017   -0.0000003    -0.0000006    0.0000001    -0.0024448    0.0005198 
   0.022956000     0.9953029   -0.0431790    -0.0000015   -0.0000006     0.0000006    0.0000008    -0.0024366    0.0005016 
   0.023205500     0.9953097   -0.0435295    -0.0000011    0.0000018     0.0000001   -0.0000010    -0.0024269    0.0005181 
   0.023455000     0.9951761   -0.0438938    -0.0000004    0.0000002    -0.0000004   -0.0000004    -0.0024244    0.0004935 
   0.023704500     0.9952498   -0.0443709     0.0000002   -0.0000013    -0.0000006   -0.0000002    -0.0024104    0.0004872 
   0.023954000     0.9951550   -0.0448970     0.0000008   -0.0000009    -0.0000003    0.0000006    -0.0024006    0.0004810 
   0.024203500     0.9952224   -0.0453393     0.0000000   -0.0000006    -0.0000005   -0.0000003    -0.0023926    0.0004741 
   0.024453000     0.9951213   -0.0457535     0.0000003   -0.0000011     0.0000002   -0.0000002    -0.0023887    0.0004577 
   0.024702500     0.9951365   -0.0461649     0.0000005   -0.0000004    -0.0000001    0.0000002    -0.0023793    0.0004553 
   0.024952000     0.9950334   -0.0465884     0.0000011   -0.0000007    -0.0000003   -0.0000008    -0.0023753    0.0004444 
   0.025201500     0.9954798   -0.0469173    -0.0000014   -0.0000011     0.0000000    0.0000009    -0.0024111    0.0004526 
   0.025451000     0.9950245   -0.0474238    -0.0000004   -0.0000002     0.0000007   -0.0000001    -0.0023668    0.0004286 
   0.025700500     0.9950070   -0.0480171    -0.0000004    0.0000005    -0.0000001    0.0000009    -0.0023536    0.0004128 
   0.025950000     0.9950294   -0.0484187    -0.0000007   -0.0000001     0.0000009    0.0000010    -0.0023297    0.0004265 
   0.026199500     0.9949297   -0.0489210    -0.0000008   -0.0000009     0.0000010   -0.0000006    -0.0023290    0.0004033 
   0.026449000     0.9948351   -0.0493802    -0.0000012   -0.0000007    -0.0000002   -0.0000006    -0.0023177    0.0004062 
   0.026698500     0.9948719   -0.0497618    -0.0000007    0.0000011    -0.0000003    0.0000001    -0.0023127    0.0003986 
   0.026948000     0.9948196   -0.0501371     0.0000002   -0.0000005    -0.0000005   -0.0000001    -0.0023086    0.0003864 
   0.027197500     0.9947776   -0.0506286     0.0000005   -0.0000004     0.0000005   -0.0000009    -0.0022957    0.0003658 
   0.027447000     0.9948036   -0.0510220    -0.0000004    0.0000002     0.0000002    0.0000000    -0.0022801    0.0003638 
   0.027696500     0.9947153   -0.0514277     0.0000001   -0.0000011    -0.0000003    0.0000013    -0.0022698    0.0003623 
   0.027946000     0.9947087   -0.0518806    -0.0000001    0.0000005     0.0000012    0.0000004    -0.0022502    0.0003699 
   0.028195500     0.9946334   -0.0521903     0.0000005    0.0000004     0.0000006    0.0000008    -0.0022462    0.0003493 
   0.028445000     0.9945664   -0.0527064    -0.0000010   -0.0000006     0.0000006   -0.0000005    -0.0022291    0.0003446 
   0.028694500     0.9945044   -0.0531732    -0.0000012    0.0000008     0.0000001    0.0000006    -0.0022176    0.0003249 
   0.028944000     0.9943740   -0.0537972     0.0000002    0.0000000    -0.0000009    0.0000004    -0.0021992    0.0003555 
   0.029193500     0.9943829   -0.0541798     0.0000008   -0.0000006     0.0000016    0.0000002    -0.0021890    0.0003336 
   0.029443000     0.9942438   -0.0546235    -0.0000013   -0.0000004     0.0000001    0.0000003    -0.0021663    0.0003208 
   0.029692500     0.9942609   -0.0551892     0.0000004   -0.0000006    -0.0000005    0.0000001    -0.0021599    0.0003290 
   0.029942000     0.9941867   -0.0555877     0.0000008    0.0000001    -0.0000014   -0.0000001    -0.0021311    0.0003144 
   0.030191500     0.9942804   -0.0557430    -0.0000001    0.0000013     0.0000001   -0.0000001    -0.0021165    0.0003164 
   0.030441000     0.9942499   -0.0563093     0.0000008   -0.0000005    -0.0000003   -0.0000004    -0.0021137    0.0003237 
   0.030690500     0.9941853   -0.0566381     0.0000005   -0.0000019    -0.0000009    0.0000007    -0.0020934    0.0003115 
   0.030940000     0.9941338   -0.0571177    -0.0000016   -0.0000009     0.0000004   -0.0000001    -0.0020757    0.0003185 
   0.031189500     0.9941585   -0.0575274    -0.0000008    0.0000009     0.0000002   -0.0000010    -0.0020666    0.0003198 
   0.031439000     0.9941130   -0.0580339    -0.0000013   -0.0000009     0.0000001    0.0000004    -0.0020467    0.0003103 
   0.031688500     0.9940245   -0.0585811    -0.0000004   -0.0000007     0.0000005    0.0000000    -0.0020475    0.0003116 
   0.031938000     0.9940550   -0.0590645    -0.0000018   -0.0000003     0.0000006    0.0000004    -0.0020221    0.0003151 
   0.032187500     0.9940556   -0.0593051    -0.0000001    0.0000004     0.0000002    0.0000005    -0.0020061    0.0003094 
   0.032437000     0.9939756   -0.0598164     0.0000024    0.0000006     0.0000011    0.0000005    -0.0019943    0.0003107 
   0.032686500     0.9939928   -0.0600218    -0.0000003   -0.0000012    -0.0000004   -0.0000007    -0.0019562    0.0002632 
   0.032936000     0.9938763   -0.0607224    -0.0000003    0.0000008    -0.0000002   -0.0000001    -0.0019546    0.0003273 
   0.033185500     0.9938976   -0.0609790    -0.0000005   -0.0000010    -0.0000009   -0.0000001    -0.0019134    0.0002616 
   0.033435000     0.9938034   -0.0615813     0.0000016   -0.0000005     0.0000010    0.0000008    -0.0019136    0.0003281 
   0.033684500     0.9937595   -0.0621293    -0.0000004   -0.0000007     0.0000001   -0.0000009    -0.0018950    0.0003308 
   0.033934000     0.9936688   -0.0625555    -0.0000002   -0.0000006     0.0000004   -0.0000003    -0.0018777    0.0003276 
   0.034183500     0.9937082   -0.0631302    -0.0000012   -0.0000004    -0.0000022   -0.0000004    -0.0018621    0.0003325 
   0.034433000     0.9937213   -0.0635252    -0.0000013    0.0000003     0.0000003   -0.0000007    -0.0018465    0.0003440 
   0.034682500     0.9937665   -0.0640209     0.0000004   -0.0000001     0.0000005    0.0000002    -0.0018346    0.0003585 
   0.034932000     0.9937154   -0.0643639     0.0000000   -0.0000010    -0.0000011   -0.0000010    -0.0018165    0.0003640 
   0.035181500     0.9936365   -0.0647877    -0.0000003   -0.0000010    -0.0000002   -0.0000007    -0.0017950    0.0003598 
   0.035431000     0.9937645   -0.0651955    -0.0000005    0.0000018    -0.0000012    0.0000008    -0.0017826    0.0003656 
   0.035680500     0.9936475   -0.0655605    -0.0000010   -0.0000001    -0.0000005    0.0000007    -0.0017523    0.0003809 
   0.035930000     0.9934888   -0.0661385    -0.0000003    0.0000004     0.0000014    0.0000005    -0.0017463    0.0003809 
   0.036179500     0.9933929   -0.0666171     0.0000000   -0.0000015     0.0000008   -0.0000003    -0.0017228    0.0003721 
   0.036429000     0.9934081   -0.0670481    -0.0000005   -0.0000001     0.0000004   -0.0000013    -0.0016991    0.0003946 
   0.036678500     0.9933721   -0.0675666     0.0000002    0.0000010     0.0000001    0.0000004    -0.0016952    0.0003977 
   0.036928000     0.9933010   -0.0680554     0.0000007   -0.0000010     0.0000004   -0.0000004    -0.0016656    0.0004043 
   0.037177500     0.9933130   -0.0684973     0.0000006   -0.0000005    -0.0000002    0.0000005    -0.0016495    0.0004161 
   0.037427000     0.9934089   -0.0687885     0.0000007   -0.0000001    -0.0000005   -0.0000008    -0.0016187    0.0004294 
   0.037676500     0.9933426   -0.0692258    -0.0000003    0.0000006     0.0000007    0.0000007    -0.0015963    0.0004288 
   0.037926000     0.9933695   -0.0696284     0.0000000    0.0000003     0.0000009    0.0000007    -0.0015755    0.0004402 
   0.038175500     0.9932624   -0.0700732     0.0000001   -0.0000006     0.0000014   -0.0000007    -0.0015540    0.0004615 
   0.038425000     0.9932649   -0.0705319    -0.0000005   -0.0000010    -0.0000001    0.0000002    -0.0015411    0.0004713 
   0.038674500     0.9932321   -0.0709306     0.0000000   -0.0000012    -0.0000006   -0.0000009    -0.0015217    0.0004815 
   0.038924000     0.9931179   -0.0715250     0.0000006    0.0000002     0.0000000    0.0000004    -0.0015154    0.0005096 
   0.039173500     0.9931242   -0.0720123    -0.0000005   -0.0000003    -0.0000007    0.0000012    -0.0014809    0.0005199 
   0.039423000     0.9931440   -0.0725201    -0.0000007    0.0000001     0.0000002    0.0000005    -0.0014441    0.0005317 
   0.039672500     0.9930985   -0.0725345     0.0000005    0.0000004     0.0000001   -0.0000001    -0.0013919    0.0005038 
   0.039922000     0.9932830   -0.0729974    -0.0000003    0.0000002     0.0000001   -0.0000006    -0.0014448    0.0004867 
   0.040171500     0.9933334   -0.0734650     0.0000002   -0.0000002     0.0000011    0.0000010    -0.0014183    0.0005010 
