! MS46122B
! 1746301/73750021
! 8/7/2023 3:02:17 PM
! C:\USERS\SPEGWAL\DOWNLOADS\SAURABH\REACH\NODES\FRONT END\MEASUREMENTS\MEASURED S-PARAMETER_07-08-2023\MS-3\P2_J1\J3_ON.S2P
! CHANNEL.1
! TR.MEASUREMENT
! CORRECTED.DATA
# GHZ S RI R 50.0
! FREQ.GHZ         S11RE         S11IM         S21RE         S21IM         S12RE         S12IM         S22RE         S22IM         
!; PortSelection: Port_12
   0.001000000     1.0018700   -0.0092586    -0.0000025   -0.0000035    -0.0000007   -0.0000028    -0.0045044    0.0031783 
   0.001249500     1.0026700   -0.0077096     0.0000001    0.0000002     0.0000009   -0.0000013    -0.0050348    0.0031506 
   0.001499000     1.0024850   -0.0079334    -0.0000002   -0.0000007    -0.0000008   -0.0000003    -0.0052568    0.0033848 
   0.001748500     1.0024360   -0.0081508    -0.0000003    0.0000014     0.0000011   -0.0000007    -0.0052012    0.0036012 
   0.001998000     1.0023880   -0.0084684     0.0000007    0.0000017     0.0000001    0.0000002    -0.0050388    0.0037280 
   0.002247500     1.0028220   -0.0095061     0.0000016   -0.0000008     0.0000005   -0.0000027    -0.0046326    0.0035160 
   0.002497000     1.0027920   -0.0098071     0.0000000    0.0000011     0.0000003    0.0000000    -0.0043456    0.0035521 
   0.002746500     1.0028530   -0.0101004    -0.0000005   -0.0000016    -0.0000005    0.0000006    -0.0040661    0.0035485 
   0.002996000     1.0029440   -0.0104398     0.0000009    0.0000001     0.0000008    0.0000012    -0.0037665    0.0034140 
   0.003245500     1.0030290   -0.0108029    -0.0000007   -0.0000009     0.0000009   -0.0000005    -0.0035203    0.0033288 
   0.003495000     1.0029990   -0.0110475     0.0000005   -0.0000007     0.0000014    0.0000011    -0.0032787    0.0031993 
   0.003744500     1.0030990   -0.0115105     0.0000011   -0.0000001    -0.0000005    0.0000002    -0.0030654    0.0030139 
   0.003994000     1.0031520   -0.0119871    -0.0000006   -0.0000010    -0.0000001   -0.0000001    -0.0028683    0.0028103 
   0.004243500     1.0032020   -0.0122634    -0.0000012   -0.0000011     0.0000011   -0.0000010    -0.0024409    0.0025349 
   0.004493000     1.0032770   -0.0128216    -0.0000019   -0.0000003    -0.0000005    0.0000015    -0.0023091    0.0024153 
   0.004742500     1.0033160   -0.0131887     0.0000005   -0.0000007    -0.0000003    0.0000008    -0.0022062    0.0022914 
   0.004992000     1.0034030   -0.0136337    -0.0000010    0.0000008    -0.0000006    0.0000000    -0.0021262    0.0021431 
   0.005241500     1.0035430   -0.0142189     0.0000005   -0.0000010    -0.0000001   -0.0000007    -0.0020490    0.0020030 
   0.005491000     1.0035250   -0.0147593    -0.0000002    0.0000000    -0.0000001    0.0000006    -0.0020225    0.0018945 
   0.005740500     1.0035920   -0.0152386    -0.0000002   -0.0000001     0.0000002    0.0000002    -0.0020037    0.0018055 
   0.005990000     1.0035860   -0.0157578     0.0000004   -0.0000010     0.0000004    0.0000001    -0.0019791    0.0017042 
   0.006239500     1.0036830   -0.0162839     0.0000004   -0.0000004     0.0000005    0.0000005    -0.0019734    0.0016128 
   0.006489000     1.0037430   -0.0169252     0.0000001   -0.0000007     0.0000001    0.0000012    -0.0019710    0.0015162 
   0.006738500     1.0037880   -0.0172736    -0.0000004   -0.0000003     0.0000007    0.0000004    -0.0019742    0.0014484 
   0.006988000     1.0037490   -0.0178459    -0.0000007   -0.0000006    -0.0000004    0.0000008    -0.0019868    0.0014039 
   0.007237500     1.0036300   -0.0181706    -0.0000004   -0.0000005     0.0000001   -0.0000006    -0.0020078    0.0013560 
   0.007487000     1.0033130   -0.0184280     0.0000000    0.0000009     0.0000005   -0.0000004    -0.0020196    0.0013198 
   0.007736500     1.0028970   -0.0186734     0.0000000   -0.0000003    -0.0000002   -0.0000008    -0.0020263    0.0012917 
   0.007986000     1.0022730   -0.0187511    -0.0000004    0.0000002    -0.0000007   -0.0000001    -0.0020348    0.0012493 
   0.008235500     1.0014910   -0.0190067    -0.0000001   -0.0000001    -0.0000003    0.0000005    -0.0020668    0.0012161 
   0.008485000     1.0007760   -0.0189905     0.0000001   -0.0000006     0.0000000   -0.0000001    -0.0020710    0.0011851 
   0.008734500     0.9999204   -0.0191594    -0.0000006   -0.0000008     0.0000000   -0.0000008    -0.0020856    0.0011479 
   0.008984000     0.9992144   -0.0191566    -0.0000005    0.0000009    -0.0000003    0.0000005    -0.0020970    0.0011135 
   0.009233500     0.9969695   -0.0182754    -0.0000002    0.0000001     0.0000012    0.0000001    -0.0021339    0.0010854 
   0.009483000     0.9970314   -0.0185902     0.0000003    0.0000010     0.0000003    0.0000010    -0.0021171    0.0010708 
   0.009732500     0.9970840   -0.0191095     0.0000004    0.0000008    -0.0000012    0.0000002    -0.0021485    0.0010409 
   0.009982000     0.9969937   -0.0195471    -0.0000007   -0.0000001     0.0000008    0.0000002    -0.0021545    0.0010224 
   0.010231500     0.9969119   -0.0199539    -0.0000001    0.0000011    -0.0000001    0.0000001    -0.0021732    0.0010178 
   0.010481000     0.9967801   -0.0204150     0.0000005   -0.0000004     0.0000004    0.0000009    -0.0021975    0.0010090 
   0.010730500     0.9967716   -0.0210515     0.0000000   -0.0000009     0.0000005   -0.0000004    -0.0022011    0.0010056 
   0.010980000     0.9967859   -0.0215414     0.0000002   -0.0000001     0.0000002    0.0000009    -0.0022268    0.0010002 
   0.011229500     0.9967923   -0.0218923     0.0000009   -0.0000009     0.0000007   -0.0000003    -0.0022157    0.0009855 
   0.011479000     0.9966872   -0.0224060    -0.0000010   -0.0000016    -0.0000002    0.0000016    -0.0022326    0.0009712 
   0.011728500     0.9967602   -0.0227290     0.0000000    0.0000010     0.0000002    0.0000016    -0.0022506    0.0009473 
   0.011978000     0.9967547   -0.0231608    -0.0000012    0.0000009    -0.0000004    0.0000001    -0.0022613    0.0009509 
   0.012227500     0.9967818   -0.0237054    -0.0000015   -0.0000001     0.0000001    0.0000011    -0.0022709    0.0009332 
   0.012477000     0.9966775   -0.0242382    -0.0000005    0.0000010    -0.0000004    0.0000012    -0.0022938    0.0009140 
   0.012726500     0.9967321   -0.0245696    -0.0000001    0.0000002     0.0000011    0.0000012    -0.0023051    0.0009012 
   0.012976000     0.9967529   -0.0250927     0.0000007    0.0000004    -0.0000010   -0.0000008    -0.0023001    0.0008897 
   0.013225500     0.9966004   -0.0255596     0.0000000    0.0000010    -0.0000005   -0.0000001    -0.0023125    0.0008611 
   0.013475000     0.9966360   -0.0259893     0.0000009   -0.0000005     0.0000019   -0.0000007    -0.0023305    0.0008608 
   0.013724500     0.9964859   -0.0264579     0.0000003    0.0000013     0.0000000   -0.0000002    -0.0023418    0.0008475 
   0.013974000     0.9965169   -0.0268641     0.0000004   -0.0000002     0.0000008   -0.0000003    -0.0023459    0.0008345 
   0.014223500     0.9964876   -0.0273300    -0.0000002   -0.0000002     0.0000005   -0.0000004    -0.0023591    0.0008323 
   0.014473000     0.9963229   -0.0278241     0.0000008    0.0000007     0.0000014    0.0000007    -0.0023573    0.0008372 
   0.014722500     0.9963747   -0.0282784     0.0000003    0.0000008     0.0000008    0.0000001    -0.0023685    0.0008185 
   0.014972000     0.9965307   -0.0287632     0.0000014    0.0000004     0.0000005    0.0000013    -0.0023640    0.0008029 
   0.015221500     0.9964213   -0.0291231    -0.0000001    0.0000004     0.0000009    0.0000005    -0.0023692    0.0008076 
   0.015471000     0.9962674   -0.0294660    -0.0000012   -0.0000004    -0.0000015    0.0000005    -0.0023791    0.0007967 
   0.015720500     0.9962313   -0.0299604     0.0000000   -0.0000005     0.0000002    0.0000009    -0.0023957    0.0007977 
   0.015970000     0.9961318   -0.0303185     0.0000015   -0.0000009    -0.0000007    0.0000002    -0.0023974    0.0007870 
   0.016219500     0.9960497   -0.0309449     0.0000001    0.0000005     0.0000008   -0.0000005    -0.0024126    0.0007831 
   0.016469000     0.9961480   -0.0312181    -0.0000007   -0.0000006     0.0000001    0.0000000    -0.0024156    0.0007565 
   0.016718500     0.9961534   -0.0318157     0.0000002    0.0000001    -0.0000003    0.0000004    -0.0024356    0.0007655 
   0.016968000     0.9960966   -0.0322966     0.0000001    0.0000007    -0.0000004    0.0000004    -0.0024416    0.0007291 
   0.017217500     0.9960063   -0.0326751     0.0000002    0.0000004     0.0000001    0.0000011    -0.0024465    0.0007139 
   0.017467000     0.9961636   -0.0330973    -0.0000005    0.0000004     0.0000006    0.0000011    -0.0024347    0.0007202 
   0.017716500     0.9961714   -0.0336142     0.0000004   -0.0000008    -0.0000008    0.0000004    -0.0024403    0.0007089 
   0.017966000     0.9961506   -0.0341378    -0.0000008   -0.0000003     0.0000001    0.0000000    -0.0024453    0.0007052 
   0.018215500     0.9961336   -0.0345004    -0.0000002    0.0000004    -0.0000002    0.0000010    -0.0024347    0.0006790 
   0.018465000     0.9959333   -0.0349340    -0.0000004    0.0000003    -0.0000002    0.0000003    -0.0024398    0.0006748 
   0.018714500     0.9959471   -0.0354201    -0.0000005    0.0000007    -0.0000005    0.0000002    -0.0024384    0.0006689 
   0.018964000     0.9958497   -0.0358673     0.0000005   -0.0000008     0.0000005    0.0000001    -0.0024370    0.0006556 
   0.019213500     0.9958462   -0.0363873    -0.0000004   -0.0000003     0.0000002   -0.0000002    -0.0024268    0.0006410 
   0.019463000     0.9956954   -0.0367363     0.0000006   -0.0000002     0.0000006    0.0000000    -0.0024335    0.0006257 
   0.019712500     0.9957026   -0.0372115    -0.0000001   -0.0000006     0.0000008   -0.0000004    -0.0024288    0.0006301 
   0.019962000     0.9957685   -0.0374948    -0.0000005    0.0000016    -0.0000002    0.0000010    -0.0024341    0.0006281 
   0.020211500     0.9957050   -0.0380237    -0.0000005   -0.0000005    -0.0000004    0.0000003    -0.0024316    0.0006024 
   0.020461000     0.9956831   -0.0385043    -0.0000007    0.0000012    -0.0000006    0.0000006    -0.0024333    0.0005999 
   0.020710500     0.9955752   -0.0388705    -0.0000001   -0.0000003     0.0000018   -0.0000011    -0.0024286    0.0005902 
   0.020960000     0.9955782   -0.0394588     0.0000004   -0.0000005     0.0000005   -0.0000002    -0.0024456    0.0005744 
   0.021209500     0.9954791   -0.0398339     0.0000005    0.0000001    -0.0000008   -0.0000017    -0.0024361    0.0005538 
   0.021459000     0.9954143   -0.0403103     0.0000003    0.0000002     0.0000003    0.0000016    -0.0024321    0.0005525 
   0.021708500     0.9954573   -0.0407442    -0.0000010    0.0000000    -0.0000003    0.0000009    -0.0024321    0.0005419 
   0.021958000     0.9955311   -0.0412334     0.0000002    0.0000012    -0.0000017    0.0000000    -0.0024318    0.0005236 
   0.022207500     0.9954338   -0.0417255    -0.0000001    0.0000005    -0.0000001    0.0000003    -0.0024143    0.0005147 
   0.022457000     0.9954883   -0.0422140     0.0000002    0.0000003     0.0000005   -0.0000012    -0.0024551    0.0005312 
   0.022706500     0.9955377   -0.0425443    -0.0000002    0.0000006    -0.0000006    0.0000003    -0.0024424    0.0005343 
   0.022956000     0.9952895   -0.0430937    -0.0000006    0.0000011     0.0000005   -0.0000007    -0.0024390    0.0005002 
   0.023205500     0.9953408   -0.0435695    -0.0000003   -0.0000013    -0.0000001   -0.0000012    -0.0024285    0.0005197 
   0.023455000     0.9951352   -0.0438789     0.0000006    0.0000003    -0.0000002    0.0000008    -0.0024184    0.0004877 
   0.023704500     0.9952090   -0.0443752     0.0000004   -0.0000005    -0.0000005   -0.0000014    -0.0024156    0.0004859 
   0.023954000     0.9950991   -0.0448919     0.0000012   -0.0000007    -0.0000002   -0.0000008    -0.0024110    0.0004858 
   0.024203500     0.9951546   -0.0452838    -0.0000011   -0.0000008     0.0000002   -0.0000007    -0.0024099    0.0004733 
   0.024453000     0.9951675   -0.0457396     0.0000004    0.0000001     0.0000007   -0.0000003    -0.0024039    0.0004511 
   0.024702500     0.9950965   -0.0461680     0.0000010   -0.0000008     0.0000007   -0.0000004    -0.0023860    0.0004445 
   0.024952000     0.9950138   -0.0465718     0.0000000   -0.0000007     0.0000007    0.0000003    -0.0023706    0.0004550 
   0.025201500     0.9954637   -0.0468994    -0.0000008    0.0000000     0.0000010    0.0000007    -0.0024173    0.0004536 
   0.025451000     0.9950747   -0.0473603    -0.0000003    0.0000003    -0.0000004   -0.0000006    -0.0023620    0.0004277 
   0.025700500     0.9949668   -0.0480071     0.0000002    0.0000008     0.0000006    0.0000007    -0.0023623    0.0004127 
   0.025950000     0.9949765   -0.0483769     0.0000004    0.0000005    -0.0000010   -0.0000001    -0.0023499    0.0004191 
   0.026199500     0.9949914   -0.0489029    -0.0000004   -0.0000002    -0.0000012   -0.0000005    -0.0023383    0.0004014 
   0.026449000     0.9948182   -0.0494560     0.0000009    0.0000005     0.0000003    0.0000018    -0.0023296    0.0003969 
   0.026698500     0.9948360   -0.0496867    -0.0000001   -0.0000007     0.0000000    0.0000004    -0.0023186    0.0003832 
   0.026948000     0.9947292   -0.0501379    -0.0000004    0.0000005     0.0000008    0.0000011    -0.0023101    0.0003761 
   0.027197500     0.9947994   -0.0506544    -0.0000007    0.0000001    -0.0000002    0.0000001    -0.0023011    0.0003696 
   0.027447000     0.9947903   -0.0509715    -0.0000004    0.0000001     0.0000004    0.0000006    -0.0022855    0.0003605 
   0.027696500     0.9947073   -0.0513949    -0.0000008    0.0000001    -0.0000001    0.0000008    -0.0022732    0.0003612 
   0.027946000     0.9947914   -0.0518651    -0.0000007   -0.0000011    -0.0000007    0.0000000    -0.0022645    0.0003499 
   0.028195500     0.9946106   -0.0521562     0.0000015   -0.0000010    -0.0000003    0.0000000    -0.0022569    0.0003424 
   0.028445000     0.9945392   -0.0526630    -0.0000014   -0.0000001     0.0000010   -0.0000008    -0.0022348    0.0003428 
   0.028694500     0.9944847   -0.0531033    -0.0000009   -0.0000011    -0.0000005    0.0000005    -0.0022304    0.0003212 
   0.028944000     0.9943068   -0.0536931     0.0000001   -0.0000002     0.0000001    0.0000006    -0.0021994    0.0003224 
   0.029193500     0.9944276   -0.0541856     0.0000000   -0.0000011     0.0000010   -0.0000002    -0.0022026    0.0003226 
   0.029443000     0.9942969   -0.0546096    -0.0000005    0.0000010    -0.0000005    0.0000003    -0.0021765    0.0003150 
   0.029692500     0.9942428   -0.0550960    -0.0000006   -0.0000002     0.0000008    0.0000001    -0.0021664    0.0003240 
   0.029942000     0.9941934   -0.0555419    -0.0000018   -0.0000001     0.0000007    0.0000008    -0.0021454    0.0003078 
   0.030191500     0.9943265   -0.0557564    -0.0000006    0.0000008     0.0000011   -0.0000002    -0.0021332    0.0003158 
   0.030441000     0.9942124   -0.0562712     0.0000014   -0.0000003     0.0000004    0.0000003    -0.0021217    0.0003078 
   0.030690500     0.9942329   -0.0566267     0.0000003    0.0000016     0.0000002    0.0000019    -0.0021012    0.0002944 
   0.030940000     0.9941863   -0.0571179     0.0000005   -0.0000005    -0.0000005   -0.0000006    -0.0020874    0.0003063 
   0.031189500     0.9941859   -0.0575122    -0.0000012   -0.0000008    -0.0000007   -0.0000008    -0.0020734    0.0003056 
   0.031439000     0.9941261   -0.0580105     0.0000008    0.0000000    -0.0000001   -0.0000005    -0.0020580    0.0003000 
   0.031688500     0.9940537   -0.0585126    -0.0000008   -0.0000005     0.0000004    0.0000006    -0.0020633    0.0002968 
   0.031938000     0.9940306   -0.0590842     0.0000007   -0.0000003    -0.0000011   -0.0000001    -0.0020283    0.0002983 
   0.032187500     0.9940252   -0.0592427    -0.0000004   -0.0000004    -0.0000004    0.0000011    -0.0020178    0.0002977 
   0.032437000     0.9939285   -0.0597761    -0.0000003    0.0000004    -0.0000003    0.0000001    -0.0019979    0.0002943 
   0.032686500     0.9940407   -0.0599528     0.0000002    0.0000018    -0.0000004    0.0000001    -0.0019705    0.0002453 
   0.032936000     0.9939144   -0.0607374    -0.0000003    0.0000003     0.0000017    0.0000003    -0.0019598    0.0003100 
   0.033185500     0.9938443   -0.0609752     0.0000002   -0.0000006    -0.0000006    0.0000010    -0.0019245    0.0002472 
   0.033435000     0.9937708   -0.0615393     0.0000005    0.0000004     0.0000007    0.0000006    -0.0019284    0.0003186 
   0.033684500     0.9937499   -0.0621286    -0.0000004   -0.0000007    -0.0000007   -0.0000004    -0.0019041    0.0003140 
   0.033934000     0.9936413   -0.0625465     0.0000000   -0.0000002    -0.0000004    0.0000003    -0.0018881    0.0003158 
   0.034183500     0.9936843   -0.0631034    -0.0000004   -0.0000004     0.0000013   -0.0000010    -0.0018738    0.0003191 
   0.034433000     0.9937562   -0.0634891    -0.0000006   -0.0000007    -0.0000012   -0.0000001    -0.0018587    0.0003297 
   0.034682500     0.9937430   -0.0639636     0.0000009   -0.0000010     0.0000018    0.0000006    -0.0018466    0.0003321 
   0.034932000     0.9937166   -0.0643328    -0.0000001   -0.0000001     0.0000000   -0.0000003    -0.0018222    0.0003479 
   0.035181500     0.9936572   -0.0647396     0.0000002   -0.0000002     0.0000002   -0.0000005    -0.0018049    0.0003477 
   0.035431000     0.9937151   -0.0651375     0.0000010    0.0000006     0.0000000    0.0000001    -0.0017872    0.0003431 
   0.035680500     0.9936159   -0.0655079     0.0000000   -0.0000004    -0.0000010    0.0000008    -0.0017639    0.0003661 
   0.035930000     0.9935046   -0.0660951     0.0000002    0.0000007     0.0000000    0.0000001    -0.0017529    0.0003593 
   0.036179500     0.9933512   -0.0665855    -0.0000007   -0.0000024     0.0000004   -0.0000010    -0.0017352    0.0003699 
   0.036429000     0.9933789   -0.0669981     0.0000000   -0.0000004     0.0000006   -0.0000002    -0.0017214    0.0003818 
   0.036678500     0.9934037   -0.0675455    -0.0000004   -0.0000007    -0.0000008    0.0000005    -0.0017009    0.0003829 
   0.036928000     0.9933139   -0.0680134    -0.0000013   -0.0000003    -0.0000015   -0.0000002    -0.0016729    0.0003821 
   0.037177500     0.9933392   -0.0684783    -0.0000001    0.0000000     0.0000006    0.0000007    -0.0016543    0.0004002 
   0.037427000     0.9933487   -0.0687802    -0.0000006    0.0000005     0.0000001    0.0000001    -0.0016286    0.0004085 
   0.037676500     0.9933290   -0.0691996    -0.0000013    0.0000005    -0.0000001   -0.0000007    -0.0016088    0.0004097 
   0.037926000     0.9933550   -0.0696031     0.0000006   -0.0000002    -0.0000001   -0.0000004    -0.0015799    0.0004231 
   0.038175500     0.9932898   -0.0700580    -0.0000002    0.0000000    -0.0000005   -0.0000004    -0.0015611    0.0004435 
   0.038425000     0.9932521   -0.0704307     0.0000004    0.0000008     0.0000009   -0.0000009    -0.0015408    0.0004441 
   0.038674500     0.9932308   -0.0709023     0.0000003   -0.0000010     0.0000008    0.0000003    -0.0015287    0.0004733 
   0.038924000     0.9931051   -0.0714570     0.0000004   -0.0000013    -0.0000002    0.0000003    -0.0015219    0.0004883 
   0.039173500     0.9931452   -0.0719956    -0.0000005    0.0000003    -0.0000002   -0.0000001    -0.0014942    0.0004947 
   0.039423000     0.9931525   -0.0724752     0.0000004    0.0000014    -0.0000004    0.0000000    -0.0014529    0.0005174 
   0.039672500     0.9930948   -0.0725003     0.0000001    0.0000009    -0.0000002    0.0000006    -0.0013972    0.0004778 
   0.039922000     0.9932910   -0.0729426     0.0000001    0.0000004    -0.0000008    0.0000014    -0.0014552    0.0004660 
   0.040171500     0.9933206   -0.0734079     0.0000006   -0.0000002    -0.0000004   -0.0000007    -0.0014229    0.0004814 
