! MS46122B
! 1746301/73750021
! 8/7/2023 3:03:02 PM
! C:\USERS\SPEGWAL\DOWNLOADS\SAURABH\REACH\NODES\FRONT END\MEASUREMENTS\MEASURED S-PARAMETER_07-08-2023\MS-3\P2_J1\J4_ON.S2P
! CHANNEL.1
! TR.MEASUREMENT
! CORRECTED.DATA
# GHZ S RI R 50.0
! FREQ.GHZ         S11RE         S11IM         S21RE         S21IM         S12RE         S12IM         S22RE         S22IM         
!; PortSelection: Port_12
   0.001000000     1.0027580   -0.0092104    -0.0000024   -0.0000008     0.0000024   -0.0000007    -0.0045287    0.0031873 
   0.001249500     1.0026940   -0.0077442     0.0000001    0.0000000     0.0000006   -0.0000013    -0.0050457    0.0031456 
   0.001499000     1.0024380   -0.0079264     0.0000016    0.0000010    -0.0000004    0.0000005    -0.0052601    0.0033534 
   0.001748500     1.0023850   -0.0081909     0.0000006    0.0000001     0.0000003   -0.0000011    -0.0051982    0.0036031 
   0.001998000     1.0024380   -0.0084408    -0.0000022   -0.0000003    -0.0000007   -0.0000007    -0.0050308    0.0037427 
   0.002247500     1.0027950   -0.0095030    -0.0000002   -0.0000016     0.0000002    0.0000002    -0.0046279    0.0035153 
   0.002497000     1.0027830   -0.0098377     0.0000006    0.0000005     0.0000001   -0.0000008    -0.0043369    0.0035498 
   0.002746500     1.0029780   -0.0101212    -0.0000013    0.0000008     0.0000014    0.0000015    -0.0040663    0.0035469 
   0.002996000     1.0030300   -0.0104731    -0.0000008    0.0000000     0.0000003   -0.0000002    -0.0037557    0.0034138 
   0.003245500     1.0030450   -0.0108112    -0.0000006   -0.0000015     0.0000005    0.0000000    -0.0035161    0.0033257 
   0.003495000     1.0030130   -0.0110844    -0.0000006    0.0000008     0.0000007    0.0000014    -0.0032829    0.0032110 
   0.003744500     1.0031120   -0.0115487    -0.0000003   -0.0000002    -0.0000002    0.0000001    -0.0030571    0.0030133 
   0.003994000     1.0031910   -0.0119388    -0.0000010   -0.0000008    -0.0000002   -0.0000006    -0.0028694    0.0028186 
   0.004243500     1.0032640   -0.0122979     0.0000000   -0.0000005     0.0000017    0.0000000    -0.0024456    0.0025398 
   0.004493000     1.0033010   -0.0128561     0.0000001    0.0000007     0.0000002   -0.0000005    -0.0023087    0.0024016 
   0.004742500     1.0033190   -0.0132149    -0.0000006    0.0000006     0.0000000    0.0000004    -0.0022109    0.0022901 
   0.004992000     1.0034630   -0.0136251     0.0000000   -0.0000003    -0.0000003    0.0000000    -0.0021186    0.0021456 
   0.005241500     1.0035550   -0.0142461     0.0000004   -0.0000009    -0.0000006   -0.0000012    -0.0020388    0.0020023 
   0.005491000     1.0035770   -0.0147954    -0.0000008   -0.0000003    -0.0000013   -0.0000010    -0.0020059    0.0018871 
   0.005740500     1.0035760   -0.0152852     0.0000001    0.0000002    -0.0000001    0.0000007    -0.0019882    0.0017992 
   0.005990000     1.0035980   -0.0158234     0.0000007    0.0000001     0.0000005   -0.0000009    -0.0019762    0.0017028 
   0.006239500     1.0036860   -0.0163163     0.0000001    0.0000002     0.0000014   -0.0000006    -0.0019608    0.0016037 
   0.006489000     1.0037520   -0.0169695     0.0000000    0.0000012     0.0000008   -0.0000003    -0.0019690    0.0015181 
   0.006738500     1.0037980   -0.0174477     0.0000003    0.0000007     0.0000000   -0.0000004    -0.0019722    0.0014515 
   0.006988000     1.0037480   -0.0178754    -0.0000003   -0.0000007     0.0000008    0.0000007    -0.0019840    0.0013965 
   0.007237500     1.0036400   -0.0183278    -0.0000014    0.0000000     0.0000015    0.0000002    -0.0020034    0.0013531 
   0.007487000     1.0032950   -0.0184770     0.0000007   -0.0000005     0.0000015    0.0000008    -0.0020229    0.0013294 
   0.007736500     1.0029230   -0.0186703    -0.0000003   -0.0000002    -0.0000001    0.0000006    -0.0020244    0.0012867 
   0.007986000     1.0023270   -0.0187724    -0.0000001    0.0000003    -0.0000004   -0.0000003    -0.0020349    0.0012449 
   0.008235500     1.0014490   -0.0190271     0.0000004    0.0000003     0.0000011   -0.0000004    -0.0020489    0.0012160 
   0.008485000     1.0007300   -0.0190242     0.0000007    0.0000001     0.0000003    0.0000001    -0.0020672    0.0011801 
   0.008734500     0.9999778   -0.0191504    -0.0000007   -0.0000009    -0.0000002   -0.0000002    -0.0020875    0.0011549 
   0.008984000     0.9992394   -0.0192549    -0.0000003    0.0000008    -0.0000001    0.0000002    -0.0021075    0.0011084 
   0.009233500     0.9970613   -0.0182853     0.0000005   -0.0000004    -0.0000002   -0.0000005    -0.0021262    0.0010951 
   0.009483000     0.9970502   -0.0186511     0.0000000   -0.0000001     0.0000008    0.0000005    -0.0021293    0.0010629 
   0.009732500     0.9970597   -0.0192352     0.0000000   -0.0000008     0.0000001    0.0000003    -0.0021393    0.0010406 
   0.009982000     0.9970101   -0.0195799     0.0000005    0.0000007    -0.0000006    0.0000007    -0.0021572    0.0010268 
   0.010231500     0.9968758   -0.0200352     0.0000008   -0.0000001    -0.0000006    0.0000000    -0.0021700    0.0010182 
   0.010481000     0.9967968   -0.0204784     0.0000007   -0.0000002     0.0000008   -0.0000001    -0.0021874    0.0010079 
   0.010730500     0.9967614   -0.0210736     0.0000000    0.0000007     0.0000004   -0.0000002    -0.0021999    0.0010099 
   0.010980000     0.9967691   -0.0215617     0.0000005    0.0000001     0.0000000    0.0000002    -0.0022087    0.0009838 
   0.011229500     0.9967508   -0.0219211    -0.0000008   -0.0000002     0.0000003   -0.0000010    -0.0022196    0.0009850 
   0.011479000     0.9966425   -0.0224768     0.0000013    0.0000003    -0.0000003    0.0000008    -0.0022242    0.0009708 
   0.011728500     0.9968361   -0.0228429    -0.0000001    0.0000003     0.0000004    0.0000000    -0.0022463    0.0009461 
   0.011978000     0.9967422   -0.0231664    -0.0000001    0.0000002    -0.0000010    0.0000000    -0.0022522    0.0009501 
   0.012227500     0.9967963   -0.0237415     0.0000004    0.0000005     0.0000013   -0.0000001    -0.0022684    0.0009459 
   0.012477000     0.9966737   -0.0242345    -0.0000001    0.0000006    -0.0000004    0.0000002    -0.0022876    0.0009123 
   0.012726500     0.9967156   -0.0246403    -0.0000005    0.0000010     0.0000002    0.0000000    -0.0022893    0.0009009 
   0.012976000     0.9967541   -0.0252118     0.0000006    0.0000009     0.0000005   -0.0000008    -0.0023006    0.0008866 
   0.013225500     0.9965695   -0.0256439    -0.0000003    0.0000000    -0.0000003    0.0000005    -0.0023105    0.0008678 
   0.013475000     0.9966004   -0.0260078    -0.0000003    0.0000008     0.0000010   -0.0000008    -0.0023290    0.0008469 
   0.013724500     0.9964867   -0.0264825     0.0000011    0.0000002     0.0000009   -0.0000001    -0.0023388    0.0008579 
   0.013974000     0.9965122   -0.0270008     0.0000007   -0.0000007    -0.0000003    0.0000007    -0.0023436    0.0008393 
   0.014223500     0.9964660   -0.0273871    -0.0000005   -0.0000014     0.0000011    0.0000002    -0.0023499    0.0008297 
   0.014473000     0.9963627   -0.0278330    -0.0000001   -0.0000011     0.0000003    0.0000009    -0.0023594    0.0008375 
   0.014722500     0.9963738   -0.0283456     0.0000005   -0.0000006     0.0000004   -0.0000008    -0.0023530    0.0008126 
   0.014972000     0.9964271   -0.0288665    -0.0000008   -0.0000010     0.0000007    0.0000014    -0.0023598    0.0008033 
   0.015221500     0.9964055   -0.0292537     0.0000009   -0.0000010    -0.0000004   -0.0000001    -0.0023683    0.0008150 
   0.015471000     0.9962897   -0.0296091     0.0000004   -0.0000002    -0.0000001   -0.0000001    -0.0023862    0.0007971 
   0.015720500     0.9962128   -0.0300587    -0.0000009    0.0000009    -0.0000002    0.0000015    -0.0023912    0.0007973 
   0.015970000     0.9962062   -0.0304401    -0.0000005   -0.0000006    -0.0000008    0.0000010    -0.0024058    0.0007799 
   0.016219500     0.9961042   -0.0309672     0.0000002    0.0000002     0.0000002    0.0000001    -0.0024179    0.0007822 
   0.016469000     0.9961377   -0.0313982    -0.0000005    0.0000002     0.0000003   -0.0000005    -0.0024282    0.0007713 
   0.016718500     0.9960882   -0.0319446     0.0000002    0.0000005     0.0000002    0.0000003    -0.0024385    0.0007678 
   0.016968000     0.9961498   -0.0324064    -0.0000003   -0.0000005     0.0000004    0.0000004    -0.0024335    0.0007288 
   0.017217500     0.9960644   -0.0326789     0.0000003    0.0000007     0.0000000    0.0000003    -0.0024443    0.0007239 
   0.017467000     0.9961412   -0.0331724    -0.0000008   -0.0000010     0.0000002    0.0000009    -0.0024576    0.0007268 
   0.017716500     0.9961609   -0.0336829     0.0000004    0.0000012    -0.0000004    0.0000004    -0.0024331    0.0007181 
   0.017966000     0.9961011   -0.0341396     0.0000009   -0.0000005    -0.0000001   -0.0000001    -0.0024467    0.0006865 
   0.018215500     0.9960950   -0.0347128    -0.0000004    0.0000002    -0.0000012   -0.0000010    -0.0024285    0.0006832 
   0.018465000     0.9960063   -0.0350569     0.0000022    0.0000001    -0.0000010    0.0000013    -0.0024450    0.0006818 
   0.018714500     0.9959694   -0.0354693     0.0000012   -0.0000003    -0.0000005   -0.0000002    -0.0024307    0.0006638 
   0.018964000     0.9958372   -0.0359869    -0.0000005    0.0000004    -0.0000011    0.0000002    -0.0024409    0.0006548 
   0.019213500     0.9958420   -0.0364303    -0.0000005    0.0000001    -0.0000004    0.0000009    -0.0024278    0.0006379 
   0.019463000     0.9957471   -0.0368372    -0.0000005    0.0000000     0.0000007   -0.0000005    -0.0024244    0.0006429 
   0.019712500     0.9956546   -0.0372784    -0.0000010    0.0000003     0.0000008    0.0000000    -0.0024314    0.0006319 
   0.019962000     0.9957058   -0.0376552    -0.0000010    0.0000005    -0.0000003   -0.0000004    -0.0024293    0.0006214 
   0.020211500     0.9957299   -0.0381030     0.0000006   -0.0000016    -0.0000008   -0.0000007    -0.0024213    0.0006160 
   0.020461000     0.9956630   -0.0385501    -0.0000004    0.0000008    -0.0000002    0.0000006    -0.0024339    0.0006010 
   0.020710500     0.9955655   -0.0389656    -0.0000013    0.0000007     0.0000008    0.0000006    -0.0024271    0.0005806 
   0.020960000     0.9955999   -0.0395446     0.0000009    0.0000006    -0.0000011   -0.0000006    -0.0024467    0.0005797 
   0.021209500     0.9954113   -0.0398655    -0.0000003    0.0000004    -0.0000004   -0.0000009    -0.0024265    0.0005636 
   0.021459000     0.9954834   -0.0403848     0.0000009    0.0000006     0.0000006    0.0000010    -0.0024353    0.0005612 
   0.021708500     0.9954454   -0.0408596    -0.0000006    0.0000009     0.0000004   -0.0000002    -0.0024313    0.0005383 
   0.021958000     0.9954898   -0.0414041     0.0000004    0.0000006     0.0000004   -0.0000004    -0.0024338    0.0005284 
   0.022207500     0.9955139   -0.0417801     0.0000010   -0.0000002     0.0000004   -0.0000003    -0.0024192    0.0005153 
   0.022457000     0.9955295   -0.0423971     0.0000012   -0.0000012    -0.0000003    0.0000005    -0.0024473    0.0005438 
   0.022706500     0.9955848   -0.0426753     0.0000002   -0.0000002    -0.0000003    0.0000006    -0.0024527    0.0005238 
   0.022956000     0.9952711   -0.0432206    -0.0000003    0.0000003     0.0000010   -0.0000009    -0.0024384    0.0005066 
   0.023205500     0.9953759   -0.0436694     0.0000007   -0.0000006    -0.0000004   -0.0000011    -0.0024385    0.0005189 
   0.023455000     0.9951662   -0.0440008     0.0000005    0.0000005     0.0000001   -0.0000001    -0.0024240    0.0004968 
   0.023704500     0.9951747   -0.0445216     0.0000002   -0.0000003     0.0000006    0.0000010    -0.0024164    0.0004961 
   0.023954000     0.9951203   -0.0449971    -0.0000008   -0.0000009     0.0000004    0.0000001    -0.0024134    0.0004814 
   0.024203500     0.9951167   -0.0454406    -0.0000002    0.0000003     0.0000018   -0.0000006    -0.0024050    0.0004715 
   0.024453000     0.9950943   -0.0458281     0.0000008   -0.0000011     0.0000002    0.0000005    -0.0024018    0.0004509 
   0.024702500     0.9950772   -0.0462946     0.0000005   -0.0000005     0.0000010    0.0000003    -0.0023921    0.0004534 
   0.024952000     0.9950032   -0.0467706    -0.0000017    0.0000005    -0.0000003    0.0000003    -0.0023806    0.0004382 
   0.025201500     0.9954519   -0.0470151    -0.0000009    0.0000005     0.0000014    0.0000000    -0.0024253    0.0004529 
   0.025451000     0.9949943   -0.0474681     0.0000001    0.0000011    -0.0000009   -0.0000003    -0.0023653    0.0004342 
   0.025700500     0.9949935   -0.0480773    -0.0000012   -0.0000006     0.0000002   -0.0000018    -0.0023632    0.0004104 
   0.025950000     0.9949961   -0.0485544     0.0000005    0.0000010    -0.0000006   -0.0000003    -0.0023497    0.0004204 
   0.026199500     0.9949440   -0.0489963     0.0000007    0.0000017    -0.0000002    0.0000002    -0.0023519    0.0004009 
   0.026449000     0.9948503   -0.0495562    -0.0000001    0.0000005    -0.0000003    0.0000011    -0.0023338    0.0003948 
   0.026698500     0.9948620   -0.0498279    -0.0000004    0.0000001     0.0000006   -0.0000011    -0.0023284    0.0003886 
   0.026948000     0.9947291   -0.0503427    -0.0000006   -0.0000009    -0.0000004    0.0000002    -0.0023066    0.0003797 
   0.027197500     0.9947790   -0.0507760     0.0000005   -0.0000010     0.0000006   -0.0000003    -0.0023050    0.0003753 
   0.027447000     0.9946861   -0.0511143     0.0000006    0.0000004     0.0000001   -0.0000001    -0.0022860    0.0003569 
   0.027696500     0.9947082   -0.0515584     0.0000010   -0.0000001     0.0000003    0.0000000    -0.0022755    0.0003512 
   0.027946000     0.9947225   -0.0520589     0.0000004    0.0000008    -0.0000004    0.0000006    -0.0022717    0.0003457 
   0.028195500     0.9946279   -0.0523364    -0.0000002    0.0000019    -0.0000006   -0.0000004    -0.0022537    0.0003392 
   0.028445000     0.9946064   -0.0527684     0.0000008    0.0000003     0.0000010    0.0000001    -0.0022355    0.0003414 
   0.028694500     0.9944448   -0.0532670    -0.0000004   -0.0000001    -0.0000006   -0.0000005    -0.0022295    0.0003260 
   0.028944000     0.9943304   -0.0538519    -0.0000004    0.0000001    -0.0000008    0.0000000    -0.0022165    0.0003282 
   0.029193500     0.9943669   -0.0543123     0.0000009   -0.0000001    -0.0000006   -0.0000005    -0.0021944    0.0003175 
   0.029443000     0.9943114   -0.0548062     0.0000004   -0.0000013     0.0000004    0.0000012    -0.0021857    0.0003122 
   0.029692500     0.9942617   -0.0553041    -0.0000003    0.0000004     0.0000005   -0.0000003    -0.0021727    0.0003262 
   0.029942000     0.9941666   -0.0557880     0.0000004    0.0000003     0.0000003   -0.0000001    -0.0021538    0.0003057 
   0.030191500     0.9942631   -0.0559090     0.0000004    0.0000008    -0.0000003    0.0000002    -0.0021344    0.0003044 
   0.030441000     0.9942127   -0.0564417    -0.0000003   -0.0000010    -0.0000004    0.0000001    -0.0021185    0.0003111 
   0.030690500     0.9941484   -0.0567839    -0.0000008   -0.0000001    -0.0000009    0.0000016    -0.0021069    0.0002992 
   0.030940000     0.9941242   -0.0572952    -0.0000001    0.0000008     0.0000004   -0.0000011    -0.0020918    0.0002996 
   0.031189500     0.9941629   -0.0577040    -0.0000006    0.0000011     0.0000008    0.0000001    -0.0020792    0.0003051 
   0.031439000     0.9940600   -0.0580912     0.0000004   -0.0000008    -0.0000003   -0.0000011    -0.0020636    0.0002952 
   0.031688500     0.9939986   -0.0587180    -0.0000010    0.0000000     0.0000003   -0.0000008    -0.0020592    0.0002953 
   0.031938000     0.9940087   -0.0592489     0.0000005   -0.0000005     0.0000003   -0.0000004    -0.0020276    0.0002905 
   0.032187500     0.9940092   -0.0594440    -0.0000013    0.0000009     0.0000012    0.0000000    -0.0020229    0.0002918 
   0.032437000     0.9939603   -0.0599702     0.0000010    0.0000009    -0.0000003   -0.0000007    -0.0020099    0.0002976 
   0.032686500     0.9939499   -0.0601521     0.0000014   -0.0000005     0.0000002   -0.0000002    -0.0019658    0.0002386 
   0.032936000     0.9938778   -0.0608266     0.0000004    0.0000011     0.0000011    0.0000000    -0.0019634    0.0003051 
   0.033185500     0.9938632   -0.0610852    -0.0000012    0.0000004     0.0000003   -0.0000004    -0.0019223    0.0002541 
   0.033435000     0.9937891   -0.0616727     0.0000006   -0.0000012    -0.0000006    0.0000009    -0.0019298    0.0003101 
   0.033684500     0.9936951   -0.0623050    -0.0000007   -0.0000005     0.0000007    0.0000001    -0.0019031    0.0003041 
   0.033934000     0.9936222   -0.0627149    -0.0000015    0.0000001     0.0000011    0.0000001    -0.0018952    0.0003203 
   0.034183500     0.9936779   -0.0632994     0.0000001    0.0000005    -0.0000002    0.0000010    -0.0018735    0.0003036 
   0.034433000     0.9937083   -0.0636914    -0.0000006   -0.0000001     0.0000003   -0.0000003    -0.0018649    0.0003328 
   0.034682500     0.9936823   -0.0641587     0.0000004    0.0000008     0.0000000   -0.0000002    -0.0018378    0.0003336 
   0.034932000     0.9936425   -0.0644908    -0.0000001    0.0000000     0.0000004    0.0000004    -0.0018287    0.0003301 
   0.035181500     0.9935871   -0.0649372     0.0000003    0.0000006     0.0000003    0.0000009    -0.0018146    0.0003462 
   0.035431000     0.9937056   -0.0652584    -0.0000001   -0.0000003     0.0000011    0.0000007    -0.0017880    0.0003336 
   0.035680500     0.9935722   -0.0657876    -0.0000001   -0.0000005    -0.0000009    0.0000010    -0.0017614    0.0003519 
   0.035930000     0.9934713   -0.0662286    -0.0000012   -0.0000002    -0.0000001   -0.0000014    -0.0017542    0.0003482 
   0.036179500     0.9933710   -0.0667702    -0.0000009   -0.0000010    -0.0000001   -0.0000018    -0.0017295    0.0003591 
   0.036429000     0.9933550   -0.0672015     0.0000015    0.0000003     0.0000011   -0.0000003    -0.0017170    0.0003651 
   0.036678500     0.9933849   -0.0677299     0.0000005    0.0000003    -0.0000007    0.0000000    -0.0017062    0.0003854 
   0.036928000     0.9932686   -0.0681733    -0.0000003    0.0000001     0.0000001   -0.0000007    -0.0016803    0.0003829 
   0.037177500     0.9932429   -0.0686451    -0.0000005   -0.0000001     0.0000013    0.0000001    -0.0016512    0.0003802 
   0.037427000     0.9933463   -0.0689415    -0.0000009    0.0000007    -0.0000006    0.0000006    -0.0016310    0.0003969 
   0.037676500     0.9933252   -0.0693696    -0.0000008   -0.0000003    -0.0000002   -0.0000005    -0.0016101    0.0004004 
   0.037926000     0.9933248   -0.0697845     0.0000009   -0.0000003    -0.0000002   -0.0000011    -0.0015842    0.0004155 
   0.038175500     0.9932541   -0.0701829     0.0000012    0.0000006    -0.0000014   -0.0000012    -0.0015642    0.0004272 
   0.038425000     0.9932189   -0.0706463    -0.0000010    0.0000005    -0.0000001   -0.0000001    -0.0015411    0.0004418 
   0.038674500     0.9931958   -0.0710795     0.0000003   -0.0000006     0.0000004   -0.0000015    -0.0015162    0.0004593 
   0.038924000     0.9930844   -0.0716609     0.0000002   -0.0000003    -0.0000007    0.0000001    -0.0015047    0.0004792 
   0.039173500     0.9930853   -0.0721377     0.0000008   -0.0000002    -0.0000001   -0.0000009    -0.0014934    0.0004771 
   0.039423000     0.9931330   -0.0726792     0.0000001    0.0000010     0.0000000   -0.0000001    -0.0014587    0.0004997 
   0.039672500     0.9930776   -0.0726648     0.0000014    0.0000000    -0.0000003   -0.0000007    -0.0014003    0.0004712 
   0.039922000     0.9932735   -0.0731229     0.0000001    0.0000001    -0.0000011    0.0000000    -0.0014471    0.0004575 
   0.040171500     0.9933077   -0.0736210     0.0000006   -0.0000016     0.0000004   -0.0000012    -0.0014279    0.0004634 
