! MS46122B
! 1746301/73750021
! 8/7/2023 3:09:09 PM
! C:\USERS\SPEGWAL\DOWNLOADS\SAURABH\REACH\NODES\FRONT END\MEASUREMENTS\MEASURED S-PARAMETER_07-08-2023\MS-3\P2_J2\J1_ON.S2P
! CHANNEL.1
! TR.MEASUREMENT
! CORRECTED.DATA
# GHZ S RI R 50.0
! FREQ.GHZ         S11RE         S11IM         S21RE         S21IM         S12RE         S12IM         S22RE         S22IM         
!; PortSelection: Port_12
   0.001000000     1.0055650   -0.0079838     0.0000018   -0.0000025     0.0000020   -0.0000015    -0.0055024    0.0031608 
   0.001249500     1.0027830   -0.0078381     0.0000011    0.0000014    -0.0000013    0.0000005    -0.0060443    0.0032320 
   0.001499000     1.0026100   -0.0079815    -0.0000010   -0.0000003    -0.0000009    0.0000021    -0.0062834    0.0034562 
   0.001748500     1.0025210   -0.0082369    -0.0000010    0.0000008     0.0000004   -0.0000005    -0.0062152    0.0036900 
   0.001998000     1.0025300   -0.0086647     0.0000006   -0.0000005    -0.0000009    0.0000003    -0.0060515    0.0038177 
   0.002247500     1.0029330   -0.0095808    -0.0000003    0.0000004     0.0000001    0.0000017    -0.0056313    0.0035844 
   0.002497000     1.0029830   -0.0098884    -0.0000001    0.0000005    -0.0000020   -0.0000002    -0.0053391    0.0036238 
   0.002746500     1.0029760   -0.0101681    -0.0000005   -0.0000008    -0.0000002   -0.0000002    -0.0050634    0.0036089 
   0.002996000     1.0031910   -0.0104723     0.0000001    0.0000004    -0.0000013   -0.0000010    -0.0047479    0.0034772 
   0.003245500     1.0031830   -0.0108384    -0.0000003    0.0000012    -0.0000001   -0.0000010    -0.0045086    0.0033972 
   0.003495000     1.0031300   -0.0111636    -0.0000006   -0.0000007    -0.0000003   -0.0000018    -0.0042580    0.0032743 
   0.003744500     1.0032480   -0.0116249     0.0000007   -0.0000013    -0.0000001    0.0000000    -0.0040353    0.0030650 
   0.003994000     1.0032830   -0.0120900     0.0000008    0.0000010    -0.0000004   -0.0000005    -0.0038352    0.0028650 
   0.004243500     1.0032870   -0.0124470    -0.0000001   -0.0000001     0.0000001    0.0000008    -0.0034135    0.0025657 
   0.004493000     1.0033720   -0.0128906    -0.0000002    0.0000004     0.0000001    0.0000010    -0.0032691    0.0024379 
   0.004742500     1.0034300   -0.0132981     0.0000005    0.0000004     0.0000011   -0.0000021    -0.0031901    0.0023271 
   0.004992000     1.0035130   -0.0137784     0.0000009    0.0000013    -0.0000014   -0.0000009    -0.0030954    0.0021893 
   0.005241500     1.0035710   -0.0142888     0.0000010   -0.0000001    -0.0000003   -0.0000007    -0.0030237    0.0020355 
   0.005491000     1.0037060   -0.0148151     0.0000010   -0.0000012    -0.0000005    0.0000000    -0.0029988    0.0019155 
   0.005740500     1.0037150   -0.0153374    -0.0000008    0.0000007     0.0000016    0.0000014    -0.0029725    0.0018248 
   0.005990000     1.0036970   -0.0158578    -0.0000010   -0.0000017     0.0000005    0.0000005    -0.0029566    0.0017294 
   0.006239500     1.0037420   -0.0163482    -0.0000005    0.0000004    -0.0000009   -0.0000006    -0.0029484    0.0016368 
   0.006489000     1.0038720   -0.0170068     0.0000006   -0.0000003     0.0000000    0.0000011    -0.0029572    0.0015554 
   0.006738500     1.0039490   -0.0174249    -0.0000008    0.0000000    -0.0000001   -0.0000005    -0.0029476    0.0014815 
   0.006988000     1.0038140   -0.0179450     0.0000001   -0.0000010    -0.0000007    0.0000001    -0.0029617    0.0014317 
   0.007237500     1.0037810   -0.0182556    -0.0000004   -0.0000008     0.0000006   -0.0000006    -0.0029907    0.0013826 
   0.007487000     1.0033230   -0.0185557    -0.0000004    0.0000009    -0.0000005    0.0000009    -0.0029957    0.0013477 
   0.007736500     1.0029650   -0.0187473     0.0000009    0.0000002    -0.0000004   -0.0000005    -0.0030042    0.0013047 
   0.007986000     1.0023110   -0.0188129     0.0000004    0.0000005     0.0000010   -0.0000008    -0.0030147    0.0012699 
   0.008235500     1.0014920   -0.0190071    -0.0000017   -0.0000007    -0.0000004    0.0000008    -0.0030412    0.0012370 
   0.008485000     1.0007570   -0.0190077    -0.0000007    0.0000013    -0.0000012    0.0000008    -0.0030562    0.0012158 
   0.008734500     0.9999495   -0.0191781     0.0000000    0.0000004    -0.0000005   -0.0000003    -0.0030527    0.0011783 
   0.008984000     0.9991865   -0.0192000     0.0000001   -0.0000006     0.0000006   -0.0000008    -0.0030757    0.0011434 
   0.009233500     0.9970173   -0.0182197     0.0000000   -0.0000005     0.0000003   -0.0000001    -0.0031111    0.0011230 
   0.009483000     0.9969702   -0.0186512    -0.0000009    0.0000009    -0.0000007    0.0000000    -0.0031095    0.0011024 
   0.009732500     0.9970446   -0.0191727    -0.0000015    0.0000004     0.0000000    0.0000001    -0.0031172    0.0010742 
   0.009982000     0.9969625   -0.0195104     0.0000003    0.0000007     0.0000014    0.0000010    -0.0031368    0.0010549 
   0.010231500     0.9968480   -0.0199539     0.0000006    0.0000000    -0.0000007   -0.0000001    -0.0031571    0.0010527 
   0.010481000     0.9968072   -0.0204695    -0.0000004    0.0000013    -0.0000006    0.0000015    -0.0031581    0.0010356 
   0.010730500     0.9967164   -0.0211417    -0.0000005   -0.0000001    -0.0000007   -0.0000016    -0.0031829    0.0010333 
   0.010980000     0.9967956   -0.0215371    -0.0000012   -0.0000001    -0.0000010   -0.0000011    -0.0032011    0.0010204 
   0.011229500     0.9967439   -0.0218739     0.0000001    0.0000003    -0.0000003    0.0000005    -0.0032050    0.0010101 
   0.011479000     0.9966424   -0.0224155     0.0000005    0.0000012    -0.0000005   -0.0000005    -0.0032182    0.0009911 
   0.011728500     0.9967374   -0.0228188     0.0000003    0.0000008    -0.0000004    0.0000000    -0.0032375    0.0009745 
   0.011978000     0.9966947   -0.0231425     0.0000002   -0.0000014    -0.0000002    0.0000001    -0.0032449    0.0009780 
   0.012227500     0.9967778   -0.0237238     0.0000009    0.0000001     0.0000003    0.0000009    -0.0032678    0.0009666 
   0.012477000     0.9966676   -0.0242247    -0.0000003    0.0000003     0.0000014   -0.0000001    -0.0032751    0.0009570 
   0.012726500     0.9966674   -0.0246347     0.0000006    0.0000001    -0.0000004    0.0000000    -0.0032908    0.0009356 
   0.012976000     0.9966579   -0.0251065     0.0000011   -0.0000003     0.0000000   -0.0000010    -0.0032887    0.0009138 
   0.013225500     0.9965464   -0.0255686    -0.0000013   -0.0000002     0.0000004    0.0000003    -0.0033081    0.0008967 
   0.013475000     0.9966004   -0.0260180     0.0000007    0.0000013     0.0000024    0.0000001    -0.0033252    0.0008877 
   0.013724500     0.9964536   -0.0265251     0.0000011   -0.0000001    -0.0000007    0.0000001    -0.0033371    0.0008848 
   0.013974000     0.9964844   -0.0269366    -0.0000003   -0.0000005    -0.0000004    0.0000003    -0.0033413    0.0008693 
   0.014223500     0.9964922   -0.0273260     0.0000003   -0.0000002    -0.0000007   -0.0000002    -0.0033512    0.0008637 
   0.014473000     0.9963933   -0.0278310     0.0000009    0.0000001     0.0000002    0.0000000    -0.0033625    0.0008611 
   0.014722500     0.9962825   -0.0283047    -0.0000008   -0.0000002     0.0000001   -0.0000009    -0.0033585    0.0008414 
   0.014972000     0.9963589   -0.0288215    -0.0000004   -0.0000018    -0.0000008   -0.0000011    -0.0033659    0.0008262 
   0.015221500     0.9963883   -0.0291963     0.0000001    0.0000000    -0.0000003   -0.0000002    -0.0033789    0.0008429 
   0.015471000     0.9963372   -0.0295246    -0.0000009   -0.0000002    -0.0000001    0.0000010    -0.0033798    0.0008330 
   0.015720500     0.9961908   -0.0299634    -0.0000006    0.0000006    -0.0000009   -0.0000002    -0.0033930    0.0008267 
   0.015970000     0.9961807   -0.0303764     0.0000004   -0.0000004    -0.0000010   -0.0000014    -0.0033973    0.0008168 
   0.016219500     0.9960411   -0.0309140    -0.0000003   -0.0000008     0.0000009    0.0000003    -0.0034140    0.0008073 
   0.016469000     0.9960857   -0.0314024    -0.0000003   -0.0000002    -0.0000003    0.0000006    -0.0034233    0.0008043 
   0.016718500     0.9960964   -0.0318335     0.0000008   -0.0000002     0.0000013    0.0000002    -0.0034372    0.0007913 
   0.016968000     0.9961474   -0.0323054    -0.0000010    0.0000004     0.0000008   -0.0000001    -0.0034424    0.0007545 
   0.017217500     0.9959940   -0.0326779    -0.0000003   -0.0000004     0.0000009   -0.0000005    -0.0034539    0.0007571 
   0.017467000     0.9960670   -0.0331356     0.0000000    0.0000006    -0.0000003    0.0000009    -0.0034496    0.0007512 
   0.017716500     0.9961734   -0.0336952    -0.0000001    0.0000000     0.0000003   -0.0000002    -0.0034456    0.0007368 
   0.017966000     0.9960106   -0.0341833    -0.0000001    0.0000006     0.0000001    0.0000007    -0.0034536    0.0007155 
   0.018215500     0.9961291   -0.0345586    -0.0000010   -0.0000007     0.0000001   -0.0000002    -0.0034556    0.0006990 
   0.018465000     0.9959859   -0.0349941    -0.0000005    0.0000000    -0.0000002    0.0000005    -0.0034502    0.0006939 
   0.018714500     0.9959527   -0.0354249    -0.0000002   -0.0000005    -0.0000014    0.0000000    -0.0034319    0.0006919 
   0.018964000     0.9958226   -0.0359509    -0.0000005    0.0000005     0.0000004    0.0000003    -0.0034380    0.0006771 
   0.019213500     0.9959173   -0.0363743    -0.0000004    0.0000005    -0.0000011    0.0000001    -0.0034200    0.0006691 
   0.019463000     0.9956986   -0.0368448     0.0000002   -0.0000001     0.0000001   -0.0000003    -0.0034425    0.0006544 
   0.019712500     0.9956705   -0.0372870     0.0000002   -0.0000006    -0.0000004   -0.0000004    -0.0034319    0.0006506 
   0.019962000     0.9957553   -0.0375622     0.0000002   -0.0000001    -0.0000002    0.0000002    -0.0034170    0.0006575 
   0.020211500     0.9956931   -0.0380439     0.0000007   -0.0000008     0.0000010   -0.0000003    -0.0034148    0.0006380 
   0.020461000     0.9956780   -0.0385361     0.0000010   -0.0000007     0.0000004    0.0000000    -0.0034273    0.0006279 
   0.020710500     0.9955989   -0.0389826    -0.0000012    0.0000003    -0.0000004    0.0000002    -0.0034274    0.0006161 
   0.020960000     0.9955278   -0.0394870     0.0000000   -0.0000008    -0.0000005   -0.0000005    -0.0034179    0.0006085 
   0.021209500     0.9954301   -0.0399106     0.0000004    0.0000012    -0.0000009    0.0000001    -0.0034164    0.0005840 
   0.021459000     0.9954312   -0.0403322    -0.0000002   -0.0000007     0.0000005    0.0000012    -0.0034220    0.0005843 
   0.021708500     0.9954591   -0.0408689    -0.0000004   -0.0000007     0.0000001    0.0000004    -0.0034330    0.0005556 
   0.021958000     0.9955159   -0.0413253     0.0000003    0.0000007    -0.0000005    0.0000005    -0.0034310    0.0005464 
   0.022207500     0.9954035   -0.0417376     0.0000005    0.0000009     0.0000006   -0.0000013    -0.0034250    0.0005345 
   0.022457000     0.9955414   -0.0422754    -0.0000001    0.0000003     0.0000001   -0.0000017    -0.0034372    0.0005580 
   0.022706500     0.9955438   -0.0426226    -0.0000004   -0.0000001    -0.0000003   -0.0000004    -0.0034265    0.0005474 
   0.022956000     0.9952361   -0.0431540     0.0000004   -0.0000007     0.0000003    0.0000006    -0.0034300    0.0005167 
   0.023205500     0.9952515   -0.0436012    -0.0000006    0.0000001     0.0000006   -0.0000006    -0.0034201    0.0005357 
   0.023455000     0.9951881   -0.0439724    -0.0000008   -0.0000011     0.0000008    0.0000000    -0.0034118    0.0005202 
   0.023704500     0.9951751   -0.0443796     0.0000005   -0.0000001     0.0000013   -0.0000006    -0.0034038    0.0005023 
   0.023954000     0.9950861   -0.0449429     0.0000001   -0.0000004     0.0000008   -0.0000001    -0.0034038    0.0004937 
   0.024203500     0.9951130   -0.0453641    -0.0000005    0.0000006    -0.0000003   -0.0000002    -0.0033936    0.0004774 
   0.024453000     0.9950581   -0.0458532    -0.0000006   -0.0000011     0.0000005   -0.0000002    -0.0033987    0.0004658 
   0.024702500     0.9950595   -0.0462136     0.0000010   -0.0000009    -0.0000003   -0.0000009    -0.0033787    0.0004670 
   0.024952000     0.9949875   -0.0466982     0.0000013    0.0000008    -0.0000003   -0.0000002    -0.0033829    0.0004489 
   0.025201500     0.9954054   -0.0469466     0.0000001   -0.0000002     0.0000006    0.0000007    -0.0034148    0.0004551 
   0.025451000     0.9950114   -0.0474331    -0.0000002   -0.0000010     0.0000006    0.0000010    -0.0033625    0.0004301 
   0.025700500     0.9949863   -0.0480583    -0.0000003   -0.0000002    -0.0000004    0.0000009    -0.0033493    0.0004229 
   0.025950000     0.9949559   -0.0484434    -0.0000001   -0.0000003    -0.0000011    0.0000003    -0.0033404    0.0004233 
   0.026199500     0.9948814   -0.0489752    -0.0000001   -0.0000001    -0.0000001    0.0000008    -0.0033317    0.0004090 
   0.026449000     0.9948525   -0.0494920     0.0000000    0.0000008    -0.0000011    0.0000008    -0.0033144    0.0004064 
   0.026698500     0.9947927   -0.0498167     0.0000004    0.0000001     0.0000003    0.0000002    -0.0033112    0.0003905 
   0.026948000     0.9947520   -0.0501782     0.0000001    0.0000007    -0.0000003   -0.0000002    -0.0033000    0.0003910 
   0.027197500     0.9947128   -0.0506642    -0.0000003    0.0000001     0.0000005   -0.0000007    -0.0032839    0.0003855 
   0.027447000     0.9946795   -0.0510238     0.0000005    0.0000010     0.0000008   -0.0000012    -0.0032620    0.0003776 
   0.027696500     0.9946327   -0.0515132     0.0000007   -0.0000012     0.0000020   -0.0000006    -0.0032485    0.0003630 
   0.027946000     0.9947646   -0.0519173    -0.0000012   -0.0000004    -0.0000005    0.0000006    -0.0032401    0.0003565 
   0.028195500     0.9945557   -0.0522621     0.0000004    0.0000003     0.0000007    0.0000003    -0.0032346    0.0003368 
   0.028445000     0.9945271   -0.0526919     0.0000015   -0.0000010    -0.0000003    0.0000014    -0.0032197    0.0003401 
   0.028694500     0.9944199   -0.0532241    -0.0000003    0.0000011    -0.0000007   -0.0000004    -0.0032093    0.0003307 
   0.028944000     0.9942952   -0.0537498     0.0000001    0.0000000     0.0000000    0.0000000    -0.0031840    0.0003255 
   0.029193500     0.9943328   -0.0542665    -0.0000007   -0.0000002    -0.0000003    0.0000004    -0.0031730    0.0003159 
   0.029443000     0.9942726   -0.0546761     0.0000007    0.0000005     0.0000002    0.0000000    -0.0031600    0.0003098 
   0.029692500     0.9942510   -0.0551936     0.0000005   -0.0000001     0.0000002    0.0000008    -0.0031542    0.0003176 
   0.029942000     0.9941710   -0.0556546    -0.0000002   -0.0000007    -0.0000006   -0.0000005    -0.0031236    0.0003123 
   0.030191500     0.9941513   -0.0558384    -0.0000012    0.0000003     0.0000002    0.0000007    -0.0031080    0.0003157 
   0.030441000     0.9941850   -0.0563240     0.0000003   -0.0000004     0.0000006   -0.0000003    -0.0031069    0.0003228 
   0.030690500     0.9941462   -0.0566283    -0.0000005    0.0000005    -0.0000011   -0.0000007    -0.0030823    0.0002940 
   0.030940000     0.9940955   -0.0572106     0.0000000   -0.0000003    -0.0000001    0.0000001    -0.0030698    0.0003092 
   0.031189500     0.9940796   -0.0575844     0.0000008    0.0000011     0.0000004   -0.0000010    -0.0030437    0.0003139 
   0.031439000     0.9940568   -0.0580614    -0.0000007   -0.0000004     0.0000008   -0.0000002    -0.0030268    0.0003161 
   0.031688500     0.9940120   -0.0586114     0.0000002    0.0000009    -0.0000001    0.0000000    -0.0030265    0.0003075 
   0.031938000     0.9939582   -0.0591194    -0.0000021   -0.0000003    -0.0000010    0.0000005    -0.0029933    0.0003068 
   0.032187500     0.9939957   -0.0593557     0.0000003    0.0000014     0.0000001   -0.0000011    -0.0029890    0.0003087 
   0.032437000     0.9938752   -0.0598279     0.0000017    0.0000000    -0.0000007    0.0000003    -0.0029687    0.0003088 
   0.032686500     0.9939724   -0.0599936    -0.0000016   -0.0000009    -0.0000005    0.0000010    -0.0029184    0.0002482 
   0.032936000     0.9938560   -0.0607543     0.0000001    0.0000005     0.0000001   -0.0000004    -0.0029271    0.0003128 
   0.033185500     0.9938306   -0.0609889    -0.0000008    0.0000000     0.0000004    0.0000005    -0.0028753    0.0002474 
   0.033435000     0.9937831   -0.0616068    -0.0000005   -0.0000010     0.0000006   -0.0000003    -0.0028895    0.0003118 
   0.033684500     0.9936721   -0.0621371    -0.0000004    0.0000003    -0.0000011    0.0000008    -0.0028629    0.0003088 
   0.033934000     0.9935822   -0.0626831    -0.0000004   -0.0000003     0.0000006    0.0000003    -0.0028449    0.0003177 
   0.034183500     0.9936830   -0.0631619     0.0000000   -0.0000003    -0.0000004   -0.0000011    -0.0028246    0.0003196 
   0.034433000     0.9937022   -0.0635371     0.0000000    0.0000004     0.0000007    0.0000002    -0.0028239    0.0003340 
   0.034682500     0.9936429   -0.0640368    -0.0000014   -0.0000010     0.0000014    0.0000008    -0.0027956    0.0003324 
   0.034932000     0.9935954   -0.0643838     0.0000003   -0.0000009     0.0000004    0.0000003    -0.0027876    0.0003428 
   0.035181500     0.9935619   -0.0648020    -0.0000001    0.0000009     0.0000005   -0.0000006    -0.0027697    0.0003530 
   0.035431000     0.9936257   -0.0651964    -0.0000021    0.0000024    -0.0000001    0.0000000    -0.0027419    0.0003516 
   0.035680500     0.9934630   -0.0656540    -0.0000009   -0.0000002    -0.0000007   -0.0000009    -0.0027242    0.0003759 
   0.035930000     0.9934493   -0.0661858    -0.0000010    0.0000013     0.0000011    0.0000007    -0.0027079    0.0003740 
   0.036179500     0.9932823   -0.0666638     0.0000000   -0.0000009     0.0000004   -0.0000005    -0.0026873    0.0003760 
   0.036429000     0.9932854   -0.0670531     0.0000004   -0.0000005     0.0000007   -0.0000003    -0.0026648    0.0003813 
   0.036678500     0.9933233   -0.0675928    -0.0000006    0.0000002    -0.0000005   -0.0000006    -0.0026530    0.0003922 
   0.036928000     0.9932474   -0.0680763    -0.0000005   -0.0000008    -0.0000004    0.0000002    -0.0026306    0.0003956 
   0.037177500     0.9932492   -0.0685435    -0.0000006    0.0000010    -0.0000002    0.0000005    -0.0025967    0.0004053 
   0.037427000     0.9933228   -0.0688153     0.0000008   -0.0000010    -0.0000014    0.0000001    -0.0025745    0.0004099 
   0.037676500     0.9932727   -0.0692494     0.0000003    0.0000018    -0.0000003    0.0000000    -0.0025673    0.0004152 
   0.037926000     0.9932814   -0.0696322    -0.0000007    0.0000009    -0.0000001    0.0000004    -0.0025306    0.0004248 
   0.038175500     0.9932190   -0.0701175     0.0000003    0.0000022    -0.0000013    0.0000004    -0.0025102    0.0004340 
   0.038425000     0.9931748   -0.0705204     0.0000001   -0.0000008     0.0000000    0.0000004    -0.0024913    0.0004433 
   0.038674500     0.9931422   -0.0709503     0.0000004   -0.0000005     0.0000008    0.0000005    -0.0024752    0.0004632 
   0.038924000     0.9930500   -0.0715621     0.0000006   -0.0000010    -0.0000001    0.0000000    -0.0024675    0.0004855 
   0.039173500     0.9930701   -0.0720725     0.0000006    0.0000002     0.0000003    0.0000005    -0.0024398    0.0004915 
   0.039423000     0.9930912   -0.0725437     0.0000000    0.0000002    -0.0000001    0.0000001    -0.0024009    0.0005045 
   0.039672500     0.9930047   -0.0725510     0.0000000   -0.0000004     0.0000011    0.0000007    -0.0023459    0.0004763 
   0.039922000     0.9932214   -0.0729986    -0.0000002    0.0000010     0.0000008   -0.0000001    -0.0024025    0.0004592 
   0.040171500     0.9932599   -0.0734653    -0.0000009    0.0000006     0.0000001   -0.0000002    -0.0023735    0.0004750 
