! MS46122B
! 1746301/73750021
! 8/7/2023 3:07:22 PM
! C:\USERS\SPEGWAL\DOWNLOADS\SAURABH\REACH\NODES\FRONT END\MEASUREMENTS\MEASURED S-PARAMETER_07-08-2023\MS-3\P2_J2\J2_ON.S2P
! CHANNEL.1
! TR.MEASUREMENT
! CORRECTED.DATA
# GHZ S RI R 50.0
! FREQ.GHZ         S11RE         S11IM         S21RE         S21IM         S12RE         S12IM         S22RE         S22IM         
!; PortSelection: Port_12
   0.001000000    -0.0017867    0.0024803     1.0000960   -0.0043389     0.9986483   -0.0043698    -0.0005021    0.0032787 
   0.001249500    -0.0019223    0.0028122     0.9999468   -0.0032902     0.9996139   -0.0048140    -0.0007668    0.0030381 
   0.001499000    -0.0020889    0.0030824     0.9998236   -0.0032795     0.9996005   -0.0052064    -0.0009453    0.0031428 
   0.001748500    -0.0020548    0.0033003     0.9997182   -0.0034621     0.9995145   -0.0055409    -0.0009520    0.0032180 
   0.001998000    -0.0018663    0.0034670     0.9996289   -0.0035923     0.9993554   -0.0058821    -0.0008766    0.0032607 
   0.002247500    -0.0014560    0.0030869     0.9995114   -0.0039636     0.9992618   -0.0064664    -0.0005283    0.0028856 
   0.002497000    -0.0012015    0.0031346     0.9993743   -0.0040110     0.9991431   -0.0067321    -0.0003756    0.0028314 
   0.002746500    -0.0009255    0.0031291     0.9992661   -0.0041557     0.9990908   -0.0069281    -0.0001789    0.0028095 
   0.002996000    -0.0006802    0.0030947     0.9991723   -0.0042045     0.9990070   -0.0071871     0.0000004    0.0027544 
   0.003245500    -0.0004173    0.0029774     0.9990832   -0.0042649     0.9988533   -0.0073693     0.0001423    0.0026539 
   0.003495000    -0.0001755    0.0028918     0.9988789   -0.0044070     0.9988374   -0.0075779     0.0003124    0.0025890 
   0.003744500     0.0000396    0.0027486     0.9987945   -0.0043937     0.9987665   -0.0078211     0.0004658    0.0024630 
   0.003994000     0.0002335    0.0025819     0.9987745   -0.0045545     0.9986939   -0.0080334     0.0005937    0.0023158 
   0.004243500     0.0004052    0.0024097     0.9986021   -0.0047949     0.9984595   -0.0083160     0.0009935    0.0019233 
   0.004493000     0.0005542    0.0022296     0.9985493   -0.0049750     0.9984351   -0.0083741     0.0010853    0.0018308 
   0.004742500     0.0006764    0.0020535     0.9984560   -0.0051432     0.9983547   -0.0084564     0.0011518    0.0017233 
   0.004992000     0.0007897    0.0018936     0.9984879   -0.0053514     0.9982221   -0.0085758     0.0012231    0.0016405 
   0.005241500     0.0008755    0.0017416     0.9985658   -0.0055880     0.9981534   -0.0086984     0.0012605    0.0015517 
   0.005491000     0.0009326    0.0016105     0.9985431   -0.0057719     0.9980947   -0.0088368     0.0012921    0.0014452 
   0.005740500     0.0009784    0.0014768     0.9985313   -0.0058827     0.9979745   -0.0090305     0.0013124    0.0013732 
   0.005990000     0.0009964    0.0013699     0.9985128   -0.0061429     0.9979259   -0.0091737     0.0013330    0.0012933 
   0.006239500     0.0010397    0.0012698     0.9984299   -0.0063710     0.9977970   -0.0094496     0.0013557    0.0012159 
   0.006489000     0.0010542    0.0011698     0.9983929   -0.0065972     0.9978055   -0.0096823     0.0013643    0.0011766 
   0.006738500     0.0010671    0.0010931     0.9984277   -0.0069189     0.9977372   -0.0099134     0.0013810    0.0011131 
   0.006988000     0.0010641    0.0010165     0.9984149   -0.0071087     0.9976739   -0.0100584     0.0013643    0.0010866 
   0.007237500     0.0010545    0.0009472     0.9983752   -0.0072284     0.9977542   -0.0102362     0.0013491    0.0010338 
   0.007487000     0.0010632    0.0008873     0.9983889   -0.0075345     0.9976666   -0.0104521     0.0013421    0.0009795 
   0.007736500     0.0010414    0.0008379     0.9983695   -0.0077804     0.9976993   -0.0106732     0.0013388    0.0009343 
   0.007986000     0.0010318    0.0007824     0.9983642   -0.0080731     0.9977111   -0.0109003     0.0013297    0.0008975 
   0.008235500     0.0010110    0.0007442     0.9983360   -0.0082853     0.9976596   -0.0110747     0.0013182    0.0008693 
   0.008485000     0.0010106    0.0007021     0.9982774   -0.0085969     0.9976203   -0.0113538     0.0013152    0.0008342 
   0.008734500     0.0009871    0.0006682     0.9983878   -0.0087242     0.9976560   -0.0115246     0.0012948    0.0008095 
   0.008984000     0.0009714    0.0006170     0.9983253   -0.0090077     0.9976349   -0.0117960     0.0012905    0.0007721 
   0.009233500     0.0009514    0.0005801     0.9984695   -0.0093326     0.9977377   -0.0119506     0.0012691    0.0007438 
   0.009483000     0.0009437    0.0005403     0.9983648   -0.0095296     0.9975325   -0.0121473     0.0012713    0.0007125 
   0.009732500     0.0009243    0.0005145     0.9984010   -0.0097154     0.9976019   -0.0124466     0.0012644    0.0006849 
   0.009982000     0.0009186    0.0004659     0.9982325   -0.0099415     0.9975702   -0.0126500     0.0012436    0.0006734 
   0.010231500     0.0008983    0.0004543     0.9983788   -0.0103301     0.9975036   -0.0129339     0.0012305    0.0006449 
   0.010481000     0.0008726    0.0004280     0.9982827   -0.0105581     0.9975404   -0.0131879     0.0012280    0.0006207 
   0.010730500     0.0008667    0.0004094     0.9982981   -0.0107909     0.9975469   -0.0134076     0.0012069    0.0006053 
   0.010980000     0.0008376    0.0004026     0.9983142   -0.0108999     0.9975199   -0.0135321     0.0011949    0.0005835 
   0.011229500     0.0008331    0.0003657     0.9982799   -0.0111045     0.9975726   -0.0138614     0.0011804    0.0005606 
   0.011479000     0.0008014    0.0003364     0.9983122   -0.0113835     0.9974675   -0.0140683     0.0011542    0.0005370 
   0.011728500     0.0007786    0.0003061     0.9983668   -0.0117483     0.9975834   -0.0142339     0.0011485    0.0005068 
   0.011978000     0.0007566    0.0002778     0.9983976   -0.0119200     0.9975063   -0.0144398     0.0011277    0.0004870 
   0.012227500     0.0007317    0.0002789     0.9983367   -0.0120987     0.9974439   -0.0146023     0.0011157    0.0004707 
   0.012477000     0.0007178    0.0002734     0.9983117   -0.0122547     0.9973500   -0.0149710     0.0011021    0.0004545 
   0.012726500     0.0007088    0.0002496     0.9982955   -0.0124932     0.9973513   -0.0152509     0.0010984    0.0004440 
   0.012976000     0.0006889    0.0002385     0.9982163   -0.0127366     0.9974917   -0.0154516     0.0010819    0.0004169 
   0.013225500     0.0006575    0.0002212     0.9982871   -0.0128647     0.9973169   -0.0156373     0.0010819    0.0003803 
   0.013475000     0.0006298    0.0001918     0.9982265   -0.0131462     0.9973574   -0.0157688     0.0010709    0.0003615 
   0.013724500     0.0005997    0.0001885     0.9983086   -0.0135218     0.9973704   -0.0159286     0.0010470    0.0003416 
   0.013974000     0.0005885    0.0001808     0.9983445   -0.0137392     0.9974342   -0.0162908     0.0010411    0.0003356 
   0.014223500     0.0005733    0.0001699     0.9983683   -0.0140185     0.9972495   -0.0164305     0.0010043    0.0003167 
   0.014473000     0.0005383    0.0001520     0.9982716   -0.0142545     0.9971914   -0.0167397     0.0010148    0.0003017 
   0.014722500     0.0005200    0.0001408     0.9982113   -0.0143107     0.9972840   -0.0168666     0.0009813    0.0002832 
   0.014972000     0.0005088    0.0001252     0.9981481   -0.0146639     0.9973261   -0.0173359     0.0009751    0.0002645 
   0.015221500     0.0004684    0.0001220     0.9982687   -0.0146936     0.9972417   -0.0174924     0.0009561    0.0002476 
   0.015471000     0.0004443    0.0001066     0.9982437   -0.0150375     0.9971778   -0.0176380     0.0009459    0.0002259 
   0.015720500     0.0004275    0.0001060     0.9982092   -0.0153176     0.9972444   -0.0178974     0.0009482    0.0002104 
   0.015970000     0.0003958    0.0000925     0.9981633   -0.0154332     0.9973035   -0.0180171     0.0009287    0.0001860 
   0.016219500     0.0003682    0.0000881     0.9981232   -0.0157000     0.9971415   -0.0181446     0.0009186    0.0001653 
   0.016469000     0.0003516    0.0000779     0.9982823   -0.0159079     0.9971913   -0.0184199     0.0008876    0.0001451 
   0.016718500     0.0003381    0.0000684     0.9981728   -0.0163010     0.9970925   -0.0186833     0.0008856    0.0001303 
   0.016968000     0.0002966    0.0000592     0.9981715   -0.0165357     0.9972516   -0.0188195     0.0008772    0.0001026 
   0.017217500     0.0002652    0.0000603     0.9982123   -0.0167124     0.9971277   -0.0189766     0.0008544    0.0000828 
   0.017467000     0.0002432    0.0000630     0.9981356   -0.0169135     0.9971943   -0.0193227     0.0008444    0.0000724 
   0.017716500     0.0002133    0.0000545     0.9981723   -0.0170290     0.9971037   -0.0196132     0.0008318    0.0000522 
   0.017966000     0.0001877    0.0000540     0.9982509   -0.0173797     0.9972104   -0.0197712     0.0008038    0.0000401 
   0.018215500     0.0001596    0.0000489     0.9980276   -0.0174090     0.9971302   -0.0199708     0.0007899    0.0000127 
   0.018465000     0.0001344    0.0000435     0.9980462   -0.0176892     0.9970768   -0.0203323     0.0007778    0.0000007 
   0.018714500     0.0001090    0.0000447     0.9979778   -0.0179210     0.9970447   -0.0205525     0.0007777   -0.0000263 
   0.018964000     0.0000765    0.0000383     0.9980065   -0.0181180     0.9969046   -0.0206847     0.0007737   -0.0000483 
   0.019213500     0.0000376    0.0000526     0.9981055   -0.0183428     0.9970312   -0.0208914     0.0007590   -0.0000494 
   0.019463000     0.0000294    0.0000470     0.9980642   -0.0186785     0.9969448   -0.0211048     0.0007523   -0.0000682 
   0.019712500     0.0000124    0.0000462     0.9980626   -0.0188367     0.9969478   -0.0213559     0.0007473   -0.0000885 
   0.019962000     0.0000031    0.0000543     0.9981382   -0.0193678     0.9970532   -0.0216876     0.0007439   -0.0001052 
   0.020211500    -0.0000253    0.0000608     0.9980505   -0.0195121     0.9970472   -0.0218251     0.0007186   -0.0001277 
   0.020461000    -0.0000623    0.0000655     0.9979848   -0.0196756     0.9969895   -0.0219328     0.0007077   -0.0001425 
   0.020710500    -0.0000821    0.0000721     0.9981385   -0.0199540     0.9968568   -0.0221881     0.0006909   -0.0001730 
   0.020960000    -0.0001083    0.0000717     0.9981450   -0.0201527     0.9968674   -0.0224604     0.0006878   -0.0001725 
   0.021209500    -0.0001310    0.0000781     0.9981590   -0.0204334     0.9968448   -0.0225709     0.0006872   -0.0001910 
   0.021459000    -0.0001512    0.0000946     0.9980984   -0.0205128     0.9968789   -0.0228782     0.0006683   -0.0002049 
   0.021708500    -0.0001913    0.0000899     0.9981552   -0.0206572     0.9967912   -0.0230872     0.0006585   -0.0002236 
   0.021958000    -0.0001995    0.0001005     0.9980513   -0.0210006     0.9968621   -0.0232133     0.0006433   -0.0002538 
   0.022207500    -0.0002405    0.0001052     0.9980747   -0.0211095     0.9967696   -0.0235609     0.0006416   -0.0002774 
   0.022457000    -0.0002490    0.0001186     0.9980664   -0.0212956     0.9970631   -0.0239641     0.0006302   -0.0002628 
   0.022706500    -0.0002651    0.0001235     0.9980202   -0.0214845     0.9971155   -0.0241650     0.0006197   -0.0002748 
   0.022956000    -0.0002952    0.0001398     0.9980479   -0.0216358     0.9971681   -0.0244333     0.0006258   -0.0002876 
   0.023205500    -0.0003079    0.0001277     0.9979734   -0.0218111     0.9971955   -0.0247272     0.0006048   -0.0003067 
   0.023455000    -0.0003294    0.0001488     0.9979482   -0.0221733     0.9970310   -0.0248810     0.0006087   -0.0003317 
   0.023704500    -0.0003508    0.0001512     0.9979466   -0.0223383     0.9970236   -0.0251208     0.0006120   -0.0003453 
   0.023954000    -0.0003671    0.0001676     0.9979257   -0.0224941     0.9970422   -0.0252573     0.0005975   -0.0003529 
   0.024203500    -0.0003820    0.0001828     0.9979164   -0.0228467     0.9970356   -0.0253801     0.0005971   -0.0003560 
   0.024453000    -0.0003906    0.0001948     0.9980043   -0.0230169     0.9970570   -0.0256203     0.0005813   -0.0003694 
   0.024702500    -0.0004237    0.0001950     0.9979317   -0.0232504     0.9969000   -0.0258050     0.0005684   -0.0004010 
   0.024952000    -0.0004225    0.0002084     0.9977871   -0.0235518     0.9969895   -0.0261225     0.0005648   -0.0004045 
   0.025201500    -0.0004508    0.0002756     0.9983930   -0.0234798     0.9976427   -0.0258458     0.0004966   -0.0003963 
   0.025451000    -0.0004575    0.0002270     0.9977381   -0.0240794     0.9968913   -0.0265084     0.0005761   -0.0004362 
   0.025700500    -0.0004618    0.0002414     0.9977735   -0.0242722     0.9968975   -0.0267654     0.0005752   -0.0004429 
   0.025950000    -0.0004954    0.0002548     0.9978281   -0.0244985     0.9968765   -0.0269555     0.0005790   -0.0004493 
   0.026199500    -0.0004903    0.0002641     0.9977301   -0.0247698     0.9967558   -0.0271437     0.0005591   -0.0004818 
   0.026449000    -0.0005096    0.0002843     0.9978439   -0.0250288     0.9967810   -0.0272639     0.0005545   -0.0004891 
   0.026698500    -0.0005165    0.0003009     0.9978818   -0.0252438     0.9969022   -0.0275589     0.0005545   -0.0004981 
   0.026948000    -0.0005247    0.0002992     0.9977432   -0.0254309     0.9967974   -0.0277600     0.0005515   -0.0005035 
   0.027197500    -0.0005358    0.0003132     0.9977724   -0.0258446     0.9966663   -0.0279374     0.0005579   -0.0005037 
   0.027447000    -0.0005503    0.0003320     0.9977831   -0.0259838     0.9966930   -0.0281933     0.0005655   -0.0005238 
   0.027696500    -0.0005584    0.0003503     0.9977777   -0.0262040     0.9966492   -0.0284654     0.0005723   -0.0005293 
   0.027946000    -0.0005640    0.0003579     0.9977455   -0.0265176     0.9966204   -0.0286494     0.0005695   -0.0005545 
   0.028195500    -0.0005678    0.0003596     0.9978034   -0.0266213     0.9966081   -0.0288416     0.0005538   -0.0005618 
   0.028445000    -0.0005773    0.0003724     0.9977286   -0.0268775     0.9966841   -0.0289627     0.0005648   -0.0005691 
   0.028694500    -0.0005881    0.0003878     0.9977545   -0.0271174     0.9966729   -0.0292662     0.0005801   -0.0005706 
   0.028944000    -0.0005812    0.0004116     0.9978458   -0.0272975     0.9966767   -0.0294691     0.0005750   -0.0005852 
   0.029193500    -0.0005897    0.0004129     0.9978628   -0.0275600     0.9966882   -0.0297054     0.0005884   -0.0005657 
   0.029443000    -0.0005933    0.0004146     0.9978162   -0.0276556     0.9966056   -0.0299441     0.0005929   -0.0005868 
   0.029692500    -0.0005981    0.0004331     0.9976857   -0.0278483     0.9966194   -0.0302725     0.0005884   -0.0005930 
   0.029942000    -0.0005960    0.0004424     0.9976994   -0.0280446     0.9965818   -0.0305026     0.0005909   -0.0006078 
   0.030191500    -0.0006010    0.0004573     0.9976960   -0.0282409     0.9965655   -0.0307507     0.0006118   -0.0006073 
   0.030441000    -0.0006017    0.0004616     0.9976640   -0.0284214     0.9966136   -0.0310054     0.0005991   -0.0006055 
   0.030690500    -0.0006054    0.0004731     0.9976827   -0.0286542     0.9966483   -0.0313003     0.0006217   -0.0006094 
   0.030940000    -0.0006013    0.0004768     0.9977738   -0.0288968     0.9966018   -0.0314668     0.0006348   -0.0006014 
   0.031189500    -0.0005942    0.0004918     0.9976811   -0.0290593     0.9966407   -0.0316255     0.0006355   -0.0006054 
   0.031439000    -0.0005901    0.0004983     0.9975911   -0.0293140     0.9966434   -0.0318248     0.0006410   -0.0006232 
   0.031688500    -0.0005827    0.0005203     0.9976016   -0.0295721     0.9966365   -0.0320534     0.0006402   -0.0005974 
   0.031938000    -0.0005945    0.0005291     0.9975419   -0.0298393     0.9965308   -0.0322762     0.0006742   -0.0006103 
   0.032187500    -0.0005788    0.0005361     0.9975014   -0.0299943     0.9964254   -0.0326025     0.0006787   -0.0006070 
   0.032437000    -0.0005691    0.0005382     0.9974878   -0.0301671     0.9964053   -0.0327427     0.0006709   -0.0006139 
   0.032686500    -0.0005680    0.0006194     0.9975491   -0.0306906     0.9960131   -0.0318688     0.0006924   -0.0006648 
   0.032936000    -0.0005515    0.0005786     0.9974661   -0.0306846     0.9963570   -0.0330811     0.0006733   -0.0006184 
   0.033185500    -0.0005455    0.0006481     0.9974266   -0.0313078     0.9959362   -0.0323125     0.0007237   -0.0006773 
   0.033435000    -0.0005389    0.0005924     0.9973804   -0.0311964     0.9963949   -0.0334608     0.0006954   -0.0005860 
   0.033684500    -0.0005272    0.0005858     0.9973997   -0.0314269     0.9963095   -0.0337345     0.0007128   -0.0005979 
   0.033934000    -0.0005317    0.0006093     0.9974091   -0.0316988     0.9962890   -0.0338717     0.0007247   -0.0005828 
   0.034183500    -0.0005080    0.0006157     0.9974230   -0.0318606     0.9963297   -0.0340470     0.0007332   -0.0005818 
   0.034433000    -0.0005036    0.0006273     0.9974495   -0.0321140     0.9962870   -0.0343808     0.0007458   -0.0005835 
   0.034682500    -0.0004813    0.0006495     0.9974312   -0.0323180     0.9963199   -0.0344587     0.0007510   -0.0005816 
   0.034932000    -0.0004690    0.0006612     0.9974464   -0.0325274     0.9963107   -0.0347534     0.0007644   -0.0005774 
   0.035181500    -0.0004498    0.0006442     0.9973740   -0.0327898     0.9963492   -0.0348864     0.0007775   -0.0005716 
   0.035431000    -0.0004447    0.0006483     0.9973862   -0.0331002     0.9963256   -0.0351206     0.0007913   -0.0005828 
   0.035680500    -0.0004274    0.0006547     0.9973238   -0.0332747     0.9962528   -0.0354051     0.0008097   -0.0005947 
   0.035930000    -0.0004303    0.0006576     0.9973506   -0.0335671     0.9962367   -0.0356073     0.0008352   -0.0005748 
   0.036179500    -0.0004094    0.0006711     0.9972927   -0.0337830     0.9961779   -0.0358960     0.0008503   -0.0005765 
   0.036429000    -0.0003974    0.0006746     0.9973202   -0.0340138     0.9961697   -0.0361366     0.0008516   -0.0005407 
   0.036678500    -0.0003755    0.0006766     0.9973643   -0.0341458     0.9961559   -0.0362732     0.0008643   -0.0005299 
   0.036928000    -0.0003537    0.0006769     0.9973096   -0.0344530     0.9961622   -0.0364422     0.0008893   -0.0005127 
   0.037177500    -0.0003383    0.0006887     0.9973651   -0.0346130     0.9962133   -0.0366440     0.0008912   -0.0004995 
   0.037427000    -0.0003191    0.0006917     0.9973640   -0.0348222     0.9962489   -0.0368479     0.0008900   -0.0004809 
   0.037676500    -0.0003020    0.0006985     0.9973551   -0.0350581     0.9962026   -0.0371566     0.0009019   -0.0004869 
   0.037926000    -0.0002902    0.0006801     0.9973421   -0.0352152     0.9961885   -0.0373323     0.0009260   -0.0004695 
   0.038175500    -0.0002649    0.0006905     0.9972924   -0.0354990     0.9961586   -0.0376095     0.0009614   -0.0004831 
   0.038425000    -0.0002434    0.0007046     0.9972268   -0.0357157     0.9961327   -0.0377853     0.0009945   -0.0004684 
   0.038674500    -0.0002111    0.0007070     0.9972715   -0.0358820     0.9961210   -0.0380714     0.0009903   -0.0004281 
   0.038924000    -0.0002018    0.0006798     0.9973129   -0.0361908     0.9960446   -0.0382510     0.0009920   -0.0004092 
   0.039173500    -0.0001807    0.0006887     0.9973562   -0.0363985     0.9960876   -0.0383993     0.0009910   -0.0003949 
   0.039423000    -0.0001615    0.0006826     0.9973882   -0.0365589     0.9960039   -0.0385685     0.0010349   -0.0003938 
   0.039672500    -0.0001316    0.0007652     0.9972978   -0.0370393     0.9955323   -0.0378543     0.0010760   -0.0003694 
   0.039922000    -0.0001300    0.0006800     0.9977706   -0.0367945     0.9969578   -0.0388308     0.0010704   -0.0003934 
   0.040171500    -0.0000977    0.0006815     0.9977403   -0.0370388     0.9968879   -0.0390353     0.0010943   -0.0003710 
