! MS46122B
! 1746301/73750021
! 8/7/2023 3:08:31 PM
! C:\USERS\SPEGWAL\DOWNLOADS\SAURABH\REACH\NODES\FRONT END\MEASUREMENTS\MEASURED S-PARAMETER_07-08-2023\MS-3\P2_J2\J2_OFF.S2P
! CHANNEL.1
! TR.MEASUREMENT
! CORRECTED.DATA
# GHZ S RI R 50.0
! FREQ.GHZ         S11RE         S11IM         S21RE         S21IM         S12RE         S12IM         S22RE         S22IM         
!; PortSelection: Port_12
   0.001000000     1.0019190   -0.0083002    -0.0000016   -0.0000029     0.0000023   -0.0000018    -0.0054864    0.0031754 
   0.001249500     1.0028150   -0.0063722     0.0000008    0.0000009     0.0000008    0.0000002    -0.0060411    0.0032546 
   0.001499000     1.0027020   -0.0062812     0.0000011    0.0000006     0.0000008    0.0000000    -0.0062722    0.0034780 
   0.001748500     1.0026050   -0.0062458     0.0000003   -0.0000006     0.0000002    0.0000007    -0.0062167    0.0036960 
   0.001998000     1.0025890   -0.0062533     0.0000011    0.0000000    -0.0000006    0.0000009    -0.0060459    0.0038427 
   0.002247500     1.0030160   -0.0070061    -0.0000003   -0.0000006    -0.0000007   -0.0000008    -0.0056307    0.0035915 
   0.002497000     1.0029690   -0.0070523     0.0000005    0.0000006     0.0000006    0.0000006    -0.0053368    0.0036276 
   0.002746500     1.0031840   -0.0070497     0.0000014    0.0000006    -0.0000012    0.0000008    -0.0050656    0.0036191 
   0.002996000     1.0031420   -0.0071025    -0.0000009    0.0000022     0.0000000   -0.0000002    -0.0047488    0.0034772 
   0.003245500     1.0032370   -0.0071581    -0.0000001    0.0000005     0.0000011   -0.0000006    -0.0045092    0.0033857 
   0.003495000     1.0031950   -0.0071601    -0.0000010   -0.0000002     0.0000017    0.0000006    -0.0042623    0.0032609 
   0.003744500     1.0032950   -0.0073320     0.0000000    0.0000000    -0.0000008   -0.0000003    -0.0040362    0.0030577 
   0.003994000     1.0033520   -0.0074562    -0.0000006    0.0000000    -0.0000003    0.0000006    -0.0038409    0.0028641 
   0.004243500     1.0033710   -0.0076165    -0.0000005   -0.0000019    -0.0000005    0.0000007    -0.0034128    0.0025821 
   0.004493000     1.0034560   -0.0078046    -0.0000008   -0.0000001     0.0000005   -0.0000010    -0.0032824    0.0024453 
   0.004742500     1.0034780   -0.0078981    -0.0000002   -0.0000009    -0.0000018   -0.0000002    -0.0031871    0.0023215 
   0.004992000     1.0035690   -0.0081338    -0.0000003    0.0000021     0.0000001   -0.0000002    -0.0031056    0.0021855 
   0.005241500     1.0037230   -0.0083450    -0.0000002   -0.0000012    -0.0000003    0.0000001    -0.0030342    0.0020416 
   0.005491000     1.0037420   -0.0085259    -0.0000009   -0.0000003    -0.0000011    0.0000004    -0.0029948    0.0019173 
   0.005740500     1.0037360   -0.0088281    -0.0000009   -0.0000007    -0.0000004    0.0000009    -0.0029880    0.0018229 
   0.005990000     1.0037100   -0.0090764    -0.0000002   -0.0000001     0.0000007    0.0000013    -0.0029673    0.0017318 
   0.006239500     1.0038440   -0.0093486     0.0000018   -0.0000007    -0.0000002   -0.0000012    -0.0029597    0.0016434 
   0.006489000     1.0038920   -0.0095828    -0.0000001    0.0000006     0.0000006   -0.0000007    -0.0029619    0.0015537 
   0.006738500     1.0039300   -0.0098613    -0.0000004   -0.0000014    -0.0000014   -0.0000009    -0.0029601    0.0014882 
   0.006988000     1.0038990   -0.0100475     0.0000001    0.0000005    -0.0000005    0.0000007    -0.0029729    0.0014332 
   0.007237500     1.0038340   -0.0101566    -0.0000005    0.0000001    -0.0000002    0.0000004    -0.0029921    0.0013914 
   0.007487000     1.0034260   -0.0100771    -0.0000009    0.0000005     0.0000009    0.0000007    -0.0030108    0.0013521 
   0.007736500     1.0030650   -0.0100319    -0.0000011   -0.0000002     0.0000004   -0.0000008    -0.0030171    0.0013050 
   0.007986000     1.0024520   -0.0098202     0.0000007    0.0000006     0.0000009    0.0000006    -0.0030294    0.0012761 
   0.008235500     1.0016680   -0.0098206     0.0000007   -0.0000013     0.0000007    0.0000001    -0.0030468    0.0012405 
   0.008485000     1.0010010   -0.0095560    -0.0000008    0.0000002     0.0000008    0.0000015    -0.0030657    0.0012174 
   0.008734500     1.0001710   -0.0094180    -0.0000003   -0.0000009    -0.0000008   -0.0000008    -0.0030747    0.0011867 
   0.008984000     0.9994157   -0.0092350    -0.0000003    0.0000004     0.0000002    0.0000025    -0.0030817    0.0011524 
   0.009233500     0.9971359   -0.0081215     0.0000000   -0.0000001    -0.0000004   -0.0000007    -0.0031151    0.0011258 
   0.009483000     0.9971439   -0.0081622    -0.0000004    0.0000004     0.0000001    0.0000003    -0.0031190    0.0010964 
   0.009732500     0.9972456   -0.0084710    -0.0000009    0.0000006     0.0000000   -0.0000003    -0.0031423    0.0010721 
   0.009982000     0.9971660   -0.0085296    -0.0000003    0.0000005     0.0000007   -0.0000007    -0.0031333    0.0010574 
   0.010231500     0.9970706   -0.0087327    -0.0000003    0.0000003     0.0000006   -0.0000001    -0.0031628    0.0010512 
   0.010481000     0.9969574   -0.0089716     0.0000002   -0.0000004     0.0000002    0.0000005    -0.0031890    0.0010345 
   0.010730500     0.9969932   -0.0091787    -0.0000002   -0.0000002    -0.0000001    0.0000007    -0.0031975    0.0010330 
   0.010980000     0.9970383   -0.0094391     0.0000003    0.0000001     0.0000005   -0.0000005    -0.0032102    0.0010227 
   0.011229500     0.9969698   -0.0094689     0.0000001    0.0000010     0.0000007    0.0000000    -0.0032183    0.0010139 
   0.011479000     0.9968988   -0.0096843    -0.0000006    0.0000001    -0.0000003    0.0000004    -0.0032264    0.0009939 
   0.011728500     0.9970257   -0.0098016     0.0000011   -0.0000007    -0.0000005   -0.0000004    -0.0032496    0.0009766 
   0.011978000     0.9969506   -0.0099128    -0.0000010   -0.0000004    -0.0000003    0.0000004    -0.0032584    0.0009753 
   0.012227500     0.9970213   -0.0102120    -0.0000007    0.0000000     0.0000007    0.0000004    -0.0032776    0.0009689 
   0.012477000     0.9969295   -0.0104516    -0.0000001   -0.0000004     0.0000010    0.0000012    -0.0032832    0.0009520 
   0.012726500     0.9969658   -0.0105726     0.0000004    0.0000004     0.0000001    0.0000000    -0.0032941    0.0009312 
   0.012976000     0.9969897   -0.0107684     0.0000002    0.0000009    -0.0000002    0.0000000    -0.0032959    0.0009194 
   0.013225500     0.9968427   -0.0109072     0.0000000   -0.0000001    -0.0000014   -0.0000004    -0.0033120    0.0008992 
   0.013475000     0.9969173   -0.0111014     0.0000003   -0.0000016     0.0000004    0.0000007    -0.0033251    0.0008943 
   0.013724500     0.9968136   -0.0112452    -0.0000001   -0.0000010    -0.0000004    0.0000018    -0.0033412    0.0008763 
   0.013974000     0.9967898   -0.0114438    -0.0000002   -0.0000003     0.0000003    0.0000002    -0.0033449    0.0008707 
   0.014223500     0.9968097   -0.0116768    -0.0000005   -0.0000006    -0.0000007   -0.0000002    -0.0033540    0.0008567 
   0.014473000     0.9966432   -0.0118207     0.0000000   -0.0000004    -0.0000013    0.0000003    -0.0033637    0.0008560 
   0.014722500     0.9967020   -0.0120288     0.0000007   -0.0000007    -0.0000005   -0.0000002    -0.0033672    0.0008397 
   0.014972000     0.9967178   -0.0122135     0.0000004    0.0000001    -0.0000009   -0.0000002    -0.0033745    0.0008270 
   0.015221500     0.9967654   -0.0123123     0.0000007    0.0000009     0.0000003   -0.0000005    -0.0033772    0.0008305 
   0.015471000     0.9966310   -0.0124329    -0.0000004   -0.0000005     0.0000004    0.0000010    -0.0033966    0.0008263 
   0.015720500     0.9965748   -0.0126349    -0.0000003    0.0000005    -0.0000010    0.0000009    -0.0033963    0.0008104 
   0.015970000     0.9965073   -0.0127862     0.0000004   -0.0000001     0.0000001   -0.0000008    -0.0033970    0.0008063 
   0.016219500     0.9964047   -0.0130267     0.0000005    0.0000006    -0.0000002    0.0000002    -0.0034180    0.0007976 
   0.016469000     0.9964777   -0.0131475     0.0000000    0.0000002    -0.0000001    0.0000006    -0.0034172    0.0007925 
   0.016718500     0.9965078   -0.0134094     0.0000006    0.0000009    -0.0000017   -0.0000009    -0.0034398    0.0007837 
   0.016968000     0.9965215   -0.0135488     0.0000011   -0.0000004    -0.0000006    0.0000015    -0.0034450    0.0007565 
   0.017217500     0.9964141   -0.0137081    -0.0000010    0.0000005     0.0000006   -0.0000006    -0.0034660    0.0007533 
   0.017467000     0.9964958   -0.0138470     0.0000006   -0.0000004     0.0000003    0.0000001    -0.0034429    0.0007375 
   0.017716500     0.9965751   -0.0141186     0.0000005   -0.0000007     0.0000002   -0.0000003    -0.0034656    0.0007379 
   0.017966000     0.9965195   -0.0142551    -0.0000004    0.0000000    -0.0000004    0.0000001    -0.0034556    0.0007206 
   0.018215500     0.9964901   -0.0144259    -0.0000004   -0.0000010    -0.0000005    0.0000008    -0.0034494    0.0006990 
   0.018465000     0.9964561   -0.0146510     0.0000006   -0.0000008    -0.0000009    0.0000004    -0.0034549    0.0006853 
   0.018714500     0.9964589   -0.0148248    -0.0000002    0.0000000    -0.0000007    0.0000009    -0.0034553    0.0006856 
   0.018964000     0.9963056   -0.0149122     0.0000006   -0.0000005     0.0000000    0.0000004    -0.0034455    0.0006771 
   0.019213500     0.9963374   -0.0151622     0.0000001    0.0000011     0.0000003   -0.0000004    -0.0034383    0.0006596 
   0.019463000     0.9963078   -0.0153529     0.0000005   -0.0000001     0.0000002    0.0000002    -0.0034399    0.0006483 
   0.019712500     0.9963179   -0.0155376    -0.0000001    0.0000005    -0.0000006    0.0000003    -0.0034239    0.0006434 
   0.019962000     0.9962524   -0.0156411    -0.0000001    0.0000001    -0.0000009    0.0000009    -0.0034220    0.0006495 
   0.020211500     0.9962760   -0.0158144     0.0000008   -0.0000005    -0.0000001    0.0000006    -0.0034267    0.0006363 
   0.020461000     0.9962668   -0.0159913    -0.0000007   -0.0000003     0.0000008    0.0000003    -0.0034360    0.0006204 
   0.020710500     0.9961725   -0.0161483    -0.0000005   -0.0000004     0.0000013   -0.0000002    -0.0034323    0.0006079 
   0.020960000     0.9961495   -0.0162920     0.0000002    0.0000003     0.0000003    0.0000009    -0.0034339    0.0006045 
   0.021209500     0.9960369   -0.0164855    -0.0000020    0.0000008     0.0000000   -0.0000002    -0.0034320    0.0005809 
   0.021459000     0.9960886   -0.0165658     0.0000005    0.0000000     0.0000005   -0.0000001    -0.0034243    0.0005824 
   0.021708500     0.9960777   -0.0169377    -0.0000009    0.0000000    -0.0000012    0.0000009    -0.0034205    0.0005576 
   0.021958000     0.9961824   -0.0171670     0.0000009    0.0000000     0.0000000   -0.0000006    -0.0034301    0.0005433 
   0.022207500     0.9961585   -0.0172730     0.0000002    0.0000007     0.0000006    0.0000006    -0.0034202    0.0005351 
   0.022457000     0.9961990   -0.0174535    -0.0000003    0.0000019     0.0000004    0.0000000    -0.0034362    0.0005661 
   0.022706500     0.9962428   -0.0175424    -0.0000003    0.0000001    -0.0000006   -0.0000005    -0.0034349    0.0005518 
   0.022956000     0.9960879   -0.0177991    -0.0000003    0.0000004    -0.0000004    0.0000003    -0.0034304    0.0005121 
   0.023205500     0.9961248   -0.0179851    -0.0000003    0.0000005    -0.0000001   -0.0000012    -0.0034190    0.0005197 
   0.023455000     0.9959881   -0.0181054    -0.0000006    0.0000000    -0.0000004    0.0000013    -0.0034137    0.0005030 
   0.023704500     0.9959626   -0.0181657     0.0000004   -0.0000004     0.0000014    0.0000002    -0.0034101    0.0004956 
   0.023954000     0.9958892   -0.0184293     0.0000005    0.0000010    -0.0000005    0.0000010    -0.0033999    0.0004883 
   0.024203500     0.9959790   -0.0186209     0.0000001   -0.0000001     0.0000003    0.0000003    -0.0033901    0.0004844 
   0.024453000     0.9958854   -0.0188400    -0.0000016   -0.0000013    -0.0000002    0.0000006    -0.0033997    0.0004560 
   0.024702500     0.9959522   -0.0189178     0.0000005    0.0000009     0.0000010    0.0000009    -0.0033858    0.0004539 
   0.024952000     0.9958487   -0.0192348     0.0000000   -0.0000001     0.0000010   -0.0000013    -0.0033818    0.0004411 
   0.025201500     0.9963104   -0.0191557    -0.0000004    0.0000010     0.0000005    0.0000009    -0.0034145    0.0004520 
   0.025451000     0.9958278   -0.0194216    -0.0000003    0.0000001     0.0000007   -0.0000001    -0.0033660    0.0004185 
   0.025700500     0.9958594   -0.0197362     0.0000013    0.0000010    -0.0000001    0.0000004    -0.0033546    0.0004129 
   0.025950000     0.9958727   -0.0199109     0.0000004   -0.0000012     0.0000011   -0.0000009    -0.0033443    0.0004138 
   0.026199500     0.9958590   -0.0200186     0.0000002   -0.0000004    -0.0000005    0.0000013    -0.0033273    0.0004028 
   0.026449000     0.9958065   -0.0202286     0.0000013    0.0000001     0.0000007    0.0000010    -0.0033205    0.0003991 
   0.026698500     0.9957897   -0.0202966     0.0000000   -0.0000003     0.0000001    0.0000008    -0.0032954    0.0003949 
   0.026948000     0.9957155   -0.0204903     0.0000005   -0.0000002     0.0000003    0.0000009    -0.0032927    0.0003898 
   0.027197500     0.9958209   -0.0207230    -0.0000005    0.0000001     0.0000001   -0.0000018    -0.0032870    0.0003722 
   0.027447000     0.9957681   -0.0208713     0.0000004   -0.0000001    -0.0000015   -0.0000004    -0.0032619    0.0003641 
   0.027696500     0.9956949   -0.0210212     0.0000003   -0.0000013    -0.0000008   -0.0000007    -0.0032538    0.0003579 
   0.027946000     0.9957584   -0.0211904    -0.0000001    0.0000006     0.0000004   -0.0000006    -0.0032352    0.0003661 
   0.028195500     0.9956009   -0.0212031     0.0000008   -0.0000010    -0.0000002    0.0000002    -0.0032340    0.0003447 
   0.028445000     0.9956596   -0.0214051    -0.0000001   -0.0000015    -0.0000005    0.0000005    -0.0032138    0.0003418 
   0.028694500     0.9954944   -0.0216116    -0.0000009    0.0000000    -0.0000001   -0.0000004    -0.0032037    0.0003233 
   0.028944000     0.9954869   -0.0218660     0.0000006   -0.0000008    -0.0000001    0.0000000    -0.0031843    0.0003374 
   0.029193500     0.9954766   -0.0220142     0.0000004   -0.0000011    -0.0000006    0.0000001    -0.0031718    0.0003120 
   0.029443000     0.9954551   -0.0222780    -0.0000016   -0.0000010    -0.0000001    0.0000007    -0.0031612    0.0003158 
   0.029692500     0.9954141   -0.0224451    -0.0000005    0.0000012    -0.0000001   -0.0000004    -0.0031499    0.0003242 
   0.029942000     0.9953875   -0.0227384    -0.0000004   -0.0000012     0.0000001   -0.0000001    -0.0031257    0.0003126 
   0.030191500     0.9954762   -0.0226531    -0.0000001    0.0000006    -0.0000005   -0.0000001    -0.0031118    0.0003052 
   0.030441000     0.9954039   -0.0229264    -0.0000021   -0.0000003     0.0000000    0.0000009    -0.0030995    0.0003153 
   0.030690500     0.9953681   -0.0229661     0.0000006    0.0000014    -0.0000015    0.0000008    -0.0030866    0.0003019 
   0.030940000     0.9954136   -0.0231639     0.0000002    0.0000010     0.0000005    0.0000007    -0.0030575    0.0003069 
   0.031189500     0.9953783   -0.0232692    -0.0000004   -0.0000002     0.0000005   -0.0000008    -0.0030470    0.0003146 
   0.031439000     0.9954385   -0.0234922    -0.0000007    0.0000001    -0.0000007   -0.0000005    -0.0030232    0.0003075 
   0.031688500     0.9953527   -0.0236828     0.0000003   -0.0000012    -0.0000005    0.0000001    -0.0030197    0.0003080 
   0.031938000     0.9953963   -0.0238867    -0.0000001   -0.0000005     0.0000002   -0.0000002    -0.0029954    0.0003074 
   0.032187500     0.9953818   -0.0239524    -0.0000007   -0.0000010     0.0000005   -0.0000001    -0.0029803    0.0003039 
   0.032437000     0.9953468   -0.0241863     0.0000003    0.0000007    -0.0000004   -0.0000002    -0.0029616    0.0003123 
   0.032686500     0.9954237   -0.0241258    -0.0000003    0.0000007     0.0000009    0.0000005    -0.0029215    0.0002558 
   0.032936000     0.9953363   -0.0245962    -0.0000001    0.0000005    -0.0000002    0.0000005    -0.0029204    0.0003118 
   0.033185500     0.9953768   -0.0245221    -0.0000012   -0.0000006     0.0000005   -0.0000008    -0.0028754    0.0002419 
   0.033435000     0.9953183   -0.0248401    -0.0000015   -0.0000002    -0.0000015    0.0000009    -0.0028837    0.0003145 
   0.033684500     0.9952695   -0.0251837    -0.0000001   -0.0000015    -0.0000002   -0.0000002    -0.0028671    0.0003030 
   0.033934000     0.9951898   -0.0253379    -0.0000005    0.0000001     0.0000014   -0.0000002    -0.0028421    0.0003212 
   0.034183500     0.9952881   -0.0255150     0.0000017   -0.0000003    -0.0000004   -0.0000002    -0.0028266    0.0003170 
   0.034433000     0.9952859   -0.0256126     0.0000000    0.0000001     0.0000007   -0.0000001    -0.0028141    0.0003349 
   0.034682500     0.9952551   -0.0259162     0.0000014    0.0000010    -0.0000004    0.0000008    -0.0028001    0.0003351 
   0.034932000     0.9952735   -0.0259992     0.0000001    0.0000021    -0.0000007   -0.0000013    -0.0027790    0.0003349 
   0.035181500     0.9952922   -0.0261768    -0.0000018    0.0000006    -0.0000007   -0.0000008    -0.0027531    0.0003511 
   0.035431000     0.9953139   -0.0262976     0.0000015    0.0000009    -0.0000004    0.0000003    -0.0027363    0.0003556 
   0.035680500     0.9952526   -0.0263463     0.0000001   -0.0000001     0.0000016    0.0000001    -0.0027199    0.0003785 
   0.035930000     0.9951916   -0.0265782    -0.0000001   -0.0000003    -0.0000001    0.0000000    -0.0027063    0.0003723 
   0.036179500     0.9951760   -0.0268157    -0.0000007    0.0000001     0.0000010   -0.0000007    -0.0026772    0.0003816 
   0.036429000     0.9951655   -0.0270302     0.0000008   -0.0000008     0.0000005    0.0000002    -0.0026646    0.0003824 
   0.036678500     0.9951285   -0.0272318    -0.0000019    0.0000014     0.0000005    0.0000011    -0.0026374    0.0003997 
   0.036928000     0.9950797   -0.0274170     0.0000012    0.0000001     0.0000011    0.0000014    -0.0026183    0.0003952 
   0.037177500     0.9951265   -0.0277483    -0.0000019    0.0000007     0.0000007    0.0000002    -0.0025919    0.0004151 
   0.037427000     0.9951434   -0.0277288     0.0000000    0.0000004    -0.0000004   -0.0000004    -0.0025796    0.0004184 
   0.037676500     0.9951538   -0.0279117     0.0000009    0.0000004    -0.0000011    0.0000004    -0.0025553    0.0004210 
   0.037926000     0.9951941   -0.0280903    -0.0000005    0.0000001     0.0000006    0.0000004    -0.0025207    0.0004289 
   0.038175500     0.9951723   -0.0283181     0.0000016   -0.0000011     0.0000012   -0.0000004    -0.0025007    0.0004482 
   0.038425000     0.9952064   -0.0284738    -0.0000005   -0.0000008     0.0000007    0.0000001    -0.0024969    0.0004508 
   0.038674500     0.9952401   -0.0285440    -0.0000004   -0.0000011    -0.0000003   -0.0000008    -0.0024706    0.0004690 
   0.038924000     0.9951484   -0.0287402     0.0000001    0.0000008    -0.0000004    0.0000003    -0.0024619    0.0005011 
   0.039173500     0.9951777   -0.0289632     0.0000006    0.0000003     0.0000002   -0.0000006    -0.0024372    0.0005044 
   0.039423000     0.9951602   -0.0291025    -0.0000010    0.0000013    -0.0000006    0.0000005    -0.0023894    0.0005128 
   0.039672500     0.9951761   -0.0290449    -0.0000007   -0.0000006     0.0000018   -0.0000004    -0.0023478    0.0004819 
   0.039922000     0.9953808   -0.0292651    -0.0000003   -0.0000009    -0.0000001   -0.0000003    -0.0023926    0.0004680 
   0.040171500     0.9954695   -0.0294003     0.0000001   -0.0000013     0.0000006   -0.0000001    -0.0023690    0.0004840 
