! MS46122B
! 1746301/73750021
! 8/7/2023 3:09:42 PM
! C:\USERS\SPEGWAL\DOWNLOADS\SAURABH\REACH\NODES\FRONT END\MEASUREMENTS\MEASURED S-PARAMETER_07-08-2023\MS-3\P2_J2\J3_ON.S2P
! CHANNEL.1
! TR.MEASUREMENT
! CORRECTED.DATA
# GHZ S RI R 50.0
! FREQ.GHZ         S11RE         S11IM         S21RE         S21IM         S12RE         S12IM         S22RE         S22IM         
!; PortSelection: Port_12
   0.001000000     1.0023510   -0.0093587     0.0000021    0.0000021     0.0000031    0.0000008    -0.0055108    0.0031900 
   0.001249500     1.0027900   -0.0078249    -0.0000014   -0.0000003    -0.0000013   -0.0000019    -0.0060531    0.0032304 
   0.001499000     1.0025540   -0.0079871     0.0000010   -0.0000024    -0.0000007   -0.0000007    -0.0062839    0.0034522 
   0.001748500     1.0025450   -0.0082209    -0.0000003   -0.0000001     0.0000004    0.0000010    -0.0062254    0.0036895 
   0.001998000     1.0025130   -0.0086268    -0.0000010   -0.0000006     0.0000008    0.0000003    -0.0060574    0.0038227 
   0.002247500     1.0029240   -0.0095983     0.0000010   -0.0000011     0.0000000    0.0000004    -0.0056319    0.0035826 
   0.002497000     1.0029040   -0.0098904    -0.0000006    0.0000002     0.0000010    0.0000008    -0.0053302    0.0036188 
   0.002746500     1.0029890   -0.0101960     0.0000002    0.0000001    -0.0000007    0.0000002    -0.0050619    0.0036056 
   0.002996000     1.0031600   -0.0104270     0.0000012    0.0000008    -0.0000003    0.0000001    -0.0047430    0.0034770 
   0.003245500     1.0031690   -0.0108595     0.0000012    0.0000010    -0.0000001   -0.0000009    -0.0045038    0.0033889 
   0.003495000     1.0031230   -0.0111552     0.0000015    0.0000011     0.0000018   -0.0000011    -0.0042543    0.0032649 
   0.003744500     1.0032810   -0.0116348    -0.0000003    0.0000006    -0.0000007    0.0000007    -0.0040383    0.0030634 
   0.003994000     1.0032840   -0.0121101     0.0000001    0.0000001     0.0000000    0.0000007    -0.0038300    0.0028586 
   0.004243500     1.0033360   -0.0123411     0.0000002   -0.0000003     0.0000002    0.0000005    -0.0034070    0.0025725 
   0.004493000     1.0034260   -0.0128952     0.0000010   -0.0000005     0.0000005    0.0000009    -0.0032818    0.0024495 
   0.004742500     1.0034110   -0.0133135     0.0000000    0.0000003     0.0000001    0.0000011    -0.0031818    0.0023302 
   0.004992000     1.0035020   -0.0137883    -0.0000003   -0.0000019     0.0000006    0.0000006    -0.0030968    0.0021761 
   0.005241500     1.0036160   -0.0142956     0.0000001    0.0000006    -0.0000001    0.0000000    -0.0030266    0.0020302 
   0.005491000     1.0036920   -0.0148886     0.0000005   -0.0000003     0.0000001   -0.0000002    -0.0029883    0.0019176 
   0.005740500     1.0036880   -0.0153446    -0.0000004   -0.0000002    -0.0000009    0.0000013    -0.0029736    0.0018159 
   0.005990000     1.0036830   -0.0159037     0.0000002   -0.0000007    -0.0000002   -0.0000004    -0.0029588    0.0017318 
   0.006239500     1.0037820   -0.0164234    -0.0000012    0.0000003     0.0000004    0.0000008    -0.0029429    0.0016323 
   0.006489000     1.0038600   -0.0170193     0.0000001    0.0000000     0.0000003    0.0000004    -0.0029574    0.0015510 
   0.006738500     1.0039060   -0.0175034    -0.0000004    0.0000000    -0.0000003   -0.0000001    -0.0029445    0.0014897 
   0.006988000     1.0039100   -0.0178392     0.0000011   -0.0000002     0.0000004    0.0000002    -0.0029619    0.0014287 
   0.007237500     1.0037320   -0.0182456     0.0000002   -0.0000006    -0.0000003   -0.0000016    -0.0029806    0.0013772 
   0.007487000     1.0034030   -0.0185358    -0.0000002   -0.0000005     0.0000005   -0.0000012    -0.0030003    0.0013441 
   0.007736500     1.0029820   -0.0187051     0.0000000   -0.0000009     0.0000007    0.0000008    -0.0030054    0.0013145 
   0.007986000     1.0023450   -0.0188187     0.0000003   -0.0000004    -0.0000007    0.0000003    -0.0030102    0.0012702 
   0.008235500     1.0015130   -0.0190016    -0.0000002    0.0000003     0.0000023    0.0000011    -0.0030288    0.0012291 
   0.008485000     1.0008620   -0.0190659    -0.0000003    0.0000004     0.0000002    0.0000006    -0.0030567    0.0012192 
   0.008734500     0.9999407   -0.0192283    -0.0000013   -0.0000001    -0.0000002    0.0000010    -0.0030606    0.0011851 
   0.008984000     0.9992405   -0.0191996    -0.0000005    0.0000001     0.0000008   -0.0000003    -0.0030760    0.0011525 
   0.009233500     0.9970133   -0.0182143    -0.0000004   -0.0000003    -0.0000006    0.0000004    -0.0030996    0.0011261 
   0.009483000     0.9968988   -0.0186429     0.0000005    0.0000004    -0.0000004   -0.0000005    -0.0031005    0.0011070 
   0.009732500     0.9970518   -0.0192047     0.0000004   -0.0000010    -0.0000004    0.0000002    -0.0031248    0.0010784 
   0.009982000     0.9969186   -0.0195967     0.0000003    0.0000006     0.0000003   -0.0000005    -0.0031318    0.0010585 
   0.010231500     0.9968892   -0.0200312     0.0000008    0.0000000    -0.0000006    0.0000001    -0.0031663    0.0010518 
   0.010481000     0.9967526   -0.0204903     0.0000005    0.0000003    -0.0000006    0.0000005    -0.0031651    0.0010400 
   0.010730500     0.9966961   -0.0210861    -0.0000004    0.0000006    -0.0000007    0.0000005    -0.0031842    0.0010356 
   0.010980000     0.9967597   -0.0215535     0.0000006   -0.0000012     0.0000001   -0.0000014    -0.0032000    0.0010159 
   0.011229500     0.9967636   -0.0219496    -0.0000004   -0.0000013    -0.0000007   -0.0000004    -0.0031953    0.0010084 
   0.011479000     0.9966520   -0.0224026     0.0000002    0.0000005     0.0000007   -0.0000002    -0.0032153    0.0010031 
   0.011728500     0.9967533   -0.0228308     0.0000000    0.0000000     0.0000008    0.0000007    -0.0032416    0.0009786 
   0.011978000     0.9967302   -0.0232318     0.0000009   -0.0000007    -0.0000003    0.0000003    -0.0032469    0.0009774 
   0.012227500     0.9967601   -0.0237273     0.0000005    0.0000022    -0.0000004    0.0000004    -0.0032667    0.0009730 
   0.012477000     0.9966493   -0.0242395    -0.0000001   -0.0000016    -0.0000003   -0.0000009    -0.0032723    0.0009514 
   0.012726500     0.9966949   -0.0246786     0.0000000    0.0000003     0.0000012   -0.0000007    -0.0032817    0.0009453 
   0.012976000     0.9966959   -0.0251470    -0.0000003    0.0000001     0.0000007    0.0000000    -0.0032897    0.0009247 
   0.013225500     0.9965266   -0.0256074    -0.0000011   -0.0000001     0.0000004   -0.0000004    -0.0032965    0.0009076 
   0.013475000     0.9965743   -0.0260727     0.0000013    0.0000010     0.0000005   -0.0000003    -0.0033208    0.0008839 
   0.013724500     0.9964104   -0.0265164    -0.0000011   -0.0000002    -0.0000001   -0.0000006    -0.0033286    0.0008909 
   0.013974000     0.9964519   -0.0270041    -0.0000003   -0.0000002     0.0000004    0.0000003    -0.0033385    0.0008696 
   0.014223500     0.9964384   -0.0273556     0.0000004   -0.0000006     0.0000011   -0.0000001    -0.0033566    0.0008603 
   0.014473000     0.9963338   -0.0278748     0.0000003    0.0000011    -0.0000002   -0.0000003    -0.0033571    0.0008610 
   0.014722500     0.9963248   -0.0282421     0.0000012   -0.0000012    -0.0000005   -0.0000008    -0.0033601    0.0008507 
   0.014972000     0.9964072   -0.0288687     0.0000003    0.0000001     0.0000006    0.0000005    -0.0033708    0.0008325 
   0.015221500     0.9964403   -0.0292565     0.0000005   -0.0000001    -0.0000005   -0.0000002    -0.0033758    0.0008305 
   0.015471000     0.9962820   -0.0296409     0.0000001   -0.0000011    -0.0000004   -0.0000004    -0.0033796    0.0008240 
   0.015720500     0.9961733   -0.0300133    -0.0000011    0.0000004    -0.0000004    0.0000013    -0.0033925    0.0008216 
   0.015970000     0.9961298   -0.0303318     0.0000004    0.0000002     0.0000009    0.0000001    -0.0033932    0.0008164 
   0.016219500     0.9960570   -0.0309640    -0.0000010    0.0000001     0.0000011    0.0000012    -0.0034163    0.0008048 
   0.016469000     0.9961275   -0.0314319     0.0000007    0.0000004    -0.0000015    0.0000004    -0.0034263    0.0008072 
   0.016718500     0.9961505   -0.0318434     0.0000013    0.0000003     0.0000005    0.0000008    -0.0034354    0.0007862 
   0.016968000     0.9961593   -0.0323403    -0.0000007   -0.0000008     0.0000004   -0.0000005    -0.0034345    0.0007673 
   0.017217500     0.9959889   -0.0327516    -0.0000014   -0.0000006     0.0000002   -0.0000002    -0.0034519    0.0007588 
   0.017467000     0.9961188   -0.0332395    -0.0000010    0.0000003    -0.0000015    0.0000001    -0.0034507    0.0007438 
   0.017716500     0.9961030   -0.0336406    -0.0000004   -0.0000003    -0.0000001   -0.0000006    -0.0034612    0.0007370 
   0.017966000     0.9960998   -0.0342109     0.0000002    0.0000001     0.0000005   -0.0000007    -0.0034544    0.0007289 
   0.018215500     0.9961179   -0.0345941     0.0000011   -0.0000010     0.0000007    0.0000001    -0.0034542    0.0007008 
   0.018465000     0.9959546   -0.0350867     0.0000008    0.0000012    -0.0000001    0.0000006    -0.0034549    0.0006955 
   0.018714500     0.9959139   -0.0354573    -0.0000001   -0.0000009    -0.0000003   -0.0000006    -0.0034498    0.0006965 
   0.018964000     0.9957814   -0.0360159    -0.0000017   -0.0000011     0.0000003   -0.0000002    -0.0034417    0.0006734 
   0.019213500     0.9957996   -0.0364362    -0.0000005    0.0000003    -0.0000010   -0.0000006    -0.0034219    0.0006751 
   0.019463000     0.9957324   -0.0369017     0.0000012    0.0000002    -0.0000005   -0.0000014    -0.0034300    0.0006538 
   0.019712500     0.9956421   -0.0373369     0.0000002   -0.0000007    -0.0000008    0.0000005    -0.0034233    0.0006533 
   0.019962000     0.9956671   -0.0376665    -0.0000005    0.0000000    -0.0000002    0.0000000    -0.0034186    0.0006519 
   0.020211500     0.9957321   -0.0381430     0.0000006    0.0000009    -0.0000007   -0.0000003    -0.0034238    0.0006262 
   0.020461000     0.9956653   -0.0385875     0.0000007    0.0000000     0.0000015   -0.0000010    -0.0034285    0.0006384 
   0.020710500     0.9955708   -0.0390453     0.0000005   -0.0000018     0.0000006    0.0000002    -0.0034224    0.0006163 
   0.020960000     0.9955821   -0.0395007     0.0000006   -0.0000008     0.0000000   -0.0000009    -0.0034399    0.0005964 
   0.021209500     0.9954090   -0.0399764    -0.0000003   -0.0000004    -0.0000009    0.0000003    -0.0034315    0.0005813 
   0.021459000     0.9954020   -0.0403466    -0.0000001    0.0000003     0.0000003    0.0000003    -0.0034195    0.0005843 
   0.021708500     0.9953958   -0.0408340    -0.0000011    0.0000006     0.0000001    0.0000022    -0.0034254    0.0005648 
   0.021958000     0.9954970   -0.0414193     0.0000004    0.0000005    -0.0000002    0.0000006    -0.0034273    0.0005449 
   0.022207500     0.9954296   -0.0417831    -0.0000004   -0.0000002    -0.0000003   -0.0000007    -0.0034240    0.0005378 
   0.022457000     0.9955347   -0.0423048     0.0000005    0.0000005    -0.0000005    0.0000008    -0.0034353    0.0005672 
   0.022706500     0.9955344   -0.0426103    -0.0000001   -0.0000018    -0.0000005    0.0000001    -0.0034316    0.0005455 
   0.022956000     0.9952933   -0.0432599     0.0000004    0.0000007    -0.0000011   -0.0000009    -0.0034284    0.0005188 
   0.023205500     0.9953153   -0.0436456    -0.0000009    0.0000006     0.0000002   -0.0000002    -0.0034225    0.0005330 
   0.023455000     0.9951329   -0.0440193    -0.0000005   -0.0000011    -0.0000004    0.0000002    -0.0034145    0.0005037 
   0.023704500     0.9950842   -0.0445076    -0.0000015    0.0000007    -0.0000003   -0.0000011    -0.0034055    0.0005095 
   0.023954000     0.9951229   -0.0449370     0.0000007    0.0000007    -0.0000002   -0.0000003    -0.0034019    0.0004945 
   0.024203500     0.9951540   -0.0454027    -0.0000002    0.0000012     0.0000003    0.0000005    -0.0033956    0.0004859 
   0.024453000     0.9950805   -0.0458438     0.0000002    0.0000008    -0.0000007    0.0000006    -0.0033949    0.0004646 
   0.024702500     0.9950539   -0.0462133    -0.0000008   -0.0000004     0.0000011   -0.0000003    -0.0033855    0.0004672 
   0.024952000     0.9949804   -0.0467085     0.0000012    0.0000012    -0.0000012    0.0000009    -0.0033878    0.0004503 
   0.025201500     0.9954075   -0.0469986     0.0000001   -0.0000001    -0.0000001    0.0000002    -0.0034168    0.0004621 
   0.025451000     0.9950461   -0.0474499     0.0000011    0.0000010     0.0000001   -0.0000009    -0.0033706    0.0004271 
   0.025700500     0.9949776   -0.0481332     0.0000000   -0.0000004     0.0000003   -0.0000008    -0.0033528    0.0004237 
   0.025950000     0.9949693   -0.0485444     0.0000004   -0.0000004    -0.0000002    0.0000000    -0.0033483    0.0004228 
   0.026199500     0.9948608   -0.0490415    -0.0000011   -0.0000002     0.0000001    0.0000011    -0.0033508    0.0004013 
   0.026449000     0.9948317   -0.0495039     0.0000014   -0.0000003    -0.0000001    0.0000004    -0.0033205    0.0004011 
   0.026698500     0.9948143   -0.0498316    -0.0000005   -0.0000027     0.0000000    0.0000004    -0.0033132    0.0003956 
   0.026948000     0.9947091   -0.0502912    -0.0000002    0.0000000    -0.0000013   -0.0000007    -0.0033034    0.0003816 
   0.027197500     0.9947051   -0.0507148     0.0000003   -0.0000006    -0.0000011    0.0000008    -0.0032856    0.0003857 
   0.027447000     0.9947070   -0.0510872    -0.0000015    0.0000010     0.0000011   -0.0000003    -0.0032648    0.0003663 
   0.027696500     0.9945737   -0.0514989    -0.0000007   -0.0000013    -0.0000003   -0.0000004    -0.0032631    0.0003638 
   0.027946000     0.9947019   -0.0519726     0.0000004    0.0000003    -0.0000006    0.0000005    -0.0032526    0.0003581 
   0.028195500     0.9945587   -0.0523211    -0.0000003    0.0000000     0.0000015   -0.0000006    -0.0032392    0.0003508 
   0.028445000     0.9945536   -0.0528067    -0.0000005    0.0000006    -0.0000006   -0.0000003    -0.0032239    0.0003318 
   0.028694500     0.9943587   -0.0532457    -0.0000001    0.0000005    -0.0000010    0.0000002    -0.0032128    0.0003272 
   0.028944000     0.9942475   -0.0537678    -0.0000009   -0.0000005     0.0000005    0.0000009    -0.0031886    0.0003329 
   0.029193500     0.9942937   -0.0543148     0.0000006    0.0000000    -0.0000003    0.0000001    -0.0031864    0.0003265 
   0.029443000     0.9942783   -0.0547262     0.0000001   -0.0000013     0.0000002    0.0000000    -0.0031682    0.0003052 
   0.029692500     0.9942139   -0.0552432    -0.0000005   -0.0000004     0.0000005   -0.0000003    -0.0031522    0.0003172 
   0.029942000     0.9941900   -0.0557096    -0.0000022   -0.0000002     0.0000003   -0.0000002    -0.0031416    0.0003079 
   0.030191500     0.9941922   -0.0558328     0.0000002   -0.0000001    -0.0000017    0.0000009    -0.0031194    0.0003024 
   0.030441000     0.9941450   -0.0563941     0.0000003   -0.0000015     0.0000000   -0.0000007    -0.0031104    0.0003155 
   0.030690500     0.9941170   -0.0566886    -0.0000010    0.0000009     0.0000001    0.0000008    -0.0030892    0.0002892 
   0.030940000     0.9941299   -0.0571910     0.0000000   -0.0000006     0.0000006    0.0000012    -0.0030765    0.0003110 
   0.031189500     0.9940636   -0.0576063     0.0000006    0.0000002    -0.0000003    0.0000001    -0.0030675    0.0003079 
   0.031439000     0.9940359   -0.0581168     0.0000010   -0.0000014     0.0000006    0.0000010    -0.0030353    0.0003103 
   0.031688500     0.9939925   -0.0586858     0.0000018   -0.0000003     0.0000014    0.0000001    -0.0030273    0.0003001 
   0.031938000     0.9939539   -0.0591468     0.0000009    0.0000015     0.0000004   -0.0000004    -0.0029949    0.0003093 
   0.032187500     0.9939835   -0.0593398    -0.0000022   -0.0000023     0.0000007   -0.0000007    -0.0029926    0.0003002 
   0.032437000     0.9938761   -0.0598715     0.0000007   -0.0000004    -0.0000014    0.0000003    -0.0029743    0.0002927 
   0.032686500     0.9939214   -0.0600877     0.0000007    0.0000009    -0.0000007   -0.0000001    -0.0029344    0.0002552 
   0.032936000     0.9938604   -0.0608252     0.0000005    0.0000005    -0.0000006    0.0000002    -0.0029308    0.0003044 
   0.033185500     0.9938217   -0.0610294    -0.0000008    0.0000002     0.0000000    0.0000001    -0.0028920    0.0002467 
   0.033435000     0.9937179   -0.0616773    -0.0000002    0.0000010    -0.0000009   -0.0000005    -0.0028935    0.0003100 
   0.033684500     0.9936672   -0.0622193     0.0000002   -0.0000008    -0.0000005    0.0000000    -0.0028704    0.0003094 
   0.033934000     0.9935979   -0.0626642     0.0000004   -0.0000010     0.0000002   -0.0000010    -0.0028571    0.0003160 
   0.034183500     0.9936899   -0.0632572    -0.0000003   -0.0000012    -0.0000010   -0.0000006    -0.0028401    0.0003097 
   0.034433000     0.9936707   -0.0635676    -0.0000006   -0.0000003     0.0000008    0.0000008    -0.0028274    0.0003153 
   0.034682500     0.9936841   -0.0641286    -0.0000011    0.0000015     0.0000000    0.0000005    -0.0028063    0.0003325 
   0.034932000     0.9936332   -0.0644433     0.0000012    0.0000008     0.0000005    0.0000000    -0.0027944    0.0003448 
   0.035181500     0.9935712   -0.0648598    -0.0000007   -0.0000016     0.0000007    0.0000003    -0.0027706    0.0003407 
   0.035431000     0.9936476   -0.0651886     0.0000002    0.0000006    -0.0000005    0.0000000    -0.0027566    0.0003381 
   0.035680500     0.9935080   -0.0657077     0.0000003    0.0000009    -0.0000005   -0.0000001    -0.0027283    0.0003635 
   0.035930000     0.9934032   -0.0662043    -0.0000002    0.0000014    -0.0000004    0.0000002    -0.0027231    0.0003601 
   0.036179500     0.9932944   -0.0666798     0.0000005    0.0000005    -0.0000006   -0.0000004    -0.0026862    0.0003635 
   0.036429000     0.9932882   -0.0671230     0.0000007    0.0000002    -0.0000006   -0.0000011    -0.0026689    0.0003753 
   0.036678500     0.9933348   -0.0676739     0.0000004    0.0000009    -0.0000001    0.0000003    -0.0026558    0.0003792 
   0.036928000     0.9932241   -0.0681339     0.0000000    0.0000000    -0.0000003   -0.0000011    -0.0026255    0.0003859 
   0.037177500     0.9932258   -0.0685779    -0.0000018    0.0000000     0.0000008   -0.0000004    -0.0026031    0.0003994 
   0.037427000     0.9933056   -0.0688614     0.0000003   -0.0000003     0.0000000    0.0000010    -0.0025800    0.0004050 
   0.037676500     0.9932654   -0.0693145     0.0000000   -0.0000005     0.0000000    0.0000001    -0.0025604    0.0004114 
   0.037926000     0.9932882   -0.0696957     0.0000005    0.0000014    -0.0000002    0.0000000    -0.0025292    0.0004087 
   0.038175500     0.9932113   -0.0701846    -0.0000018    0.0000007    -0.0000002   -0.0000015    -0.0025160    0.0004298 
   0.038425000     0.9931650   -0.0705776     0.0000002   -0.0000003    -0.0000011   -0.0000008    -0.0024928    0.0004328 
   0.038674500     0.9931487   -0.0710321    -0.0000009   -0.0000005    -0.0000005   -0.0000020    -0.0024778    0.0004606 
   0.038924000     0.9930519   -0.0716368     0.0000012   -0.0000005    -0.0000005   -0.0000002    -0.0024720    0.0004838 
   0.039173500     0.9930225   -0.0720775    -0.0000015   -0.0000001     0.0000006   -0.0000003    -0.0024364    0.0004799 
   0.039423000     0.9930408   -0.0725560    -0.0000014   -0.0000001     0.0000010   -0.0000006    -0.0023990    0.0004955 
   0.039672500     0.9930136   -0.0725999     0.0000006    0.0000010     0.0000011    0.0000010    -0.0023481    0.0004784 
   0.039922000     0.9931943   -0.0730638     0.0000001    0.0000003     0.0000009   -0.0000010    -0.0024052    0.0004429 
   0.040171500     0.9932531   -0.0735087     0.0000002   -0.0000006    -0.0000003   -0.0000005    -0.0023703    0.0004661 
