! MS46122B
! 1746301/73750021
! 8/7/2023 3:10:15 PM
! C:\USERS\SPEGWAL\DOWNLOADS\SAURABH\REACH\NODES\FRONT END\MEASUREMENTS\MEASURED S-PARAMETER_07-08-2023\MS-3\P2_J2\J4_ON.S2P
! CHANNEL.1
! TR.MEASUREMENT
! CORRECTED.DATA
# GHZ S RI R 50.0
! FREQ.GHZ         S11RE         S11IM         S21RE         S21IM         S12RE         S12IM         S22RE         S22IM         
!; PortSelection: Port_12
   0.001000000     1.0055460   -0.0080201     0.0000042   -0.0000033     0.0000023    0.0000013    -0.0054637    0.0032110 
   0.001249500     1.0027600   -0.0078685     0.0000010   -0.0000003    -0.0000013   -0.0000003    -0.0060544    0.0032447 
   0.001499000     1.0026310   -0.0079858     0.0000000    0.0000006     0.0000007   -0.0000014    -0.0062916    0.0034559 
   0.001748500     1.0025190   -0.0082636    -0.0000004    0.0000000     0.0000005    0.0000014    -0.0062210    0.0036921 
   0.001998000     1.0025180   -0.0085386    -0.0000001    0.0000016    -0.0000009    0.0000022    -0.0060545    0.0038226 
   0.002247500     1.0029530   -0.0096095    -0.0000011    0.0000002    -0.0000011   -0.0000002    -0.0056322    0.0035859 
   0.002497000     1.0028870   -0.0099040    -0.0000002    0.0000006    -0.0000015    0.0000011    -0.0053347    0.0036231 
   0.002746500     1.0029900   -0.0101920     0.0000011   -0.0000009    -0.0000016    0.0000006    -0.0050563    0.0036091 
   0.002996000     1.0031160   -0.0105532     0.0000009   -0.0000013    -0.0000008   -0.0000014    -0.0047485    0.0034706 
   0.003245500     1.0031560   -0.0108961     0.0000005    0.0000005     0.0000009    0.0000000    -0.0045034    0.0033784 
   0.003495000     1.0031310   -0.0111608    -0.0000002    0.0000003    -0.0000005   -0.0000006    -0.0042539    0.0032530 
   0.003744500     1.0032460   -0.0116237     0.0000008   -0.0000008    -0.0000001   -0.0000005    -0.0040382    0.0030648 
   0.003994000     1.0033140   -0.0121491    -0.0000001    0.0000001    -0.0000004    0.0000002    -0.0038292    0.0028521 
   0.004243500     1.0033560   -0.0123766     0.0000004    0.0000005     0.0000015   -0.0000003    -0.0034083    0.0025627 
   0.004493000     1.0034170   -0.0129280     0.0000014    0.0000009     0.0000015   -0.0000004    -0.0032794    0.0024454 
   0.004742500     1.0034550   -0.0133061    -0.0000014    0.0000006    -0.0000002    0.0000004    -0.0031820    0.0023177 
   0.004992000     1.0035390   -0.0137559     0.0000014   -0.0000004    -0.0000001    0.0000008    -0.0031025    0.0021847 
   0.005241500     1.0036660   -0.0143411    -0.0000002    0.0000010    -0.0000003    0.0000009    -0.0030197    0.0020328 
   0.005491000     1.0036840   -0.0148061     0.0000002    0.0000010     0.0000000   -0.0000001    -0.0029893    0.0019099 
   0.005740500     1.0037130   -0.0153678    -0.0000007    0.0000003     0.0000001    0.0000005    -0.0029686    0.0018137 
   0.005990000     1.0037510   -0.0159658     0.0000000    0.0000010     0.0000004    0.0000003    -0.0029530    0.0017205 
   0.006239500     1.0037310   -0.0164030    -0.0000005   -0.0000001     0.0000010    0.0000001    -0.0029431    0.0016334 
   0.006489000     1.0039310   -0.0169855     0.0000002   -0.0000001     0.0000001   -0.0000002    -0.0029501    0.0015455 
   0.006738500     1.0038810   -0.0174481    -0.0000003    0.0000003    -0.0000001    0.0000001    -0.0029541    0.0014728 
   0.006988000     1.0038480   -0.0179707     0.0000001    0.0000014    -0.0000004    0.0000004    -0.0029557    0.0014297 
   0.007237500     1.0037570   -0.0183925     0.0000008    0.0000008    -0.0000002   -0.0000004    -0.0029783    0.0013803 
   0.007487000     1.0033600   -0.0185322    -0.0000007    0.0000002     0.0000003    0.0000008    -0.0029988    0.0013475 
   0.007736500     1.0029430   -0.0188172     0.0000012    0.0000001     0.0000002   -0.0000009    -0.0029991    0.0013014 
   0.007986000     1.0023540   -0.0188639     0.0000006    0.0000000     0.0000002   -0.0000009    -0.0030114    0.0012705 
   0.008235500     1.0015060   -0.0190982    -0.0000009    0.0000013     0.0000013    0.0000005    -0.0030307    0.0012333 
   0.008485000     1.0008180   -0.0191475     0.0000002   -0.0000003     0.0000000   -0.0000006    -0.0030438    0.0012085 
   0.008734500     0.9999253   -0.0191794     0.0000004    0.0000005    -0.0000011    0.0000000    -0.0030472    0.0011776 
   0.008984000     0.9992586   -0.0192024    -0.0000003    0.0000000     0.0000004   -0.0000011    -0.0030634    0.0011492 
   0.009233500     0.9970345   -0.0182599    -0.0000009   -0.0000003    -0.0000002    0.0000006    -0.0031153    0.0011166 
   0.009483000     0.9969305   -0.0187592    -0.0000008   -0.0000005    -0.0000010   -0.0000004    -0.0030998    0.0011006 
   0.009732500     0.9969916   -0.0192377    -0.0000004    0.0000004    -0.0000009   -0.0000008    -0.0031205    0.0010778 
   0.009982000     0.9969440   -0.0196219     0.0000014    0.0000003    -0.0000002    0.0000004    -0.0031354    0.0010554 
   0.010231500     0.9968348   -0.0200503     0.0000002    0.0000015     0.0000000    0.0000005    -0.0031541    0.0010560 
   0.010481000     0.9967637   -0.0205036     0.0000003    0.0000007    -0.0000004   -0.0000006    -0.0031802    0.0010290 
   0.010730500     0.9967964   -0.0210589    -0.0000006   -0.0000004     0.0000002   -0.0000007    -0.0031731    0.0010403 
   0.010980000     0.9967983   -0.0215920     0.0000000   -0.0000003    -0.0000002    0.0000010    -0.0032061    0.0010199 
   0.011229500     0.9966834   -0.0219367     0.0000007   -0.0000001    -0.0000002    0.0000010    -0.0032037    0.0010056 
   0.011479000     0.9966451   -0.0225311     0.0000003   -0.0000015    -0.0000001    0.0000000    -0.0032214    0.0009884 
   0.011728500     0.9968172   -0.0229192    -0.0000005    0.0000006     0.0000004    0.0000007    -0.0032385    0.0009830 
   0.011978000     0.9967063   -0.0232711    -0.0000001   -0.0000001    -0.0000001    0.0000008    -0.0032446    0.0009804 
   0.012227500     0.9967559   -0.0238429     0.0000001   -0.0000006    -0.0000002   -0.0000009    -0.0032605    0.0009696 
   0.012477000     0.9966614   -0.0243070     0.0000006   -0.0000001    -0.0000006    0.0000003    -0.0032762    0.0009555 
   0.012726500     0.9966767   -0.0247609     0.0000006    0.0000002     0.0000010   -0.0000012    -0.0032900    0.0009404 
   0.012976000     0.9967125   -0.0251957     0.0000003    0.0000012     0.0000001   -0.0000014    -0.0032897    0.0009104 
   0.013225500     0.9965589   -0.0256483     0.0000000    0.0000006     0.0000007   -0.0000003    -0.0033019    0.0009065 
   0.013475000     0.9966072   -0.0260731    -0.0000006    0.0000016     0.0000000   -0.0000001    -0.0033167    0.0008894 
   0.013724500     0.9963912   -0.0265606     0.0000005    0.0000004     0.0000001   -0.0000009    -0.0033277    0.0008828 
   0.013974000     0.9964351   -0.0270032    -0.0000005    0.0000000     0.0000003    0.0000003    -0.0033337    0.0008752 
   0.014223500     0.9964477   -0.0274230     0.0000009    0.0000006    -0.0000003   -0.0000003    -0.0033505    0.0008630 
   0.014473000     0.9963299   -0.0278869    -0.0000001    0.0000008    -0.0000010    0.0000006    -0.0033590    0.0008650 
   0.014722500     0.9963354   -0.0284151    -0.0000002   -0.0000002    -0.0000009    0.0000003    -0.0033630    0.0008443 
   0.014972000     0.9963786   -0.0289408     0.0000004    0.0000005     0.0000012    0.0000001    -0.0033620    0.0008238 
   0.015221500     0.9963651   -0.0292805    -0.0000003    0.0000001    -0.0000001   -0.0000009    -0.0033765    0.0008343 
   0.015471000     0.9963372   -0.0296767    -0.0000002   -0.0000002    -0.0000007   -0.0000003    -0.0033812    0.0008277 
   0.015720500     0.9962270   -0.0301126     0.0000007    0.0000012     0.0000000   -0.0000006    -0.0033954    0.0008287 
   0.015970000     0.9961823   -0.0304615     0.0000007   -0.0000002    -0.0000016   -0.0000002    -0.0033974    0.0008139 
   0.016219500     0.9960655   -0.0309518    -0.0000003   -0.0000002    -0.0000006    0.0000001    -0.0034164    0.0008074 
   0.016469000     0.9961084   -0.0314928     0.0000007   -0.0000004    -0.0000008    0.0000007    -0.0034247    0.0008037 
   0.016718500     0.9960369   -0.0319435     0.0000002    0.0000007    -0.0000004    0.0000003    -0.0034409    0.0007902 
   0.016968000     0.9961807   -0.0324154    -0.0000007    0.0000005    -0.0000007    0.0000010    -0.0034403    0.0007595 
   0.017217500     0.9960132   -0.0328704     0.0000005   -0.0000005     0.0000006   -0.0000005    -0.0034475    0.0007566 
   0.017467000     0.9960384   -0.0332206     0.0000003    0.0000004     0.0000006    0.0000000    -0.0034436    0.0007530 
   0.017716500     0.9961233   -0.0337859     0.0000000   -0.0000010    -0.0000002   -0.0000002    -0.0034554    0.0007389 
   0.017966000     0.9960130   -0.0342312     0.0000000   -0.0000003     0.0000008   -0.0000005    -0.0034596    0.0007263 
   0.018215500     0.9960646   -0.0346925    -0.0000009   -0.0000004     0.0000002   -0.0000014    -0.0034601    0.0007066 
   0.018465000     0.9958935   -0.0351278    -0.0000006   -0.0000001    -0.0000006    0.0000005    -0.0034600    0.0006923 
   0.018714500     0.9959744   -0.0355633    -0.0000017   -0.0000002    -0.0000011    0.0000001    -0.0034497    0.0006908 
   0.018964000     0.9957634   -0.0359996     0.0000009    0.0000009    -0.0000002    0.0000004    -0.0034577    0.0006757 
   0.019213500     0.9958131   -0.0365142    -0.0000003    0.0000000    -0.0000003   -0.0000006    -0.0034298    0.0006710 
   0.019463000     0.9957422   -0.0369378    -0.0000008   -0.0000001     0.0000000    0.0000007    -0.0034322    0.0006554 
   0.019712500     0.9956372   -0.0373685     0.0000007   -0.0000004     0.0000006    0.0000001    -0.0034247    0.0006502 
   0.019962000     0.9956983   -0.0376803     0.0000001   -0.0000001     0.0000006    0.0000009    -0.0034157    0.0006451 
   0.020211500     0.9957498   -0.0381948     0.0000006   -0.0000008     0.0000000   -0.0000002    -0.0034186    0.0006310 
   0.020461000     0.9956200   -0.0386086    -0.0000003   -0.0000009     0.0000005    0.0000002    -0.0034286    0.0006243 
   0.020710500     0.9955370   -0.0390237     0.0000001   -0.0000003    -0.0000011    0.0000005    -0.0034194    0.0006186 
   0.020960000     0.9955146   -0.0396080    -0.0000012   -0.0000003     0.0000001   -0.0000003    -0.0034369    0.0006083 
   0.021209500     0.9954605   -0.0400404    -0.0000006   -0.0000001     0.0000016    0.0000004    -0.0034287    0.0005818 
   0.021459000     0.9954374   -0.0405067     0.0000002    0.0000009     0.0000000    0.0000021    -0.0034324    0.0005834 
   0.021708500     0.9954427   -0.0409490     0.0000004   -0.0000002     0.0000008   -0.0000001    -0.0034287    0.0005600 
   0.021958000     0.9954529   -0.0414569    -0.0000008   -0.0000012     0.0000001   -0.0000004    -0.0034199    0.0005574 
   0.022207500     0.9953978   -0.0419200    -0.0000007    0.0000004    -0.0000004    0.0000006    -0.0034148    0.0005374 
   0.022457000     0.9954990   -0.0424333    -0.0000007   -0.0000016     0.0000006    0.0000000    -0.0034451    0.0005619 
   0.022706500     0.9955451   -0.0427271     0.0000003   -0.0000007     0.0000000   -0.0000006    -0.0034315    0.0005522 
   0.022956000     0.9952476   -0.0432750     0.0000010    0.0000017    -0.0000004    0.0000003    -0.0034319    0.0005150 
   0.023205500     0.9952710   -0.0437309    -0.0000008    0.0000006     0.0000009    0.0000001    -0.0034257    0.0005286 
   0.023455000     0.9951922   -0.0440463    -0.0000003   -0.0000008    -0.0000003   -0.0000011    -0.0034186    0.0005102 
   0.023704500     0.9952111   -0.0444219     0.0000013    0.0000004     0.0000008    0.0000011    -0.0034115    0.0005046 
   0.023954000     0.9950746   -0.0451168    -0.0000006    0.0000003    -0.0000005   -0.0000001    -0.0034046    0.0004865 
   0.024203500     0.9950330   -0.0455818    -0.0000004   -0.0000001    -0.0000006   -0.0000002    -0.0033971    0.0004751 
   0.024453000     0.9951327   -0.0459250    -0.0000002    0.0000006    -0.0000011   -0.0000003    -0.0034067    0.0004645 
   0.024702500     0.9950249   -0.0463258    -0.0000006    0.0000005     0.0000003   -0.0000002    -0.0033911    0.0004667 
   0.024952000     0.9949715   -0.0468701     0.0000001   -0.0000001    -0.0000001    0.0000011    -0.0033886    0.0004493 
   0.025201500     0.9953997   -0.0470966     0.0000007    0.0000001     0.0000007    0.0000007    -0.0034182    0.0004525 
   0.025451000     0.9950227   -0.0475925     0.0000010   -0.0000018     0.0000000    0.0000009    -0.0033706    0.0004346 
   0.025700500     0.9949604   -0.0481712     0.0000010   -0.0000006    -0.0000002    0.0000013    -0.0033608    0.0004162 
   0.025950000     0.9949902   -0.0486026    -0.0000005    0.0000012     0.0000006    0.0000002    -0.0033485    0.0004265 
   0.026199500     0.9948898   -0.0490689    -0.0000002   -0.0000006     0.0000004   -0.0000005    -0.0033352    0.0004047 
   0.026449000     0.9948485   -0.0496262     0.0000001   -0.0000009    -0.0000006    0.0000000    -0.0033257    0.0004024 
   0.026698500     0.9948324   -0.0499197    -0.0000004    0.0000005     0.0000000    0.0000006    -0.0033131    0.0003916 
   0.026948000     0.9946924   -0.0503973    -0.0000001   -0.0000005    -0.0000006    0.0000006    -0.0033092    0.0003830 
   0.027197500     0.9947387   -0.0508449    -0.0000006   -0.0000001    -0.0000001   -0.0000004    -0.0032872    0.0003845 
   0.027447000     0.9947013   -0.0511489     0.0000004    0.0000006     0.0000003    0.0000008    -0.0032679    0.0003690 
   0.027696500     0.9945769   -0.0516315    -0.0000006    0.0000000     0.0000008    0.0000001    -0.0032692    0.0003563 
   0.027946000     0.9947225   -0.0520400    -0.0000007   -0.0000008    -0.0000001    0.0000015    -0.0032574    0.0003517 
   0.028195500     0.9945770   -0.0523737     0.0000005   -0.0000012    -0.0000002   -0.0000002    -0.0032523    0.0003408 
   0.028445000     0.9945344   -0.0528435    -0.0000015   -0.0000001     0.0000001    0.0000002    -0.0032302    0.0003298 
   0.028694500     0.9943796   -0.0533594    -0.0000002   -0.0000012    -0.0000012    0.0000002    -0.0032208    0.0003225 
   0.028944000     0.9942482   -0.0539885     0.0000002   -0.0000012     0.0000000    0.0000002    -0.0031973    0.0003198 
   0.029193500     0.9943273   -0.0544339     0.0000005    0.0000004    -0.0000002    0.0000000    -0.0031879    0.0003254 
   0.029443000     0.9942073   -0.0548969    -0.0000001    0.0000000    -0.0000017    0.0000012    -0.0031795    0.0003051 
   0.029692500     0.9942600   -0.0553754     0.0000007    0.0000011     0.0000001   -0.0000001    -0.0031647    0.0003213 
   0.029942000     0.9941673   -0.0558049    -0.0000006    0.0000006    -0.0000007   -0.0000009    -0.0031323    0.0002962 
   0.030191500     0.9942148   -0.0560058     0.0000005    0.0000005     0.0000004   -0.0000003    -0.0031227    0.0003061 
   0.030441000     0.9941437   -0.0565076     0.0000005   -0.0000006     0.0000016   -0.0000006    -0.0031142    0.0003040 
   0.030690500     0.9941778   -0.0568287    -0.0000008    0.0000001     0.0000015   -0.0000002    -0.0030941    0.0002949 
   0.030940000     0.9941122   -0.0574019    -0.0000003   -0.0000012    -0.0000005    0.0000003    -0.0030774    0.0002989 
   0.031189500     0.9941174   -0.0578023    -0.0000003   -0.0000015     0.0000002   -0.0000006    -0.0030588    0.0003136 
   0.031439000     0.9940177   -0.0582103    -0.0000010    0.0000001     0.0000011   -0.0000003    -0.0030394    0.0003019 
   0.031688500     0.9939650   -0.0588082     0.0000001   -0.0000004     0.0000002    0.0000011    -0.0030345    0.0002986 
   0.031938000     0.9939483   -0.0592717     0.0000015   -0.0000002    -0.0000001   -0.0000005    -0.0030030    0.0003041 
   0.032187500     0.9939520   -0.0595121    -0.0000004    0.0000009    -0.0000005    0.0000022    -0.0030041    0.0003001 
   0.032437000     0.9938352   -0.0600401     0.0000002   -0.0000008    -0.0000006    0.0000003    -0.0029829    0.0002957 
   0.032686500     0.9939500   -0.0602031    -0.0000004    0.0000000    -0.0000006   -0.0000001    -0.0029380    0.0002397 
   0.032936000     0.9938231   -0.0609539    -0.0000011   -0.0000002    -0.0000004    0.0000000    -0.0029403    0.0003065 
   0.033185500     0.9937515   -0.0612319     0.0000010    0.0000007    -0.0000009    0.0000005    -0.0028955    0.0002486 
   0.033435000     0.9937169   -0.0618344     0.0000007    0.0000001    -0.0000015    0.0000003    -0.0029012    0.0003013 
   0.033684500     0.9936316   -0.0623596    -0.0000012   -0.0000006     0.0000003    0.0000006    -0.0028742    0.0003066 
   0.033934000     0.9935500   -0.0628185     0.0000008   -0.0000003     0.0000006   -0.0000001    -0.0028636    0.0003113 
   0.034183500     0.9936810   -0.0633969     0.0000004    0.0000007     0.0000008    0.0000014    -0.0028350    0.0003033 
   0.034433000     0.9936891   -0.0637939     0.0000008    0.0000001     0.0000000    0.0000006    -0.0028332    0.0003226 
   0.034682500     0.9936593   -0.0642665     0.0000002    0.0000005    -0.0000001   -0.0000006    -0.0028176    0.0003280 
   0.034932000     0.9935854   -0.0645887     0.0000002   -0.0000007     0.0000007   -0.0000009    -0.0027935    0.0003216 
   0.035181500     0.9935923   -0.0650024     0.0000004    0.0000014    -0.0000004   -0.0000013    -0.0027850    0.0003451 
   0.035431000     0.9936454   -0.0654327    -0.0000007   -0.0000012    -0.0000002    0.0000000    -0.0027546    0.0003370 
   0.035680500     0.9935513   -0.0658004    -0.0000006    0.0000016    -0.0000002    0.0000006    -0.0027284    0.0003553 
   0.035930000     0.9933964   -0.0663690     0.0000013   -0.0000021     0.0000001    0.0000006    -0.0027168    0.0003498 
   0.036179500     0.9932715   -0.0668541    -0.0000002    0.0000003     0.0000000    0.0000004    -0.0026959    0.0003476 
   0.036429000     0.9933066   -0.0672898     0.0000001   -0.0000004     0.0000002    0.0000017    -0.0026828    0.0003681 
   0.036678500     0.9932681   -0.0678016    -0.0000011   -0.0000007    -0.0000004   -0.0000002    -0.0026634    0.0003819 
   0.036928000     0.9932094   -0.0682995     0.0000001   -0.0000004    -0.0000004    0.0000000    -0.0026329    0.0003831 
   0.037177500     0.9932424   -0.0687453     0.0000001   -0.0000003    -0.0000011   -0.0000003    -0.0026084    0.0003887 
   0.037427000     0.9932941   -0.0690279     0.0000015   -0.0000005    -0.0000001    0.0000001    -0.0025784    0.0004005 
   0.037676500     0.9932591   -0.0694878     0.0000002   -0.0000001     0.0000007   -0.0000014    -0.0025645    0.0004107 
   0.037926000     0.9932350   -0.0699303     0.0000000   -0.0000014     0.0000011    0.0000006    -0.0025407    0.0004152 
   0.038175500     0.9931723   -0.0703159     0.0000003   -0.0000001     0.0000007   -0.0000003    -0.0025227    0.0004234 
   0.038425000     0.9931552   -0.0707566     0.0000001    0.0000010     0.0000000   -0.0000001    -0.0024997    0.0004240 
   0.038674500     0.9931091   -0.0711831     0.0000001    0.0000002     0.0000000   -0.0000004    -0.0024811    0.0004500 
   0.038924000     0.9930043   -0.0717589     0.0000002    0.0000004     0.0000007    0.0000000    -0.0024722    0.0004630 
   0.039173500     0.9930391   -0.0722523     0.0000002   -0.0000004     0.0000007    0.0000011    -0.0024419    0.0004678 
   0.039423000     0.9930639   -0.0727693    -0.0000004   -0.0000001    -0.0000005    0.0000009    -0.0024065    0.0004803 
   0.039672500     0.9930744   -0.0727146     0.0000010   -0.0000006    -0.0000019    0.0000019    -0.0023506    0.0004611 
   0.039922000     0.9931814   -0.0732534     0.0000015    0.0000004    -0.0000005   -0.0000002    -0.0024000    0.0004384 
   0.040171500     0.9932489   -0.0737018    -0.0000001    0.0000008    -0.0000001    0.0000002    -0.0023761    0.0004535 
