! COPPER MOUNTAIN TECHNOLOGIES, PLANAR TR1300/1, 00071119, 20.2.2/1.0
! Date: 11/21/2023 6:53:13 PM
! Data: Format [Calibration Info]
! Freq          	S11: Re/Im F1                  
# HZ S RI R 50
5.00000000E+07	 3.21049383E-01	-4.59997975E-01
5.00122080E+07	 3.18094020E-01	-4.62075225E-01
5.00244160E+07	 3.15132277E-01	-4.64114268E-01
5.00366241E+07	 3.12137280E-01	-4.66141556E-01
5.00488321E+07	 3.09139943E-01	-4.68147146E-01
5.00610401E+07	 3.06124431E-01	-4.70124920E-01
5.00732481E+07	 3.03105269E-01	-4.72094959E-01
5.00854562E+07	 3.00085394E-01	-4.74043299E-01
5.00976642E+07	 2.97027904E-01	-4.75975697E-01
5.01098722E+07	 2.93975162E-01	-4.77884202E-01
5.01220802E+07	 2.90868865E-01	-4.79736953E-01
5.01342883E+07	 2.87822053E-01	-4.81639204E-01
5.01464963E+07	 2.84717477E-01	-4.83481584E-01
5.01587043E+07	 2.81611659E-01	-4.85310221E-01
5.01709123E+07	 2.78480387E-01	-4.87125004E-01
5.01831204E+07	 2.75360511E-01	-4.88899120E-01
5.01953284E+07	 2.72220018E-01	-4.90674946E-01
5.02075364E+07	 2.69047007E-01	-4.92384166E-01
5.02197444E+07	 2.65898744E-01	-4.94148146E-01
5.02319525E+07	 2.62730222E-01	-4.95845473E-01
5.02441605E+07	 2.59545993E-01	-4.97525810E-01
5.02563685E+07	 2.56345911E-01	-4.99195322E-01
5.02685765E+07	 2.53127812E-01	-5.00809431E-01
5.02807846E+07	 2.49924521E-01	-5.02463168E-01
5.02929926E+07	 2.46690084E-01	-5.04058009E-01
5.03052006E+07	 2.43456925E-01	-5.05635276E-01
5.03174086E+07	 2.40211615E-01	-5.07199222E-01
5.03296167E+07	 2.36956845E-01	-5.08740758E-01
5.03418247E+07	 2.33686171E-01	-5.10263220E-01
5.03540327E+07	 2.30411140E-01	-5.11752284E-01
5.03662407E+07	 2.27120412E-01	-5.13238783E-01
5.03784488E+07	 2.23839161E-01	-5.14687750E-01
5.03906568E+07	 2.20518504E-01	-5.16086734E-01
5.04028648E+07	 2.17204413E-01	-5.17526575E-01
5.04150728E+07	 2.13897502E-01	-5.18918238E-01
5.04272809E+07	 2.10564550E-01	-5.20290028E-01
5.04394889E+07	 2.07213235E-01	-5.21613105E-01
5.04516969E+07	 2.03875632E-01	-5.22952248E-01
5.04639049E+07	 2.00531521E-01	-5.24258940E-01
5.04761130E+07	 1.97149923E-01	-5.25543924E-01
5.04883210E+07	 1.93799453E-01	-5.26803037E-01
5.05005290E+07	 1.90409044E-01	-5.28048281E-01
5.05127370E+07	 1.87017597E-01	-5.29256743E-01
5.05249451E+07	 1.83636187E-01	-5.30456224E-01
5.05371531E+07	 1.80230354E-01	-5.31633564E-01
5.05493611E+07	 1.76823397E-01	-5.32775460E-01
5.05615691E+07	 1.73404927E-01	-5.33911470E-01
5.05737772E+07	 1.69986116E-01	-5.35021449E-01
5.05859852E+07	 1.66547225E-01	-5.36098942E-01
5.05981932E+07	 1.63118351E-01	-5.37164572E-01
5.06104012E+07	 1.59671881E-01	-5.38206817E-01
5.06226093E+07	 1.56223583E-01	-5.39224908E-01
5.06348173E+07	 1.52766385E-01	-5.40208188E-01
5.06470253E+07	 1.49310378E-01	-5.41186698E-01
5.06592333E+07	 1.45832896E-01	-5.42135708E-01
5.06714414E+07	 1.42359993E-01	-5.43066486E-01
5.06836494E+07	 1.38885288E-01	-5.43975731E-01
5.06958574E+07	 1.35402622E-01	-5.44856252E-01
5.07080654E+07	 1.31916783E-01	-5.45724316E-01
5.07202735E+07	 1.28416006E-01	-5.46552369E-01
5.07324815E+07	 1.24926045E-01	-5.47354414E-01
5.07446895E+07	 1.21420890E-01	-5.48163065E-01
5.07568975E+07	 1.17903585E-01	-5.48925744E-01
5.07691056E+07	 1.14389796E-01	-5.49679942E-01
5.07813136E+07	 1.10862853E-01	-5.50394394E-01
5.07935216E+07	 1.07349648E-01	-5.51109613E-01
5.08057296E+07	 1.03823009E-01	-5.51788110E-01
5.08179377E+07	 1.00296292E-01	-5.52443428E-01
5.08301457E+07	 9.67419612E-02	-5.53090776E-01
5.08423537E+07	 9.32045732E-02	-5.53695805E-01
5.08545617E+07	 8.96871761E-02	-5.54282885E-01
5.08667698E+07	 8.61355947E-02	-5.54848867E-01
5.08789778E+07	 8.25756197E-02	-5.55400881E-01
5.08911858E+07	 7.90247289E-02	-5.55907731E-01
5.09033938E+07	 7.54747184E-02	-5.56413971E-01
5.09156019E+07	 7.19129619E-02	-5.56880723E-01
5.09278099E+07	 6.83474395E-02	-5.57328486E-01
5.09400179E+07	 6.47888329E-02	-5.57760624E-01
5.09522259E+07	 6.12180572E-02	-5.58162955E-01
5.09644340E+07	 5.76568203E-02	-5.58552160E-01
5.09766420E+07	 5.40928238E-02	-5.58908537E-01
5.09888500E+07	 5.05172256E-02	-5.59244211E-01
5.10010580E+07	 4.69441188E-02	-5.59552014E-01
5.10132661E+07	 4.33642896E-02	-5.59847163E-01
5.10254741E+07	 3.97879253E-02	-5.60117972E-01
5.10376821E+07	 3.62128939E-02	-5.60369514E-01
5.10498901E+07	 3.26398079E-02	-5.60580772E-01
5.10620982E+07	 2.90540556E-02	-5.60791879E-01
5.10743062E+07	 2.54743683E-02	-5.60957671E-01
5.10865142E+07	 2.19090846E-02	-5.61109777E-01
5.10987222E+07	 1.83243831E-02	-5.61232631E-01
5.11109303E+07	 1.47334313E-02	-5.61348021E-01
5.11231383E+07	 1.11477063E-02	-5.61428421E-01
5.11353463E+07	 7.57552201E-03	-5.61490268E-01
5.11475543E+07	 3.99195858E-03	-5.61532845E-01
5.11597624E+07	 4.15037495E-04	-5.61540076E-01
5.11719704E+07	-3.17287907E-03	-5.61538614E-01
5.11841784E+07	-6.74645446E-03	-5.61504788E-01
5.11963864E+07	-1.03428195E-02	-5.61455884E-01
5.12085944E+07	-1.39109802E-02	-5.61382375E-01
5.12208025E+07	-1.74874030E-02	-5.61270296E-01
5.12330105E+07	-2.10649572E-02	-5.61152135E-01
5.12452185E+07	-2.46447855E-02	-5.61007208E-01
5.12574265E+07	-2.82164337E-02	-5.60851802E-01
5.12696346E+07	-3.17893344E-02	-5.60651381E-01
5.12818426E+07	-3.53702577E-02	-5.60426736E-01
5.12940506E+07	-3.89330346E-02	-5.60188379E-01
5.13062586E+07	-4.24974943E-02	-5.59925115E-01
5.13184667E+07	-4.60673303E-02	-5.59654732E-01
5.13306747E+07	-4.96330193E-02	-5.59338026E-01
5.13428827E+07	-5.31977628E-02	-5.59018969E-01
5.13550907E+07	-5.67400299E-02	-5.58658899E-01
5.13672988E+07	-6.02974426E-02	-5.58292656E-01
5.13795068E+07	-6.38585860E-02	-5.57900897E-01
5.13917148E+07	-6.74143573E-02	-5.57462054E-01
5.14039228E+07	-7.09439002E-02	-5.57020808E-01
5.14161309E+07	-7.44888100E-02	-5.56563752E-01
5.14283389E+07	-7.80291811E-02	-5.56092800E-01
5.14405469E+07	-8.15727681E-02	-5.55562817E-01
5.14527549E+07	-8.51015921E-02	-5.55035740E-01
5.14649630E+07	-8.86270594E-02	-5.54492286E-01
5.14771710E+07	-9.21676352E-02	-5.53892595E-01
5.14893790E+07	-9.56741295E-02	-5.53298051E-01
5.15015870E+07	-9.91928061E-02	-5.52689427E-01
5.15137951E+07	-1.02691353E-01	-5.52032557E-01
5.15260031E+07	-1.06208792E-01	-5.51377656E-01
5.15382111E+07	-1.09711187E-01	-5.50679020E-01
5.15504191E+07	-1.13207062E-01	-5.49970313E-01
5.15626272E+07	-1.16707364E-01	-5.49233729E-01
5.15748352E+07	-1.20190967E-01	-5.48479205E-01
5.15870432E+07	-1.23673236E-01	-5.47695115E-01
5.15992512E+07	-1.27154850E-01	-5.46894441E-01
5.16114593E+07	-1.30623324E-01	-5.46083003E-01
5.16236673E+07	-1.34078800E-01	-5.45225406E-01
5.16358753E+07	-1.37548458E-01	-5.44359999E-01
5.16480833E+07	-1.40997808E-01	-5.43470415E-01
5.16602914E+07	-1.44439022E-01	-5.42566128E-01
5.16724994E+07	-1.47877096E-01	-5.41627453E-01
5.16847074E+07	-1.51315467E-01	-5.40678791E-01
5.16969154E+07	-1.54748070E-01	-5.39697475E-01
5.17091235E+07	-1.58161025E-01	-5.38698222E-01
5.17213315E+07	-1.61583402E-01	-5.37679240E-01
5.17335395E+07	-1.64998659E-01	-5.36634181E-01
5.17457475E+07	-1.68384177E-01	-5.35560369E-01
5.17579556E+07	-1.71773878E-01	-5.34485609E-01
5.17701636E+07	-1.75163460E-01	-5.33383859E-01
5.17823716E+07	-1.78548959E-01	-5.32240469E-01
5.17945796E+07	-1.81907739E-01	-5.31105311E-01
5.18067877E+07	-1.85279770E-01	-5.29931812E-01
5.18189957E+07	-1.88629666E-01	-5.28737596E-01
5.18312037E+07	-1.91989674E-01	-5.27510737E-01
5.18434117E+07	-1.95318415E-01	-5.26284365E-01
5.18556198E+07	-1.98645468E-01	-5.25034188E-01
5.18678278E+07	-2.01971751E-01	-5.23757976E-01
5.18800358E+07	-2.05276256E-01	-5.22457016E-01
5.18922438E+07	-2.08591207E-01	-5.21136060E-01
5.19044519E+07	-2.11874717E-01	-5.19801947E-01
5.19166599E+07	-2.15161567E-01	-5.18454255E-01
5.19288679E+07	-2.18442126E-01	-5.17046008E-01
5.19410759E+07	-2.21710910E-01	-5.15665377E-01
5.19532840E+07	-2.24969843E-01	-5.14239092E-01
5.19654920E+07	-2.28205678E-01	-5.12782506E-01
5.19777000E+07	-2.31461353E-01	-5.11318219E-01
5.19899080E+07	-2.34687359E-01	-5.09838626E-01
5.20021161E+07	-2.37918313E-01	-5.08338238E-01
5.20143241E+07	-2.41115031E-01	-5.06824492E-01
5.20265321E+07	-2.44307768E-01	-5.05258803E-01
5.20387401E+07	-2.47514502E-01	-5.03702653E-01
5.20509482E+07	-2.50688325E-01	-5.02101979E-01
5.20631562E+07	-2.53852809E-01	-5.00500471E-01
5.20753642E+07	-2.57001326E-01	-4.98879639E-01
5.20875722E+07	-2.60169187E-01	-4.97236741E-01
5.20997803E+07	-2.63296248E-01	-4.95560450E-01
5.21119883E+07	-2.66414091E-01	-4.93881724E-01
5.21241963E+07	-2.69532943E-01	-4.92177660E-01
5.21364043E+07	-2.72624989E-01	-4.90441612E-01
5.21486124E+07	-2.75731032E-01	-4.88706750E-01
5.21608204E+07	-2.78803786E-01	-4.86951597E-01
5.21730284E+07	-2.81876457E-01	-4.85167112E-01
5.21852364E+07	-2.84918345E-01	-4.83352868E-01
5.21974445E+07	-2.87968431E-01	-4.81532329E-01
5.22096525E+07	-2.90998180E-01	-4.79708733E-01
5.22218605E+07	-2.94023132E-01	-4.77843568E-01
5.22340685E+07	-2.97019381E-01	-4.75942690E-01
5.22462766E+07	-3.00023223E-01	-4.74056605E-01
5.22584846E+07	-3.03004578E-01	-4.72148600E-01
5.22706926E+07	-3.05964725E-01	-4.70205385E-01
5.22829006E+07	-3.08928461E-01	-4.68245709E-01
5.22951087E+07	-3.11882614E-01	-4.66295786E-01
5.23073167E+07	-3.14808484E-01	-4.64287360E-01
5.23195247E+07	-3.17712374E-01	-4.62281119E-01
5.23317327E+07	-3.20617665E-01	-4.60264479E-01
5.23439408E+07	-3.23516377E-01	-4.58215147E-01
5.23561488E+07	-3.26393656E-01	-4.56143135E-01
5.23683568E+07	-3.29257883E-01	-4.54062691E-01
5.23805648E+07	-3.32100411E-01	-4.51957889E-01
5.23927728E+07	-3.34949133E-01	-4.49862351E-01
5.24049809E+07	-3.37769510E-01	-4.47717607E-01
5.24171889E+07	-3.40587413E-01	-4.45573179E-01
5.24293969E+07	-3.43370193E-01	-4.43396197E-01
5.24416049E+07	-3.46154268E-01	-4.41199661E-01
5.24538130E+07	-3.48918522E-01	-4.39009026E-01
5.24660210E+07	-3.51675872E-01	-4.36794227E-01
5.24782290E+07	-3.54403394E-01	-4.34544046E-01
5.24904370E+07	-3.57117025E-01	-4.32283305E-01
5.25026451E+07	-3.59836674E-01	-4.30027493E-01
5.25148531E+07	-3.62539036E-01	-4.27724975E-01
5.25270611E+07	-3.65212505E-01	-4.25414562E-01
5.25392691E+07	-3.67874645E-01	-4.23099986E-01
5.25514772E+07	-3.70531396E-01	-4.20759257E-01
5.25636852E+07	-3.73163166E-01	-4.18392896E-01
5.25758932E+07	-3.75784599E-01	-4.16032304E-01
5.25881012E+07	-3.78369610E-01	-4.13634845E-01
5.26003093E+07	-3.80965003E-01	-4.11240303E-01
5.26125173E+07	-3.83526886E-01	-4.08819285E-01
5.26247253E+07	-3.86086879E-01	-4.06389485E-01
5.26369333E+07	-3.88626390E-01	-4.03929057E-01
5.26491414E+07	-3.91147767E-01	-4.01465963E-01
5.26613494E+07	-3.93657865E-01	-3.98973293E-01
5.26735574E+07	-3.96142197E-01	-3.96479210E-01
5.26857654E+07	-3.98625055E-01	-3.93953092E-01
5.26979735E+07	-4.01084623E-01	-3.91431147E-01
5.27101815E+07	-4.03533744E-01	-3.88888792E-01
5.27223895E+07	-4.05961524E-01	-3.86329406E-01
5.27345975E+07	-4.08350570E-01	-3.83754575E-01
5.27468056E+07	-4.10745065E-01	-3.81155657E-01
5.27590136E+07	-4.13127836E-01	-3.78562785E-01
5.27712216E+07	-4.15486170E-01	-3.75933352E-01
5.27834296E+07	-4.17831429E-01	-3.73304968E-01
5.27956377E+07	-4.20148042E-01	-3.70651810E-01
5.28078457E+07	-4.22462117E-01	-3.67993862E-01
5.28200537E+07	-4.24746785E-01	-3.65312898E-01
5.28322617E+07	-4.27030962E-01	-3.62619915E-01
5.28444698E+07	-4.29272767E-01	-3.59922724E-01
5.28566778E+07	-4.31516027E-01	-3.57203425E-01
5.28688858E+07	-4.33735343E-01	-3.54468704E-01
5.28810938E+07	-4.35940951E-01	-3.51724212E-01
5.28933019E+07	-4.38136252E-01	-3.48961399E-01
5.29055099E+07	-4.40297524E-01	-3.46191853E-01
5.29177179E+07	-4.42451487E-01	-3.43401343E-01
5.29299259E+07	-4.44580138E-01	-3.40601752E-01
5.29421340E+07	-4.46700987E-01	-3.37794129E-01
5.29543420E+07	-4.48793061E-01	-3.34964684E-01
5.29665500E+07	-4.50867643E-01	-3.32125563E-01
5.29787580E+07	-4.52916312E-01	-3.29273687E-01
5.29909661E+07	-4.54964913E-01	-3.26407159E-01
5.30031741E+07	-4.56986513E-01	-3.23534282E-01
5.30153821E+07	-4.58988436E-01	-3.20649516E-01
5.30275901E+07	-4.60969596E-01	-3.17744101E-01
5.30397982E+07	-4.62944614E-01	-3.14838927E-01
5.30520062E+07	-4.64884194E-01	-3.11920314E-01
5.30642142E+07	-4.66820754E-01	-3.08971224E-01
5.30764222E+07	-4.68733840E-01	-3.06032923E-01
5.30886303E+07	-4.70621210E-01	-3.03063680E-01
5.31008383E+07	-4.72501822E-01	-3.00102995E-01
5.31130463E+07	-4.74343191E-01	-2.97111997E-01
5.31252543E+07	-4.76191562E-01	-2.94122184E-01
5.31374624E+07	-4.77998179E-01	-2.91126326E-01
5.31496704E+07	-4.79795982E-01	-2.88099565E-01
5.31618784E+07	-4.81567991E-01	-2.85071941E-01
5.31740864E+07	-4.83321495E-01	-2.82033179E-01
5.31862945E+07	-4.85060491E-01	-2.78989949E-01
5.31985025E+07	-4.86786554E-01	-2.75929341E-01
5.32107105E+07	-4.88484922E-01	-2.72864249E-01
5.32229185E+07	-4.90159200E-01	-2.69778519E-01
5.32351266E+07	-4.91819223E-01	-2.66691846E-01
5.32473346E+07	-4.93459513E-01	-2.63586857E-01
5.32595426E+07	-4.95088711E-01	-2.60491329E-01
5.32717506E+07	-4.96680484E-01	-2.57365622E-01
5.32839587E+07	-4.98265876E-01	-2.54229529E-01
5.32961667E+07	-4.99829012E-01	-2.51094422E-01
5.33083747E+07	-5.01367621E-01	-2.47952532E-01
5.33205827E+07	-5.02889695E-01	-2.44791550E-01
5.33327908E+07	-5.04386771E-01	-2.41631351E-01
5.33449988E+07	-5.05873021E-01	-2.38456172E-01
5.33572068E+07	-5.07330722E-01	-2.35273905E-01
5.33694148E+07	-5.08773186E-01	-2.32080962E-01
5.33816229E+07	-5.10197361E-01	-2.28874971E-01
5.33938309E+07	-5.11581257E-01	-2.25668125E-01
5.34060389E+07	-5.12960776E-01	-2.22451391E-01
5.34182469E+07	-5.14326549E-01	-2.19224901E-01
5.34304550E+07	-5.15663356E-01	-2.15985905E-01
5.34426630E+07	-5.16982997E-01	-2.12744103E-01
5.34548710E+07	-5.18269340E-01	-2.09495928E-01
5.34670790E+07	-5.19557302E-01	-2.06228644E-01
5.34792871E+07	-5.20811278E-01	-2.02964753E-01
5.34914951E+07	-5.22044645E-01	-1.99696530E-01
5.35037031E+07	-5.23246830E-01	-1.96421325E-01
5.35159111E+07	-5.24446598E-01	-1.93132891E-01
5.35281192E+07	-5.25617862E-01	-1.89840805E-01
5.35403272E+07	-5.26774469E-01	-1.86535627E-01
5.35525352E+07	-5.27909614E-01	-1.83221698E-01
5.35647432E+07	-5.29005886E-01	-1.79911205E-01
5.35769512E+07	-5.30107921E-01	-1.76594314E-01
5.35891593E+07	-5.31167734E-01	-1.73264436E-01
5.36013673E+07	-5.32213508E-01	-1.69927449E-01
5.36135753E+07	-5.33237243E-01	-1.66589989E-01
5.36257833E+07	-5.34245377E-01	-1.63242277E-01
5.36379914E+07	-5.35229759E-01	-1.59888704E-01
5.36501994E+07	-5.36189483E-01	-1.56539653E-01
5.36624074E+07	-5.37131733E-01	-1.53164036E-01
5.36746154E+07	-5.38054271E-01	-1.49806623E-01
5.36868235E+07	-5.38948767E-01	-1.46425622E-01
5.36990315E+07	-5.39821635E-01	-1.43056597E-01
5.37112395E+07	-5.40675166E-01	-1.39671136E-01
5.37234475E+07	-5.41512271E-01	-1.36271045E-01
5.37356556E+07	-5.42325781E-01	-1.32882725E-01
5.37478636E+07	-5.43115027E-01	-1.29490450E-01
5.37600716E+07	-5.43888669E-01	-1.26082599E-01
5.37722796E+07	-5.44629170E-01	-1.22678276E-01
5.37844877E+07	-5.45355930E-01	-1.19258705E-01
5.37966957E+07	-5.46065280E-01	-1.15846279E-01
5.38089037E+07	-5.46738854E-01	-1.12427443E-01
5.38211117E+07	-5.47412292E-01	-1.08999683E-01
5.38333198E+07	-5.48055451E-01	-1.05579451E-01
5.38455278E+07	-5.48670178E-01	-1.02144671E-01
5.38577358E+07	-5.49268577E-01	-9.87094988E-02
5.38699438E+07	-5.49836998E-01	-9.52720936E-02
5.38821519E+07	-5.50397922E-01	-9.18322969E-02
5.38943599E+07	-5.50921110E-01	-8.83843235E-02
5.39065679E+07	-5.51437234E-01	-8.49414456E-02
5.39187759E+07	-5.51926752E-01	-8.14907607E-02
5.39309840E+07	-5.52391412E-01	-7.80409506E-02
5.39431920E+07	-5.52846139E-01	-7.45939137E-02
5.39554000E+07	-5.53260919E-01	-7.11358424E-02
5.39676080E+07	-5.53664333E-01	-6.76766239E-02
5.39798161E+07	-5.54038273E-01	-6.42125600E-02
5.39920241E+07	-5.54400501E-01	-6.07508911E-02
5.40042321E+07	-5.54740737E-01	-5.72864821E-02
5.40164401E+07	-5.55061868E-01	-5.38148111E-02
5.40286482E+07	-5.55348769E-01	-5.03509663E-02
5.40408562E+07	-5.55619951E-01	-4.68759174E-02
5.40530642E+07	-5.55867460E-01	-4.34013039E-02
5.40652722E+07	-5.56096782E-01	-3.99377165E-02
5.40774803E+07	-5.56300752E-01	-3.64592615E-02
5.40896883E+07	-5.56486672E-01	-3.29913463E-02
5.41018963E+07	-5.56640917E-01	-2.95083128E-02
5.41141043E+07	-5.56787579E-01	-2.60332694E-02
5.41263124E+07	-5.56909363E-01	-2.25615391E-02
5.41385204E+07	-5.57009073E-01	-1.90841247E-02
5.41507284E+07	-5.57075883E-01	-1.56066913E-02
5.41629364E+07	-5.57125166E-01	-1.21261173E-02
5.41751445E+07	-5.57156583E-01	-8.65570088E-03
5.41873525E+07	-5.57167917E-01	-5.17746654E-03
5.41995605E+07	-5.57145510E-01	-1.69463223E-03
5.42117685E+07	-5.57113317E-01	 1.77614307E-03
5.42239766E+07	-5.57059319E-01	 5.24698221E-03
5.42361846E+07	-5.56982157E-01	 8.72146108E-03
5.42483926E+07	-5.56881952E-01	 1.21926502E-02
5.42606006E+07	-5.56760730E-01	 1.56652108E-02
5.42728087E+07	-5.56618216E-01	 1.91348185E-02
5.42850167E+07	-5.56456872E-01	 2.25894040E-02
5.42972247E+07	-5.56261333E-01	 2.60732819E-02
5.43094327E+07	-5.56057068E-01	 2.95361037E-02
5.43216408E+07	-5.55828457E-01	 3.30039419E-02
5.43338488E+07	-5.55576221E-01	 3.64746252E-02
5.43460568E+07	-5.55311139E-01	 3.99261692E-02
5.43582648E+07	-5.55014073E-01	 4.33835799E-02
5.43704729E+07	-5.54695247E-01	 4.68366168E-02
5.43826809E+07	-5.54358745E-01	 5.02950733E-02
5.43948889E+07	-5.53997444E-01	 5.37444130E-02
5.44070969E+07	-5.53618604E-01	 5.71983020E-02
5.44193050E+07	-5.53224631E-01	 6.06464639E-02
5.44315130E+07	-5.52795741E-01	 6.40840380E-02
5.44437210E+07	-5.52346464E-01	 6.75253906E-02
5.44559290E+07	-5.51871697E-01	 7.09666012E-02
5.44681371E+07	-5.51394665E-01	 7.43985649E-02
5.44803451E+07	-5.50884190E-01	 7.78262571E-02
5.44925531E+07	-5.50346489E-01	 8.12536737E-02
5.45047611E+07	-5.49795100E-01	 8.46787163E-02
5.45169692E+07	-5.49227468E-01	 8.81001846E-02
5.45291772E+07	-5.48618878E-01	 9.15058808E-02
5.45413852E+07	-5.48011425E-01	 9.49215061E-02
5.45535932E+07	-5.47364951E-01	 9.83314786E-02
5.45658013E+07	-5.46712051E-01	 1.01727345E-01
5.45780093E+07	-5.46026246E-01	 1.05127886E-01
5.45902173E+07	-5.45325780E-01	 1.08526683E-01
5.46024253E+07	-5.44609394E-01	 1.11910601E-01
5.46146334E+07	-5.43861571E-01	 1.15297783E-01
5.46268414E+07	-5.43098305E-01	 1.18679516E-01
5.46390494E+07	-5.42312690E-01	 1.22054507E-01
5.46512574E+07	-5.41500054E-01	 1.25415302E-01
5.46634655E+07	-5.40679590E-01	 1.28786622E-01
5.46756735E+07	-5.39826381E-01	 1.32136990E-01
5.46878815E+07	-5.38960620E-01	 1.35491031E-01
5.47000895E+07	-5.38071747E-01	 1.38828805E-01
5.47122976E+07	-5.37160956E-01	 1.42177460E-01
5.47245056E+07	-5.36227855E-01	 1.45511513E-01
5.47367136E+07	-5.35276559E-01	 1.48835033E-01
5.47489216E+07	-5.34304137E-01	 1.52160757E-01
5.47611296E+07	-5.33316234E-01	 1.55476978E-01
5.47733377E+07	-5.32287309E-01	 1.58781316E-01
5.47855457E+07	-5.31251458E-01	 1.62085213E-01
5.47977537E+07	-5.30197012E-01	 1.65381361E-01
5.48099617E+07	-5.29131066E-01	 1.68672285E-01
5.48221698E+07	-5.28023986E-01	 1.71946230E-01
5.48343778E+07	-5.26912638E-01	 1.75224601E-01
5.48465858E+07	-5.25779870E-01	 1.78495097E-01
5.48587938E+07	-5.24613126E-01	 1.81750967E-01
5.48710019E+07	-5.23442352E-01	 1.85003395E-01
5.48832099E+07	-5.22238134E-01	 1.88245425E-01
5.48954179E+07	-5.21014423E-01	 1.91483004E-01
5.49076259E+07	-5.19781533E-01	 1.94715345E-01
5.49198340E+07	-5.18525502E-01	 1.97931237E-01
5.49320420E+07	-5.17246810E-01	 2.01152674E-01
5.49442500E+07	-5.15954736E-01	 2.04335302E-01
5.49564580E+07	-5.14627451E-01	 2.07546898E-01
5.49686661E+07	-5.13293323E-01	 2.10731944E-01
5.49808741E+07	-5.11928622E-01	 2.13912817E-01
5.49930821E+07	-5.10555664E-01	 2.17081967E-01
5.50052901E+07	-5.09161374E-01	 2.20244072E-01
5.50174982E+07	-5.07746501E-01	 2.23397460E-01
5.50297062E+07	-5.06308694E-01	 2.26539659E-01
5.50419142E+07	-5.04856806E-01	 2.29672352E-01
5.50541222E+07	-5.03369820E-01	 2.32800349E-01
5.50663303E+07	-5.01885433E-01	 2.35913354E-01
5.50785383E+07	-5.00375740E-01	 2.39015246E-01
5.50907463E+07	-4.98834983E-01	 2.42115225E-01
5.51029543E+07	-4.97253635E-01	 2.45182759E-01
5.51151624E+07	-4.95707592E-01	 2.48286784E-01
5.51273704E+07	-4.94127639E-01	 2.51342541E-01
