! COPPER MOUNTAIN TECHNOLOGIES, PLANAR TR1300/1, 00071119, 20.2.2/1.0
! Date: 7/24/2023 9:11:53 AM
! Data: Format [Calibration Info]
! Freq          	S11: Re/Im F1                  
# HZ S RI R 50
5.00000000E+07	-3.68609340E-01	 3.63991008E-01
5.00122080E+07	-3.65902427E-01	 3.66612200E-01
5.00244160E+07	-3.63186513E-01	 3.69211068E-01
5.00366241E+07	-3.60443596E-01	 3.71785164E-01
5.00488321E+07	-3.57686761E-01	 3.74339152E-01
5.00610401E+07	-3.54919138E-01	 3.76876392E-01
5.00732481E+07	-3.52125576E-01	 3.79395717E-01
5.00854562E+07	-3.49316565E-01	 3.81899126E-01
5.00976642E+07	-3.46493406E-01	 3.84375515E-01
5.01098722E+07	-3.43639908E-01	 3.86832477E-01
5.01220802E+07	-3.40756488E-01	 3.89240569E-01
5.01342883E+07	-3.37908175E-01	 3.91684129E-01
5.01464963E+07	-3.35008411E-01	 3.94089397E-01
5.01587043E+07	-3.32094648E-01	 3.96467863E-01
5.01709123E+07	-3.29156165E-01	 3.98820195E-01
5.01831204E+07	-3.26223682E-01	 4.01152921E-01
5.01953284E+07	-3.23250823E-01	 4.03474630E-01
5.02075364E+07	-3.20254123E-01	 4.05737992E-01
5.02197444E+07	-3.17290377E-01	 4.08030831E-01
5.02319525E+07	-3.14271963E-01	 4.10279192E-01
5.02441605E+07	-3.11248743E-01	 4.12522491E-01
5.02563685E+07	-3.08200920E-01	 4.14730676E-01
5.02685765E+07	-3.05134090E-01	 4.16880564E-01
5.02807846E+07	-3.02070076E-01	 4.19083836E-01
5.02929926E+07	-2.98988314E-01	 4.21223085E-01
5.03052006E+07	-2.95883850E-01	 4.23341167E-01
5.03174086E+07	-2.92776613E-01	 4.25444779E-01
5.03296167E+07	-2.89633052E-01	 4.27523950E-01
5.03418247E+07	-2.86479989E-01	 4.29572617E-01
5.03540327E+07	-2.83325355E-01	 4.31611258E-01
5.03662407E+07	-2.80134250E-01	 4.33626556E-01
5.03784488E+07	-2.76954695E-01	 4.35615200E-01
5.03906568E+07	-2.73731245E-01	 4.37546822E-01
5.04028648E+07	-2.70524959E-01	 4.39513728E-01
5.04150728E+07	-2.67307254E-01	 4.41442094E-01
5.04272809E+07	-2.64052633E-01	 4.43341700E-01
5.04394889E+07	-2.60778247E-01	 4.45180583E-01
5.04516969E+07	-2.57522261E-01	 4.47062135E-01
5.04639049E+07	-2.54242368E-01	 4.48894450E-01
5.04761130E+07	-2.50943356E-01	 4.50696004E-01
5.04883210E+07	-2.47639011E-01	 4.52476705E-01
5.05005290E+07	-2.44305456E-01	 4.54237991E-01
5.05127370E+07	-2.40971442E-01	 4.55974705E-01
5.05249451E+07	-2.37630048E-01	 4.57692166E-01
5.05371531E+07	-2.34265500E-01	 4.59372354E-01
5.05493611E+07	-2.30893527E-01	 4.61036777E-01
5.05615691E+07	-2.27508895E-01	 4.62675307E-01
5.05737772E+07	-2.24111497E-01	 4.64288683E-01
5.05859852E+07	-2.20703334E-01	 4.65874429E-01
5.05981932E+07	-2.17289779E-01	 4.67446767E-01
5.06104012E+07	-2.13872288E-01	 4.68999453E-01
5.06226093E+07	-2.10419379E-01	 4.70505979E-01
5.06348173E+07	-2.06972036E-01	 4.72002604E-01
5.06470253E+07	-2.03503913E-01	 4.73482679E-01
5.06592333E+07	-2.00046214E-01	 4.74921338E-01
5.06714414E+07	-1.96566520E-01	 4.76342407E-01
5.06836494E+07	-1.93063744E-01	 4.77742380E-01
5.06958574E+07	-1.89571513E-01	 4.79106645E-01
5.07080654E+07	-1.86059443E-01	 4.80462510E-01
5.07202735E+07	-1.82538061E-01	 4.81784639E-01
5.07324815E+07	-1.79004218E-01	 4.83083907E-01
5.07446895E+07	-1.75466145E-01	 4.84349152E-01
5.07568975E+07	-1.71925805E-01	 4.85604131E-01
5.07691056E+07	-1.68379065E-01	 4.86820493E-01
5.07813136E+07	-1.64810409E-01	 4.88009863E-01
5.07935216E+07	-1.61228631E-01	 4.89187431E-01
5.08057296E+07	-1.57659131E-01	 4.90334674E-01
5.08179377E+07	-1.54063080E-01	 4.91452853E-01
5.08301457E+07	-1.50466950E-01	 4.92545820E-01
5.08423537E+07	-1.46866311E-01	 4.93621469E-01
5.08545617E+07	-1.43250417E-01	 4.94672927E-01
5.08667698E+07	-1.39635910E-01	 4.95683057E-01
5.08789778E+07	-1.36002627E-01	 4.96676636E-01
5.08911858E+07	-1.32372591E-01	 4.97656636E-01
5.09033938E+07	-1.28724310E-01	 4.98587130E-01
5.09156019E+07	-1.25072454E-01	 4.99515756E-01
5.09278099E+07	-1.21420943E-01	 5.00391925E-01
5.09400179E+07	-1.17763788E-01	 5.01265213E-01
5.09522259E+07	-1.14096734E-01	 5.02102894E-01
5.09644340E+07	-1.10427534E-01	 5.02921537E-01
5.09766420E+07	-1.06748991E-01	 5.03688425E-01
5.09888500E+07	-1.03069604E-01	 5.04454576E-01
5.10010580E+07	-9.93769917E-02	 5.05184473E-01
5.10132661E+07	-9.56912969E-02	 5.05899463E-01
5.10254741E+07	-9.19873144E-02	 5.06590182E-01
5.10376821E+07	-8.82867511E-02	 5.07243437E-01
5.10498901E+07	-8.45643559E-02	 5.07868242E-01
5.10620982E+07	-8.08644171E-02	 5.08475436E-01
5.10743062E+07	-7.71465394E-02	 5.09051307E-01
5.10865142E+07	-7.34259308E-02	 5.09605356E-01
5.10987222E+07	-6.97049694E-02	 5.10124396E-01
5.11109303E+07	-6.59760978E-02	 5.10621894E-01
5.11231383E+07	-6.22419815E-02	 5.11092000E-01
5.11353463E+07	-5.85091404E-02	 5.11529161E-01
5.11475543E+07	-5.47603631E-02	 5.11964260E-01
5.11597624E+07	-5.10316670E-02	 5.12348501E-01
5.11719704E+07	-4.72948983E-02	 5.12712434E-01
5.11841784E+07	-4.35473801E-02	 5.13046656E-01
5.11963864E+07	-3.97892712E-02	 5.13351858E-01
5.12085944E+07	-3.60364533E-02	 5.13649859E-01
5.12208025E+07	-3.22960629E-02	 5.13912529E-01
5.12330105E+07	-2.85474517E-02	 5.14147739E-01
5.12452185E+07	-2.47853672E-02	 5.14345026E-01
5.12574265E+07	-2.10246590E-02	 5.14535117E-01
5.12696346E+07	-1.72716268E-02	 5.14681303E-01
5.12818426E+07	-1.35081866E-02	 5.14806056E-01
5.12940506E+07	-9.74748819E-03	 5.14908159E-01
5.13062586E+07	-5.98735850E-03	 5.14974296E-01
5.13184667E+07	-2.23100377E-03	 5.15032275E-01
5.13306747E+07	 1.53484691E-03	 5.15047918E-01
5.13428827E+07	 5.29610695E-03	 5.15038533E-01
5.13550907E+07	 9.06013380E-03	 5.15003630E-01
5.13672988E+07	 1.28274933E-02	 5.14948377E-01
5.13795068E+07	 1.65838318E-02	 5.14852224E-01
5.13917148E+07	 2.03394875E-02	 5.14743560E-01
5.14039228E+07	 2.40958519E-02	 5.14596437E-01
5.14161309E+07	 2.78547140E-02	 5.14435040E-01
5.14283389E+07	 3.16120069E-02	 5.14252763E-01
5.14405469E+07	 3.53586561E-02	 5.14025814E-01
5.14527549E+07	 3.91220678E-02	 5.13773371E-01
5.14649630E+07	 4.28797374E-02	 5.13506491E-01
5.14771710E+07	 4.66208902E-02	 5.13197840E-01
5.14893790E+07	 5.03646724E-02	 5.12871102E-01
5.15015870E+07	 5.41141625E-02	 5.12517042E-01
5.15137951E+07	 5.78642855E-02	 5.12135422E-01
5.15260031E+07	 6.16056166E-02	 5.11737079E-01
5.15382111E+07	 6.53337434E-02	 5.11297570E-01
5.15504191E+07	 6.90695534E-02	 5.10849394E-01
5.15626272E+07	 7.28036870E-02	 5.10358760E-01
5.15748352E+07	 7.65355247E-02	 5.09854017E-01
5.15870432E+07	 8.02547986E-02	 5.09309412E-01
5.15992512E+07	 8.39692690E-02	 5.08747789E-01
5.16114593E+07	 8.76906705E-02	 5.08163335E-01
5.16236673E+07	 9.13961659E-02	 5.07536239E-01
5.16358753E+07	 9.51046893E-02	 5.06902222E-01
5.16480833E+07	 9.88057187E-02	 5.06223409E-01
5.16602914E+07	 1.02509205E-01	 5.05520217E-01
5.16724994E+07	 1.06200901E-01	 5.04804687E-01
5.16847074E+07	 1.09886839E-01	 5.04057839E-01
5.16969154E+07	 1.13577087E-01	 5.03273427E-01
5.17091235E+07	 1.17235284E-01	 5.02480521E-01
5.17213315E+07	 1.20908074E-01	 5.01657370E-01
5.17335395E+07	 1.24577530E-01	 5.00790244E-01
5.17457475E+07	 1.28229866E-01	 4.99922342E-01
5.17579556E+07	 1.31881591E-01	 4.99016462E-01
5.17701636E+07	 1.35528946E-01	 4.98086056E-01
5.17823716E+07	 1.39169943E-01	 4.97125438E-01
5.17945796E+07	 1.42800821E-01	 4.96147255E-01
5.18067877E+07	 1.46428201E-01	 4.95133786E-01
5.18189957E+07	 1.50049343E-01	 4.94107172E-01
5.18312037E+07	 1.53652133E-01	 4.93042378E-01
5.18434117E+07	 1.57264761E-01	 4.91939932E-01
5.18556198E+07	 1.60861466E-01	 4.90855112E-01
5.18678278E+07	 1.64443873E-01	 4.89696035E-01
5.18800358E+07	 1.68016595E-01	 4.88555515E-01
5.18922438E+07	 1.71595945E-01	 4.87366036E-01
5.19044519E+07	 1.75154056E-01	 4.86152492E-01
5.19166599E+07	 1.78700499E-01	 4.84916212E-01
5.19288679E+07	 1.82246190E-01	 4.83636130E-01
5.19410759E+07	 1.85786690E-01	 4.82370704E-01
5.19532840E+07	 1.89301324E-01	 4.81057806E-01
5.19654920E+07	 1.92828519E-01	 4.79705409E-01
5.19777000E+07	 1.96340599E-01	 4.78350588E-01
5.19899080E+07	 1.99838443E-01	 4.76960676E-01
5.20021161E+07	 2.03321814E-01	 4.75543522E-01
5.20143241E+07	 2.06811081E-01	 4.74103923E-01
5.20265321E+07	 2.10271679E-01	 4.72651821E-01
5.20387401E+07	 2.13729423E-01	 4.71166822E-01
5.20509482E+07	 2.17169556E-01	 4.69645143E-01
5.20631562E+07	 2.20602796E-01	 4.68118094E-01
5.20753642E+07	 2.24010670E-01	 4.66551258E-01
5.20875722E+07	 2.27440593E-01	 4.64978579E-01
5.20997803E+07	 2.30834732E-01	 4.63363437E-01
5.21119883E+07	 2.34227802E-01	 4.61734119E-01
5.21241963E+07	 2.37605549E-01	 4.60089994E-01
5.21364043E+07	 2.40972395E-01	 4.58398088E-01
5.21486124E+07	 2.44340411E-01	 4.56697054E-01
5.21608204E+07	 2.47667131E-01	 4.54957531E-01
5.21730284E+07	 2.51003662E-01	 4.53214457E-01
5.21852364E+07	 2.54324724E-01	 4.51434567E-01
5.21974445E+07	 2.57627857E-01	 4.49644894E-01
5.22096525E+07	 2.60913533E-01	 4.47818114E-01
5.22218605E+07	 2.64197885E-01	 4.45974354E-01
5.22340685E+07	 2.67450648E-01	 4.44105572E-01
5.22462766E+07	 2.70711913E-01	 4.42207012E-01
5.22584846E+07	 2.73955795E-01	 4.40303506E-01
5.22706926E+07	 2.77177701E-01	 4.38357978E-01
5.22829006E+07	 2.80385673E-01	 4.36403862E-01
5.22951087E+07	 2.83584063E-01	 4.34420136E-01
5.23073167E+07	 2.86770717E-01	 4.32402406E-01
5.23195247E+07	 2.89943388E-01	 4.30389591E-01
5.23317327E+07	 2.93095243E-01	 4.28336455E-01
5.23439408E+07	 2.96239550E-01	 4.26263794E-01
5.23561488E+07	 2.99358939E-01	 4.24154661E-01
5.23683568E+07	 3.02468252E-01	 4.22049519E-01
5.23805648E+07	 3.05559039E-01	 4.19906898E-01
5.23927728E+07	 3.08650721E-01	 4.17742516E-01
5.24049809E+07	 3.11714953E-01	 4.15553445E-01
5.24171889E+07	 3.14767138E-01	 4.13354382E-01
5.24293969E+07	 3.17796832E-01	 4.11130294E-01
5.24416049E+07	 3.20806459E-01	 4.08871724E-01
5.24538130E+07	 3.23821190E-01	 4.06619830E-01
5.24660210E+07	 3.26801391E-01	 4.04321456E-01
5.24782290E+07	 3.29766968E-01	 4.02004115E-01
5.24904370E+07	 3.32724021E-01	 3.99666503E-01
5.25026451E+07	 3.35654849E-01	 3.97315496E-01
5.25148531E+07	 3.38570054E-01	 3.94938606E-01
5.25270611E+07	 3.41476693E-01	 3.92546029E-01
5.25392691E+07	 3.44361763E-01	 3.90129383E-01
5.25514772E+07	 3.47226125E-01	 3.87695132E-01
5.25636852E+07	 3.50077683E-01	 3.85234187E-01
5.25758932E+07	 3.52909915E-01	 3.82754182E-01
5.25881012E+07	 3.55716866E-01	 3.80258893E-01
5.26003093E+07	 3.58517382E-01	 3.77748774E-01
5.26125173E+07	 3.61299908E-01	 3.75213090E-01
5.26247253E+07	 3.64052554E-01	 3.72652563E-01
5.26369333E+07	 3.66811356E-01	 3.70067715E-01
5.26491414E+07	 3.69531481E-01	 3.67474272E-01
5.26613494E+07	 3.72235145E-01	 3.64863153E-01
5.26735574E+07	 3.74929130E-01	 3.62227094E-01
5.26857654E+07	 3.77590902E-01	 3.59562935E-01
5.26979735E+07	 3.80242594E-01	 3.56922629E-01
5.27101815E+07	 3.82868891E-01	 3.54195594E-01
5.27223895E+07	 3.85493062E-01	 3.51504310E-01
5.27345975E+07	 3.88065529E-01	 3.48782068E-01
5.27468056E+07	 3.90644630E-01	 3.46038133E-01
5.27590136E+07	 3.93203554E-01	 3.43274506E-01
5.27712216E+07	 3.95726965E-01	 3.40482146E-01
5.27834296E+07	 3.98250255E-01	 3.37685869E-01
5.27956377E+07	 4.00750227E-01	 3.34868550E-01
5.28078457E+07	 4.03218275E-01	 3.32027763E-01
5.28200537E+07	 4.05672756E-01	 3.29179520E-01
5.28322617E+07	 4.08105836E-01	 3.26304096E-01
5.28444698E+07	 4.10507655E-01	 3.23414394E-01
5.28566778E+07	 4.12910817E-01	 3.20508637E-01
5.28688858E+07	 4.15269277E-01	 3.17577348E-01
5.28810938E+07	 4.17628505E-01	 3.14645335E-01
5.28933019E+07	 4.19961724E-01	 3.11693942E-01
5.29055099E+07	 4.22266537E-01	 3.08718726E-01
5.29177179E+07	 4.24541352E-01	 3.05716488E-01
5.29299259E+07	 4.26821062E-01	 3.02729398E-01
5.29421340E+07	 4.29070962E-01	 2.99707336E-01
5.29543420E+07	 4.31284211E-01	 2.96670399E-01
5.29665500E+07	 4.33492869E-01	 2.93612414E-01
5.29787580E+07	 4.35657450E-01	 2.90557179E-01
5.29909661E+07	 4.37813482E-01	 2.87455057E-01
5.30031741E+07	 4.39958672E-01	 2.84372511E-01
5.30153821E+07	 4.42069154E-01	 2.81253233E-01
5.30275901E+07	 4.44155246E-01	 2.78129552E-01
5.30397982E+07	 4.46226995E-01	 2.74985802E-01
5.30520062E+07	 4.48275221E-01	 2.71833854E-01
5.30642142E+07	 4.50297881E-01	 2.68651268E-01
5.30764222E+07	 4.52294600E-01	 2.65476092E-01
5.30886303E+07	 4.54281072E-01	 2.62262700E-01
5.31008383E+07	 4.56242979E-01	 2.59058849E-01
5.31130463E+07	 4.58167526E-01	 2.55825228E-01
5.31252543E+07	 4.60081682E-01	 2.52584764E-01
5.31374624E+07	 4.61970995E-01	 2.49331567E-01
5.31496704E+07	 4.63829658E-01	 2.46056011E-01
5.31618784E+07	 4.65675252E-01	 2.42777920E-01
5.31740864E+07	 4.67485745E-01	 2.39493920E-01
5.31862945E+07	 4.69276294E-01	 2.36174449E-01
5.31985025E+07	 4.71054768E-01	 2.32859505E-01
5.32107105E+07	 4.72789351E-01	 2.29521795E-01
5.32229185E+07	 4.74510980E-01	 2.26180871E-01
5.32351266E+07	 4.76213522E-01	 2.22819053E-01
5.32473346E+07	 4.77890017E-01	 2.19454930E-01
5.32595426E+07	 4.79538506E-01	 2.16076576E-01
5.32717506E+07	 4.81176791E-01	 2.12677378E-01
5.32839587E+07	 4.82766092E-01	 2.09266385E-01
5.32961667E+07	 4.84345024E-01	 2.05861961E-01
5.33083747E+07	 4.85899034E-01	 2.02431801E-01
5.33205827E+07	 4.87426361E-01	 1.98995334E-01
5.33327908E+07	 4.88931053E-01	 1.95552600E-01
5.33449988E+07	 4.90421593E-01	 1.92098020E-01
5.33572068E+07	 4.91869149E-01	 1.88622123E-01
5.33694148E+07	 4.93302618E-01	 1.85146842E-01
5.33816229E+07	 4.94711815E-01	 1.81652138E-01
5.33938309E+07	 4.96088957E-01	 1.78155788E-01
5.34060389E+07	 4.97440951E-01	 1.74643276E-01
5.34182469E+07	 4.98773428E-01	 1.71119822E-01
5.34304550E+07	 5.00072158E-01	 1.67596296E-01
5.34426630E+07	 5.01360855E-01	 1.64061140E-01
5.34548710E+07	 5.02613991E-01	 1.60516621E-01
5.34670790E+07	 5.03847136E-01	 1.56953540E-01
5.34792871E+07	 5.05046423E-01	 1.53409090E-01
5.34914951E+07	 5.06238456E-01	 1.49831728E-01
5.35037031E+07	 5.07377027E-01	 1.46251130E-01
5.35159111E+07	 5.08521700E-01	 1.42661025E-01
5.35281192E+07	 5.09616208E-01	 1.39063206E-01
5.35403272E+07	 5.10692313E-01	 1.35462034E-01
5.35525352E+07	 5.11761103E-01	 1.31861195E-01
5.35647432E+07	 5.12763103E-01	 1.28229069E-01
5.35769512E+07	 5.13783300E-01	 1.24603722E-01
5.35891593E+07	 5.14743958E-01	 1.20975270E-01
5.36013673E+07	 5.15692027E-01	 1.17324138E-01
5.36135753E+07	 5.16615313E-01	 1.13684404E-01
5.36257833E+07	 5.17516585E-01	 1.10030591E-01
5.36379914E+07	 5.18387442E-01	 1.06370765E-01
5.36501994E+07	 5.19239728E-01	 1.02713951E-01
5.36624074E+07	 5.20054046E-01	 9.90457876E-02
5.36746154E+07	 5.20853973E-01	 9.53673370E-02
5.36868235E+07	 5.21614991E-01	 9.16835893E-02
5.36990315E+07	 5.22351684E-01	 8.79947185E-02
5.37112395E+07	 5.23072780E-01	 8.43036438E-02
5.37234475E+07	 5.23759745E-01	 8.06126840E-02
5.37356556E+07	 5.24416521E-01	 7.69078198E-02
5.37478636E+07	 5.25044591E-01	 7.32081416E-02
5.37600716E+07	 5.25669546E-01	 6.94915215E-02
5.37722796E+07	 5.26246261E-01	 6.57793105E-02
5.37844877E+07	 5.26797064E-01	 6.20609073E-02
5.37966957E+07	 5.27327693E-01	 5.83335250E-02
5.38089037E+07	 5.27829833E-01	 5.46145376E-02
5.38211117E+07	 5.28308010E-01	 5.08843986E-02
5.38333198E+07	 5.28756925E-01	 4.71458862E-02
5.38455278E+07	 5.29184896E-01	 4.34157631E-02
5.38577358E+07	 5.29570305E-01	 3.96792540E-02
5.38699438E+07	 5.29948189E-01	 3.59309572E-02
5.38821519E+07	 5.30294591E-01	 3.22031452E-02
5.38943599E+07	 5.30598392E-01	 2.84438863E-02
5.39065679E+07	 5.30894709E-01	 2.46986900E-02
5.39187759E+07	 5.31163175E-01	 2.09445353E-02
5.39309840E+07	 5.31395960E-01	 1.71961986E-02
5.39431920E+07	 5.31606586E-01	 1.34432565E-02
5.39554000E+07	 5.31785996E-01	 9.68026718E-03
5.39676080E+07	 5.31946340E-01	 5.92755082E-03
5.39798161E+07	 5.32081702E-01	 2.17411598E-03
5.39920241E+07	 5.32171418E-01	-1.58681588E-03
5.40042321E+07	 5.32262112E-01	-5.34866431E-03
5.40164401E+07	 5.32316666E-01	-9.09843665E-03
5.40286482E+07	 5.32332315E-01	-1.28540846E-02
5.40408562E+07	 5.32329244E-01	-1.66110034E-02
5.40530642E+07	 5.32291688E-01	-2.03792240E-02
5.40652722E+07	 5.32248822E-01	-2.41358324E-02
5.40774803E+07	 5.32162959E-01	-2.78846190E-02
5.40896883E+07	 5.32047335E-01	-3.16456685E-02
5.41018963E+07	 5.31908159E-01	-3.53970606E-02
5.41141043E+07	 5.31744001E-01	-3.91537427E-02
5.41263124E+07	 5.31556188E-01	-4.29084595E-02
5.41385204E+07	 5.31343851E-01	-4.66540417E-02
5.41507284E+07	 5.31095801E-01	-5.04101310E-02
5.41629364E+07	 5.30820772E-01	-5.41681562E-02
5.41751445E+07	 5.30528672E-01	-5.79036680E-02
5.41873525E+07	 5.30208328E-01	-6.16456784E-02
5.41995605E+07	 5.29858983E-01	-6.53878220E-02
5.42117685E+07	 5.29476266E-01	-6.91232952E-02
5.42239766E+07	 5.29075328E-01	-7.28629087E-02
5.42361846E+07	 5.28644043E-01	-7.65930728E-02
5.42483926E+07	 5.28192961E-01	-8.03277942E-02
5.42606006E+07	 5.27703987E-01	-8.40525780E-02
5.42728087E+07	 5.27200158E-01	-8.77716857E-02
5.42850167E+07	 5.26664668E-01	-9.14891071E-02
5.42972247E+07	 5.26087594E-01	-9.52002992E-02
5.43094327E+07	 5.25513313E-01	-9.89160690E-02
5.43216408E+07	 5.24902087E-01	-1.02616188E-01
5.43338488E+07	 5.24250930E-01	-1.06325113E-01
5.43460568E+07	 5.23582717E-01	-1.10023509E-01
5.43582648E+07	 5.22897051E-01	-1.13709336E-01
5.43704729E+07	 5.22175734E-01	-1.17400737E-01
5.43826809E+07	 5.21432346E-01	-1.21076320E-01
5.43948889E+07	 5.20648951E-01	-1.24754397E-01
5.44070969E+07	 5.19859285E-01	-1.28427566E-01
5.44193050E+07	 5.19036941E-01	-1.32087028E-01
5.44315130E+07	 5.18182385E-01	-1.35749558E-01
5.44437210E+07	 5.17313184E-01	-1.39394605E-01
5.44559290E+07	 5.16403751E-01	-1.43044590E-01
5.44681371E+07	 5.15477844E-01	-1.46680265E-01
5.44803451E+07	 5.14525516E-01	-1.50317064E-01
5.44925531E+07	 5.13540460E-01	-1.53942469E-01
5.45047611E+07	 5.12533893E-01	-1.57560235E-01
5.45169692E+07	 5.11510009E-01	-1.61169014E-01
5.45291772E+07	 5.10452366E-01	-1.64763105E-01
5.45413852E+07	 5.09377316E-01	-1.68364146E-01
5.45535932E+07	 5.08250486E-01	-1.71942312E-01
5.45658013E+07	 5.07128719E-01	-1.75539023E-01
5.45780093E+07	 5.05963358E-01	-1.79109196E-01
5.45902173E+07	 5.04781016E-01	-1.82661869E-01
5.46024253E+07	 5.03583394E-01	-1.86222500E-01
5.46146334E+07	 5.02339619E-01	-1.89772942E-01
5.46268414E+07	 5.01075236E-01	-1.93305683E-01
5.46390494E+07	 4.99802840E-01	-1.96820224E-01
5.46512574E+07	 4.98490417E-01	-2.00339983E-01
5.46634655E+07	 4.97147313E-01	-2.03848864E-01
5.46756735E+07	 4.95795005E-01	-2.07351371E-01
5.46878815E+07	 4.94407165E-01	-2.10840454E-01
5.47000895E+07	 4.93009170E-01	-2.14320243E-01
5.47122976E+07	 4.91576908E-01	-2.17787713E-01
5.47245056E+07	 4.90115738E-01	-2.21247703E-01
5.47367136E+07	 4.88635507E-01	-2.24700226E-01
5.47489216E+07	 4.87121573E-01	-2.28136343E-01
5.47611296E+07	 4.85598970E-01	-2.31563961E-01
5.47733377E+07	 4.84038073E-01	-2.34975438E-01
5.47855457E+07	 4.82461611E-01	-2.38381716E-01
5.47977537E+07	 4.80852001E-01	-2.41770372E-01
5.48099617E+07	 4.79223344E-01	-2.45154523E-01
5.48221698E+07	 4.77569933E-01	-2.48513179E-01
5.48343778E+07	 4.75890871E-01	-2.51871910E-01
5.48465858E+07	 4.74198310E-01	-2.55219351E-01
5.48587938E+07	 4.72474230E-01	-2.58555416E-01
5.48710019E+07	 4.70728668E-01	-2.61877612E-01
5.48832099E+07	 4.68969399E-01	-2.65180354E-01
5.48954179E+07	 4.67160930E-01	-2.68466638E-01
5.49076259E+07	 4.65350836E-01	-2.71757841E-01
5.49198340E+07	 4.63505200E-01	-2.75017538E-01
5.49320420E+07	 4.61647889E-01	-2.78281809E-01
5.49442500E+07	 4.59758293E-01	-2.81514742E-01
5.49564580E+07	 4.57851847E-01	-2.84750814E-01
5.49686661E+07	 4.55919396E-01	-2.87959123E-01
5.49808741E+07	 4.53965201E-01	-2.91163320E-01
5.49930821E+07	 4.51995613E-01	-2.94351731E-01
5.50052901E+07	 4.49989621E-01	-2.97517228E-01
5.50174982E+07	 4.47969794E-01	-3.00684103E-01
5.50297062E+07	 4.45924985E-01	-3.03827177E-01
5.50419142E+07	 4.43863430E-01	-3.06950881E-01
5.50541222E+07	 4.41771178E-01	-3.10066740E-01
5.50663303E+07	 4.39663179E-01	-3.13156588E-01
5.50785383E+07	 4.37538858E-01	-3.16245705E-01
5.50907463E+07	 4.35370010E-01	-3.19311951E-01
5.51029543E+07	 4.33181246E-01	-3.22348806E-01
5.51151624E+07	 4.30997650E-01	-3.25405301E-01
5.51273704E+07	 4.28789521E-01	-3.28432638E-01
