! COPPER MOUNTAIN TECHNOLOGIES, PLANAR TR1300/1, 00071119, 20.2.2/1.0
! Date: 7/24/2023 9:27:54 AM
! Data: Format [Calibration Info]
! Freq          	S11: Re/Im F1                  
# HZ S RI R 50
5.00000000E+07	 1.79394329E-01	-2.82570211E-01
5.00122080E+07	 1.79320500E-01	-2.82616781E-01
5.00244160E+07	 1.79252724E-01	-2.82661502E-01
5.00366241E+07	 1.79178049E-01	-2.82703087E-01
5.00488321E+07	 1.79111724E-01	-2.82756740E-01
5.00610401E+07	 1.79043294E-01	-2.82790517E-01
5.00732481E+07	 1.78972134E-01	-2.82829186E-01
5.00854562E+07	 1.78909697E-01	-2.82882147E-01
5.00976642E+07	 1.78831273E-01	-2.82928317E-01
5.01098722E+07	 1.78763056E-01	-2.82974018E-01
5.01220802E+07	 1.78700227E-01	-2.83020536E-01
5.01342883E+07	 1.78623473E-01	-2.83066109E-01
5.01464963E+07	 1.78554082E-01	-2.83107227E-01
5.01587043E+07	 1.78485588E-01	-2.83151058E-01
5.01709123E+07	 1.78414276E-01	-2.83193486E-01
5.01831204E+07	 1.78352220E-01	-2.83240769E-01
5.01953284E+07	 1.78287111E-01	-2.83281175E-01
5.02075364E+07	 1.78211580E-01	-2.83331168E-01
5.02197444E+07	 1.78141417E-01	-2.83378064E-01
5.02319525E+07	 1.78071980E-01	-2.83416711E-01
5.02441605E+07	 1.77996811E-01	-2.83459483E-01
5.02563685E+07	 1.77938053E-01	-2.83506422E-01
5.02685765E+07	 1.77863620E-01	-2.83549015E-01
5.02807846E+07	 1.77793636E-01	-2.83590905E-01
5.02929926E+07	 1.77730013E-01	-2.83639079E-01
5.03052006E+07	 1.77656983E-01	-2.83687366E-01
5.03174086E+07	 1.77579306E-01	-2.83720069E-01
5.03296167E+07	 1.77518466E-01	-2.83769621E-01
5.03418247E+07	 1.77443873E-01	-2.83810841E-01
5.03540327E+07	 1.77376771E-01	-2.83858764E-01
5.03662407E+07	 1.77303447E-01	-2.83901809E-01
5.03784488E+07	 1.77234129E-01	-2.83946018E-01
5.03906568E+07	 1.77164925E-01	-2.83989272E-01
5.04028648E+07	 1.77097108E-01	-2.84034194E-01
5.04150728E+07	 1.77028121E-01	-2.84076834E-01
5.04272809E+07	 1.76959470E-01	-2.84123002E-01
5.04394889E+07	 1.76886991E-01	-2.84171467E-01
5.04516969E+07	 1.76817121E-01	-2.84208516E-01
5.04639049E+07	 1.76751052E-01	-2.84258325E-01
5.04761130E+07	 1.76673426E-01	-2.84301699E-01
5.04883210E+07	 1.76613240E-01	-2.84337170E-01
5.05005290E+07	 1.76537808E-01	-2.84390383E-01
5.05127370E+07	 1.76472347E-01	-2.84422736E-01
5.05249451E+07	 1.76408941E-01	-2.84481581E-01
5.05371531E+07	 1.76328289E-01	-2.84515753E-01
5.05493611E+07	 1.76261075E-01	-2.84560601E-01
5.05615691E+07	 1.76184791E-01	-2.84609260E-01
5.05737772E+07	 1.76122911E-01	-2.84644276E-01
5.05859852E+07	 1.76050521E-01	-2.84695061E-01
5.05981932E+07	 1.75981676E-01	-2.84739264E-01
5.06104012E+07	 1.75911837E-01	-2.84778121E-01
5.06226093E+07	 1.75842993E-01	-2.84816539E-01
5.06348173E+07	 1.75772140E-01	-2.84863718E-01
5.06470253E+07	 1.75706133E-01	-2.84912673E-01
5.06592333E+07	 1.75634615E-01	-2.84949807E-01
5.06714414E+07	 1.75557607E-01	-2.85002984E-01
5.06836494E+07	 1.75494021E-01	-2.85042437E-01
5.06958574E+07	 1.75419288E-01	-2.85086773E-01
5.07080654E+07	 1.75353422E-01	-2.85135106E-01
5.07202735E+07	 1.75286608E-01	-2.85169749E-01
5.07324815E+07	 1.75200324E-01	-2.85216023E-01
5.07446895E+07	 1.75143997E-01	-2.85265005E-01
5.07568975E+07	 1.75079416E-01	-2.85307670E-01
5.07691056E+07	 1.75003887E-01	-2.85349993E-01
5.07813136E+07	 1.74936673E-01	-2.85385507E-01
5.07935216E+07	 1.74860548E-01	-2.85436007E-01
5.08057296E+07	 1.74793554E-01	-2.85483426E-01
5.08179377E+07	 1.74718882E-01	-2.85517942E-01
5.08301457E+07	 1.74654471E-01	-2.85571416E-01
5.08423537E+07	 1.74584011E-01	-2.85608335E-01
5.08545617E+07	 1.74514440E-01	-2.85654505E-01
5.08667698E+07	 1.74436315E-01	-2.85692996E-01
5.08789778E+07	 1.74373220E-01	-2.85735158E-01
5.08911858E+07	 1.74298381E-01	-2.85781635E-01
5.09033938E+07	 1.74234326E-01	-2.85823290E-01
5.09156019E+07	 1.74163664E-01	-2.85874975E-01
5.09278099E+07	 1.74089731E-01	-2.85911971E-01
5.09400179E+07	 1.74021384E-01	-2.85957531E-01
5.09522259E+07	 1.73957211E-01	-2.86002100E-01
5.09644340E+07	 1.73876237E-01	-2.86039513E-01
5.09766420E+07	 1.73809460E-01	-2.86083353E-01
5.09888500E+07	 1.73736981E-01	-2.86136127E-01
5.10010580E+07	 1.73665026E-01	-2.86173421E-01
5.10132661E+07	 1.73596534E-01	-2.86218582E-01
5.10254741E+07	 1.73526871E-01	-2.86263395E-01
5.10376821E+07	 1.73468661E-01	-2.86303700E-01
5.10498901E+07	 1.73384831E-01	-2.86349215E-01
5.10620982E+07	 1.73320865E-01	-2.86388073E-01
5.10743062E+07	 1.73251020E-01	-2.86434648E-01
5.10865142E+07	 1.73180642E-01	-2.86472748E-01
5.10987222E+07	 1.73119712E-01	-2.86515597E-01
5.11109303E+07	 1.73046020E-01	-2.86556989E-01
5.11231383E+07	 1.72972044E-01	-2.86600813E-01
5.11353463E+07	 1.72902439E-01	-2.86646203E-01
5.11475543E+07	 1.72829023E-01	-2.86693037E-01
5.11597624E+07	 1.72763226E-01	-2.86728518E-01
5.11719704E+07	 1.72692973E-01	-2.86773389E-01
5.11841784E+07	 1.72623015E-01	-2.86816843E-01
5.11963864E+07	 1.72552201E-01	-2.86856039E-01
5.12085944E+07	 1.72481231E-01	-2.86904642E-01
5.12208025E+07	 1.72422674E-01	-2.86942066E-01
5.12330105E+07	 1.72344490E-01	-2.86987861E-01
5.12452185E+07	 1.72281175E-01	-2.87027672E-01
5.12574265E+07	 1.72207973E-01	-2.87073314E-01
5.12696346E+07	 1.72141496E-01	-2.87112734E-01
5.12818426E+07	 1.72065428E-01	-2.87153694E-01
5.12940506E+07	 1.72001437E-01	-2.87205282E-01
5.13062586E+07	 1.71929313E-01	-2.87240876E-01
5.13184667E+07	 1.71857826E-01	-2.87282110E-01
5.13306747E+07	 1.71789550E-01	-2.87328212E-01
5.13428827E+07	 1.71715974E-01	-2.87374690E-01
5.13550907E+07	 1.71651688E-01	-2.87416749E-01
5.13672988E+07	 1.71580318E-01	-2.87453012E-01
5.13795068E+07	 1.71503579E-01	-2.87500103E-01
5.13917148E+07	 1.71436766E-01	-2.87539962E-01
5.14039228E+07	 1.71369668E-01	-2.87579859E-01
5.14161309E+07	 1.71298269E-01	-2.87621191E-01
5.14283389E+07	 1.71231774E-01	-2.87670003E-01
5.14405469E+07	 1.71160732E-01	-2.87705923E-01
5.14527549E+07	 1.71092238E-01	-2.87755590E-01
5.14649630E+07	 1.71013622E-01	-2.87799171E-01
5.14771710E+07	 1.70945236E-01	-2.87837990E-01
5.14893790E+07	 1.70871831E-01	-2.87877178E-01
5.15015870E+07	 1.70808711E-01	-2.87929810E-01
5.15137951E+07	 1.70742274E-01	-2.87963921E-01
5.15260031E+07	 1.70668571E-01	-2.88006419E-01
5.15382111E+07	 1.70598281E-01	-2.88050321E-01
5.15504191E+07	 1.70529228E-01	-2.88094096E-01
5.15626272E+07	 1.70461543E-01	-2.88130490E-01
5.15748352E+07	 1.70386948E-01	-2.88175373E-01
5.15870432E+07	 1.70321896E-01	-2.88215923E-01
5.15992512E+07	 1.70243510E-01	-2.88258258E-01
5.16114593E+07	 1.70177009E-01	-2.88299559E-01
5.16236673E+07	 1.70110857E-01	-2.88347206E-01
5.16358753E+07	 1.70039366E-01	-2.88390131E-01
5.16480833E+07	 1.69972449E-01	-2.88429160E-01
5.16602914E+07	 1.69888870E-01	-2.88478703E-01
5.16724994E+07	 1.69825605E-01	-2.88517010E-01
5.16847074E+07	 1.69758958E-01	-2.88555269E-01
5.16969154E+07	 1.69680946E-01	-2.88599440E-01
5.17091235E+07	 1.69614569E-01	-2.88636204E-01
5.17213315E+07	 1.69543313E-01	-2.88686672E-01
5.17335395E+07	 1.69483726E-01	-2.88725068E-01
5.17457475E+07	 1.69404826E-01	-2.88762855E-01
5.17579556E+07	 1.69336162E-01	-2.88803591E-01
5.17701636E+07	 1.69261652E-01	-2.88848117E-01
5.17823716E+07	 1.69197325E-01	-2.88895650E-01
5.17945796E+07	 1.69130229E-01	-2.88931445E-01
5.18067877E+07	 1.69048510E-01	-2.88969443E-01
5.18189957E+07	 1.68984993E-01	-2.89021103E-01
5.18312037E+07	 1.68914085E-01	-2.89057564E-01
5.18434117E+07	 1.68843373E-01	-2.89102586E-01
5.18556198E+07	 1.68774275E-01	-2.89144782E-01
5.18678278E+07	 1.68700889E-01	-2.89190333E-01
5.18800358E+07	 1.68629381E-01	-2.89232577E-01
5.18922438E+07	 1.68564093E-01	-2.89273289E-01
5.19044519E+07	 1.68487829E-01	-2.89309983E-01
5.19166599E+07	 1.68427991E-01	-2.89353053E-01
5.19288679E+07	 1.68351304E-01	-2.89392459E-01
5.19410759E+07	 1.68285376E-01	-2.89435338E-01
5.19532840E+07	 1.68209036E-01	-2.89474806E-01
5.19654920E+07	 1.68146549E-01	-2.89521447E-01
5.19777000E+07	 1.68068526E-01	-2.89568790E-01
5.19899080E+07	 1.68000312E-01	-2.89600607E-01
5.20021161E+07	 1.67933093E-01	-2.89636215E-01
5.20143241E+07	 1.67855804E-01	-2.89694477E-01
5.20265321E+07	 1.67791861E-01	-2.89723659E-01
5.20387401E+07	 1.67716611E-01	-2.89768872E-01
5.20509482E+07	 1.67642552E-01	-2.89815284E-01
5.20631562E+07	 1.67570012E-01	-2.89849105E-01
5.20753642E+07	 1.67507082E-01	-2.89888649E-01
5.20875722E+07	 1.67429277E-01	-2.89937415E-01
5.20997803E+07	 1.67361385E-01	-2.89973060E-01
5.21119883E+07	 1.67293084E-01	-2.90017851E-01
5.21241963E+07	 1.67227579E-01	-2.90058069E-01
5.21364043E+07	 1.67152757E-01	-2.90099209E-01
5.21486124E+07	 1.67073896E-01	-2.90145893E-01
5.21608204E+07	 1.67004650E-01	-2.90182751E-01
5.21730284E+07	 1.66935787E-01	-2.90223578E-01
5.21852364E+07	 1.66866232E-01	-2.90266048E-01
5.21974445E+07	 1.66797525E-01	-2.90307654E-01
5.22096525E+07	 1.66724682E-01	-2.90344347E-01
5.22218605E+07	 1.66652829E-01	-2.90390469E-01
5.22340685E+07	 1.66575941E-01	-2.90427825E-01
5.22462766E+07	 1.66508998E-01	-2.90471843E-01
5.22584846E+07	 1.66435038E-01	-2.90512128E-01
5.22706926E+07	 1.66367039E-01	-2.90553234E-01
5.22829006E+07	 1.66300028E-01	-2.90596260E-01
5.22951087E+07	 1.66224599E-01	-2.90638070E-01
5.23073167E+07	 1.66148694E-01	-2.90678999E-01
5.23195247E+07	 1.66083761E-01	-2.90718907E-01
5.23317327E+07	 1.66012646E-01	-2.90754118E-01
5.23439408E+07	 1.65935184E-01	-2.90795586E-01
5.23561488E+07	 1.65871044E-01	-2.90839947E-01
5.23683568E+07	 1.65802199E-01	-2.90883944E-01
5.23805648E+07	 1.65724237E-01	-2.90926643E-01
5.23927728E+07	 1.65651589E-01	-2.90968713E-01
5.24049809E+07	 1.65585639E-01	-2.91005000E-01
5.24171889E+07	 1.65501924E-01	-2.91048684E-01
5.24293969E+07	 1.65437097E-01	-2.91088058E-01
5.24416049E+07	 1.65370441E-01	-2.91131736E-01
5.24538130E+07	 1.65297503E-01	-2.91158550E-01
5.24660210E+07	 1.65218527E-01	-2.91213288E-01
5.24782290E+07	 1.65156005E-01	-2.91252174E-01
5.24904370E+07	 1.65081370E-01	-2.91290101E-01
5.25026451E+07	 1.65013702E-01	-2.91334544E-01
5.25148531E+07	 1.64937318E-01	-2.91375763E-01
5.25270611E+07	 1.64871949E-01	-2.91419686E-01
5.25392691E+07	 1.64799440E-01	-2.91455759E-01
5.25514772E+07	 1.64726760E-01	-2.91493615E-01
5.25636852E+07	 1.64649169E-01	-2.91534376E-01
5.25758932E+07	 1.64589192E-01	-2.91576331E-01
5.25881012E+07	 1.64510466E-01	-2.91612369E-01
5.26003093E+07	 1.64443246E-01	-2.91653573E-01
5.26125173E+07	 1.64374540E-01	-2.91697495E-01
5.26247253E+07	 1.64299802E-01	-2.91736612E-01
5.26369333E+07	 1.64221774E-01	-2.91783396E-01
5.26491414E+07	 1.64159541E-01	-2.91828449E-01
5.26613494E+07	 1.64079001E-01	-2.91859341E-01
5.26735574E+07	 1.64014368E-01	-2.91906479E-01
5.26857654E+07	 1.63937957E-01	-2.91941394E-01
5.26979735E+07	 1.63875099E-01	-2.91983822E-01
5.27101815E+07	 1.63788634E-01	-2.92027816E-01
5.27223895E+07	 1.63723679E-01	-2.92061772E-01
5.27345975E+07	 1.63654453E-01	-2.92103055E-01
5.27468056E+07	 1.63587721E-01	-2.92147794E-01
5.27590136E+07	 1.63514111E-01	-2.92184012E-01
5.27712216E+07	 1.63435842E-01	-2.92218856E-01
5.27834296E+07	 1.63367862E-01	-2.92264330E-01
5.27956377E+07	 1.63298327E-01	-2.92301694E-01
5.28078457E+07	 1.63224300E-01	-2.92345321E-01
5.28200537E+07	 1.63155035E-01	-2.92383871E-01
5.28322617E+07	 1.63077296E-01	-2.92417859E-01
5.28444698E+07	 1.63009304E-01	-2.92467477E-01
5.28566778E+07	 1.62934432E-01	-2.92509483E-01
5.28688858E+07	 1.62870833E-01	-2.92549742E-01
5.28810938E+07	 1.62791022E-01	-2.92591387E-01
5.28933019E+07	 1.62716960E-01	-2.92629588E-01
5.29055099E+07	 1.62653410E-01	-2.92665014E-01
5.29177179E+07	 1.62573248E-01	-2.92706503E-01
5.29299259E+07	 1.62510338E-01	-2.92744992E-01
5.29421340E+07	 1.62436915E-01	-2.92782964E-01
5.29543420E+07	 1.62359390E-01	-2.92822953E-01
5.29665500E+07	 1.62290904E-01	-2.92870912E-01
5.29787580E+07	 1.62219857E-01	-2.92906187E-01
5.29909661E+07	 1.62147355E-01	-2.92951651E-01
5.30031741E+07	 1.62077285E-01	-2.92987046E-01
5.30153821E+07	 1.62002879E-01	-2.93028609E-01
5.30275901E+07	 1.61936954E-01	-2.93069045E-01
5.30397982E+07	 1.61864812E-01	-2.93113860E-01
5.30520062E+07	 1.61792218E-01	-2.93148140E-01
5.30642142E+07	 1.61724168E-01	-2.93188050E-01
5.30764222E+07	 1.61651522E-01	-2.93225045E-01
5.30886303E+07	 1.61582265E-01	-2.93268848E-01
5.31008383E+07	 1.61510101E-01	-2.93309360E-01
5.31130463E+07	 1.61428976E-01	-2.93350339E-01
5.31252543E+07	 1.61363563E-01	-2.93387399E-01
5.31374624E+07	 1.61289712E-01	-2.93426876E-01
5.31496704E+07	 1.61219954E-01	-2.93470830E-01
5.31618784E+07	 1.61147912E-01	-2.93512007E-01
5.31740864E+07	 1.61077082E-01	-2.93545666E-01
5.31862945E+07	 1.61006272E-01	-2.93585316E-01
5.31985025E+07	 1.60937955E-01	-2.93623236E-01
5.32107105E+07	 1.60867558E-01	-2.93666138E-01
5.32229185E+07	 1.60790902E-01	-2.93710172E-01
5.32351266E+07	 1.60724315E-01	-2.93746520E-01
5.32473346E+07	 1.60643484E-01	-2.93789632E-01
5.32595426E+07	 1.60577816E-01	-2.93822682E-01
5.32717506E+07	 1.60510678E-01	-2.93858672E-01
5.32839587E+07	 1.60439578E-01	-2.93899306E-01
5.32961667E+07	 1.60359215E-01	-2.93939220E-01
5.33083747E+07	 1.60292540E-01	-2.93983134E-01
5.33205827E+07	 1.60221499E-01	-2.94020291E-01
5.33327908E+07	 1.60146129E-01	-2.94060356E-01
5.33449988E+07	 1.60077467E-01	-2.94098825E-01
5.33572068E+07	 1.60003390E-01	-2.94140139E-01
5.33694148E+07	 1.59929010E-01	-2.94178497E-01
5.33816229E+07	 1.59862117E-01	-2.94220921E-01
5.33938309E+07	 1.59791541E-01	-2.94258828E-01
5.34060389E+07	 1.59712048E-01	-2.94292934E-01
5.34182469E+07	 1.59644435E-01	-2.94333519E-01
5.34304550E+07	 1.59578066E-01	-2.94377158E-01
5.34426630E+07	 1.59497198E-01	-2.94418787E-01
5.34548710E+07	 1.59435202E-01	-2.94455526E-01
5.34670790E+07	 1.59364127E-01	-2.94498782E-01
5.34792871E+07	 1.59281489E-01	-2.94527373E-01
5.34914951E+07	 1.59219620E-01	-2.94573731E-01
5.35037031E+07	 1.59144334E-01	-2.94608681E-01
5.35159111E+07	 1.59067715E-01	-2.94654470E-01
5.35281192E+07	 1.59003782E-01	-2.94691534E-01
5.35403272E+07	 1.58924156E-01	-2.94726130E-01
5.35525352E+07	 1.58859455E-01	-2.94770675E-01
5.35647432E+07	 1.58784562E-01	-2.94809696E-01
5.35769512E+07	 1.58714416E-01	-2.94848446E-01
5.35891593E+07	 1.58636809E-01	-2.94886873E-01
5.36013673E+07	 1.58564542E-01	-2.94932566E-01
5.36135753E+07	 1.58501531E-01	-2.94967811E-01
5.36257833E+07	 1.58420820E-01	-2.95006091E-01
5.36379914E+07	 1.58354091E-01	-2.95044189E-01
5.36501994E+07	 1.58285980E-01	-2.95080505E-01
5.36624074E+07	 1.58212714E-01	-2.95123528E-01
5.36746154E+07	 1.58144006E-01	-2.95159373E-01
5.36868235E+07	 1.58062966E-01	-2.95202713E-01
5.36990315E+07	 1.57995192E-01	-2.95238511E-01
5.37112395E+07	 1.57922610E-01	-2.95279795E-01
5.37234475E+07	 1.57852225E-01	-2.95317471E-01
5.37356556E+07	 1.57780805E-01	-2.95352973E-01
5.37478636E+07	 1.57712170E-01	-2.95388990E-01
5.37600716E+07	 1.57637709E-01	-2.95434449E-01
5.37722796E+07	 1.57567285E-01	-2.95474565E-01
5.37844877E+07	 1.57485579E-01	-2.95509893E-01
5.37966957E+07	 1.57420767E-01	-2.95546779E-01
5.38089037E+07	 1.57347041E-01	-2.95592430E-01
5.38211117E+07	 1.57280590E-01	-2.95627916E-01
5.38333198E+07	 1.57202429E-01	-2.95664410E-01
5.38455278E+07	 1.57135037E-01	-2.95704202E-01
5.38577358E+07	 1.57061421E-01	-2.95743959E-01
5.38699438E+07	 1.56985667E-01	-2.95788149E-01
5.38821519E+07	 1.56909163E-01	-2.95818301E-01
5.38943599E+07	 1.56844258E-01	-2.95852942E-01
5.39065679E+07	 1.56774282E-01	-2.95894898E-01
5.39187759E+07	 1.56700068E-01	-2.95945685E-01
5.39309840E+07	 1.56625031E-01	-2.95979527E-01
5.39431920E+07	 1.56556785E-01	-2.96010901E-01
5.39554000E+07	 1.56477537E-01	-2.96059805E-01
5.39676080E+07	 1.56412158E-01	-2.96085191E-01
5.39798161E+07	 1.56347948E-01	-2.96130982E-01
5.39920241E+07	 1.56267589E-01	-2.96170767E-01
5.40042321E+07	 1.56193592E-01	-2.96208229E-01
5.40164401E+07	 1.56121061E-01	-2.96245182E-01
5.40286482E+07	 1.56049407E-01	-2.96283521E-01
5.40408562E+07	 1.55979317E-01	-2.96322080E-01
5.40530642E+07	 1.55902166E-01	-2.96358417E-01
5.40652722E+07	 1.55831824E-01	-2.96400664E-01
5.40774803E+07	 1.55759028E-01	-2.96435376E-01
5.40896883E+07	 1.55690821E-01	-2.96479339E-01
5.41018963E+07	 1.55615314E-01	-2.96514794E-01
5.41141043E+07	 1.55541905E-01	-2.96556082E-01
5.41263124E+07	 1.55463894E-01	-2.96597992E-01
5.41385204E+07	 1.55404445E-01	-2.96631136E-01
5.41507284E+07	 1.55321392E-01	-2.96672113E-01
5.41629364E+07	 1.55242992E-01	-2.96710160E-01
5.41751445E+07	 1.55173049E-01	-2.96751635E-01
5.41873525E+07	 1.55100392E-01	-2.96781266E-01
5.41995605E+07	 1.55034338E-01	-2.96822457E-01
5.42117685E+07	 1.54960403E-01	-2.96859057E-01
5.42239766E+07	 1.54888422E-01	-2.96899021E-01
5.42361846E+07	 1.54807177E-01	-2.96938072E-01
5.42483926E+07	 1.54738972E-01	-2.96980369E-01
5.42606006E+07	 1.54665117E-01	-2.97018493E-01
5.42728087E+07	 1.54595341E-01	-2.97056098E-01
5.42850167E+07	 1.54518995E-01	-2.97099301E-01
5.42972247E+07	 1.54446766E-01	-2.97133307E-01
5.43094327E+07	 1.54371436E-01	-2.97172960E-01
5.43216408E+07	 1.54307042E-01	-2.97215134E-01
5.43338488E+07	 1.54232848E-01	-2.97252710E-01
5.43460568E+07	 1.54154249E-01	-2.97284797E-01
5.43582648E+07	 1.54087698E-01	-2.97326031E-01
5.43704729E+07	 1.54006095E-01	-2.97363706E-01
5.43826809E+07	 1.53939760E-01	-2.97400207E-01
5.43948889E+07	 1.53863873E-01	-2.97443252E-01
5.44070969E+07	 1.53798143E-01	-2.97476630E-01
5.44193050E+07	 1.53720627E-01	-2.97514178E-01
5.44315130E+07	 1.53647016E-01	-2.97555385E-01
5.44437210E+07	 1.53575760E-01	-2.97594676E-01
5.44559290E+07	 1.53498881E-01	-2.97632727E-01
5.44681371E+07	 1.53418764E-01	-2.97665298E-01
5.44803451E+07	 1.53348779E-01	-2.97704128E-01
5.44925531E+07	 1.53270822E-01	-2.97746022E-01
5.45047611E+07	 1.53204012E-01	-2.97779466E-01
5.45169692E+07	 1.53134341E-01	-2.97820041E-01
5.45291772E+07	 1.53064630E-01	-2.97859479E-01
5.45413852E+07	 1.52993887E-01	-2.97901033E-01
5.45535932E+07	 1.52916049E-01	-2.97929961E-01
5.45658013E+07	 1.52839105E-01	-2.97975228E-01
5.45780093E+07	 1.52769410E-01	-2.98016920E-01
5.45902173E+07	 1.52700230E-01	-2.98048483E-01
5.46024253E+07	 1.52622979E-01	-2.98090873E-01
5.46146334E+07	 1.52546236E-01	-2.98127592E-01
5.46268414E+07	 1.52475986E-01	-2.98161199E-01
5.46390494E+07	 1.52406034E-01	-2.98199647E-01
5.46512574E+07	 1.52330925E-01	-2.98234377E-01
5.46634655E+07	 1.52258460E-01	-2.98274850E-01
5.46756735E+07	 1.52185095E-01	-2.98317835E-01
5.46878815E+07	 1.52108823E-01	-2.98351469E-01
5.47000895E+07	 1.52037517E-01	-2.98390413E-01
5.47122976E+07	 1.51965025E-01	-2.98427452E-01
5.47245056E+07	 1.51889709E-01	-2.98468602E-01
5.47367136E+07	 1.51818649E-01	-2.98500989E-01
5.47489216E+07	 1.51744512E-01	-2.98541029E-01
5.47611296E+07	 1.51671549E-01	-2.98579424E-01
5.47733377E+07	 1.51597927E-01	-2.98614479E-01
5.47855457E+07	 1.51522712E-01	-2.98650492E-01
5.47977537E+07	 1.51451051E-01	-2.98690002E-01
5.48099617E+07	 1.51380276E-01	-2.98732888E-01
5.48221698E+07	 1.51309816E-01	-2.98768000E-01
5.48343778E+07	 1.51227284E-01	-2.98798175E-01
5.48465858E+07	 1.51158015E-01	-2.98839622E-01
5.48587938E+07	 1.51086043E-01	-2.98876429E-01
5.48710019E+07	 1.51003016E-01	-2.98923853E-01
5.48832099E+07	 1.50938639E-01	-2.98956524E-01
5.48954179E+07	 1.50859078E-01	-2.98984951E-01
5.49076259E+07	 1.50788998E-01	-2.99030395E-01
5.49198340E+07	 1.50720702E-01	-2.99067183E-01
5.49320420E+07	 1.50639575E-01	-2.99108221E-01
5.49442500E+07	 1.50562363E-01	-2.99140339E-01
5.49564580E+07	 1.50495570E-01	-2.99180848E-01
5.49686661E+07	 1.50425976E-01	-2.99210385E-01
5.49808741E+07	 1.50349907E-01	-2.99259825E-01
5.49930821E+07	 1.50278464E-01	-2.99289194E-01
5.50052901E+07	 1.50202360E-01	-2.99322183E-01
5.50174982E+07	 1.50131627E-01	-2.99368707E-01
5.50297062E+07	 1.50061487E-01	-2.99409214E-01
5.50419142E+07	 1.49984192E-01	-2.99441309E-01
5.50541222E+07	 1.49912433E-01	-2.99476443E-01
5.50663303E+07	 1.49840120E-01	-2.99513384E-01
5.50785383E+07	 1.49769009E-01	-2.99557240E-01
5.50907463E+07	 1.49694432E-01	-2.99590399E-01
5.51029543E+07	 1.49620919E-01	-2.99627481E-01
5.51151624E+07	 1.49543987E-01	-2.99668157E-01
5.51273704E+07	 1.49480187E-01	-2.99710077E-01
