! COPPER MOUNTAIN TECHNOLOGIES, PLANAR TR1300/1, 00071119, 20.2.2/1.0
! Date: 11/21/2023 7:09:37 PM
! Data: Format [Calibration Info]
! Freq          	S11: Re/Im F1                  
# HZ S RI R 50
5.00000000E+07	 1.79166401E-01	-2.82697166E-01
5.00122080E+07	 1.79097060E-01	-2.82751960E-01
5.00244160E+07	 1.79038406E-01	-2.82795284E-01
5.00366241E+07	 1.78962285E-01	-2.82836284E-01
5.00488321E+07	 1.78894584E-01	-2.82889864E-01
5.00610401E+07	 1.78820569E-01	-2.82923203E-01
5.00732481E+07	 1.78753115E-01	-2.82972139E-01
5.00854562E+07	 1.78696304E-01	-2.83017313E-01
5.00976642E+07	 1.78619057E-01	-2.83065551E-01
5.01098722E+07	 1.78552956E-01	-2.83117870E-01
5.01220802E+07	 1.78475719E-01	-2.83149295E-01
5.01342883E+07	 1.78415335E-01	-2.83198180E-01
5.01464963E+07	 1.78343565E-01	-2.83238159E-01
5.01587043E+07	 1.78276766E-01	-2.83282136E-01
5.01709123E+07	 1.78199580E-01	-2.83333235E-01
5.01831204E+07	 1.78132847E-01	-2.83373707E-01
5.01953284E+07	 1.78062183E-01	-2.83418575E-01
5.02075364E+07	 1.77992293E-01	-2.83456403E-01
5.02197444E+07	 1.77921934E-01	-2.83509795E-01
5.02319525E+07	 1.77851722E-01	-2.83552766E-01
5.02441605E+07	 1.77784414E-01	-2.83594443E-01
5.02563685E+07	 1.77718568E-01	-2.83641219E-01
5.02685765E+07	 1.77645975E-01	-2.83680702E-01
5.02807846E+07	 1.77577608E-01	-2.83729457E-01
5.02929926E+07	 1.77505048E-01	-2.83771929E-01
5.03052006E+07	 1.77434349E-01	-2.83806996E-01
5.03174086E+07	 1.77366748E-01	-2.83856189E-01
5.03296167E+07	 1.77298187E-01	-2.83897635E-01
5.03418247E+07	 1.77229861E-01	-2.83949808E-01
5.03540327E+07	 1.77157329E-01	-2.83989725E-01
5.03662407E+07	 1.77083194E-01	-2.84038519E-01
5.03784488E+07	 1.77021813E-01	-2.84083738E-01
5.03906568E+07	 1.76951356E-01	-2.84122562E-01
5.04028648E+07	 1.76873060E-01	-2.84168894E-01
5.04150728E+07	 1.76807278E-01	-2.84208395E-01
5.04272809E+07	 1.76737763E-01	-2.84255519E-01
5.04394889E+07	 1.76671002E-01	-2.84302606E-01
5.04516969E+07	 1.76595688E-01	-2.84334338E-01
5.04639049E+07	 1.76537400E-01	-2.84388692E-01
5.04761130E+07	 1.76456809E-01	-2.84430725E-01
5.04883210E+07	 1.76393777E-01	-2.84472507E-01
5.05005290E+07	 1.76320741E-01	-2.84519612E-01
5.05127370E+07	 1.76242840E-01	-2.84559651E-01
5.05249451E+07	 1.76184226E-01	-2.84606577E-01
5.05371531E+07	 1.76113785E-01	-2.84655637E-01
5.05493611E+07	 1.76046297E-01	-2.84695316E-01
5.05615691E+07	 1.75972153E-01	-2.84742214E-01
5.05737772E+07	 1.75903630E-01	-2.84787956E-01
5.05859852E+07	 1.75830362E-01	-2.84829774E-01
5.05981932E+07	 1.75764050E-01	-2.84870587E-01
5.06104012E+07	 1.75693860E-01	-2.84914826E-01
5.06226093E+07	 1.75625457E-01	-2.84960299E-01
5.06348173E+07	 1.75552959E-01	-2.84998222E-01
5.06470253E+07	 1.75485659E-01	-2.85045624E-01
5.06592333E+07	 1.75413121E-01	-2.85089600E-01
5.06714414E+07	 1.75339078E-01	-2.85133341E-01
5.06836494E+07	 1.75270025E-01	-2.85178022E-01
5.06958574E+07	 1.75200186E-01	-2.85221675E-01
5.07080654E+07	 1.75137990E-01	-2.85263462E-01
5.07202735E+07	 1.75064770E-01	-2.85303488E-01
5.07324815E+07	 1.74995124E-01	-2.85340046E-01
5.07446895E+07	 1.74932305E-01	-2.85390003E-01
5.07568975E+07	 1.74855343E-01	-2.85436718E-01
5.07691056E+07	 1.74782046E-01	-2.85483131E-01
5.07813136E+07	 1.74713076E-01	-2.85522022E-01
5.07935216E+07	 1.74646374E-01	-2.85568154E-01
5.08057296E+07	 1.74571603E-01	-2.85608277E-01
5.08179377E+07	 1.74507240E-01	-2.85653216E-01
5.08301457E+07	 1.74424510E-01	-2.85706640E-01
5.08423537E+07	 1.74359836E-01	-2.85741505E-01
5.08545617E+07	 1.74300351E-01	-2.85783501E-01
5.08667698E+07	 1.74229434E-01	-2.85828258E-01
5.08789778E+07	 1.74154391E-01	-2.85876283E-01
5.08911858E+07	 1.74082190E-01	-2.85915232E-01
5.09033938E+07	 1.74011921E-01	-2.85962278E-01
5.09156019E+07	 1.73943413E-01	-2.86003758E-01
5.09278099E+07	 1.73866662E-01	-2.86041886E-01
5.09400179E+07	 1.73803681E-01	-2.86082072E-01
5.09522259E+07	 1.73729044E-01	-2.86131350E-01
5.09644340E+07	 1.73661492E-01	-2.86172950E-01
5.09766420E+07	 1.73596319E-01	-2.86215703E-01
5.09888500E+07	 1.73524635E-01	-2.86259733E-01
5.10010580E+07	 1.73451160E-01	-2.86302025E-01
5.10132661E+07	 1.73377783E-01	-2.86350487E-01
5.10254741E+07	 1.73313087E-01	-2.86391793E-01
5.10376821E+07	 1.73244094E-01	-2.86437598E-01
5.10498901E+07	 1.73169779E-01	-2.86478008E-01
5.10620982E+07	 1.73097396E-01	-2.86523139E-01
5.10743062E+07	 1.73028108E-01	-2.86564443E-01
5.10865142E+07	 1.72968615E-01	-2.86607407E-01
5.10987222E+07	 1.72892876E-01	-2.86646068E-01
5.11109303E+07	 1.72823147E-01	-2.86694551E-01
5.11231383E+07	 1.72750558E-01	-2.86729518E-01
5.11353463E+07	 1.72684102E-01	-2.86774861E-01
5.11475543E+07	 1.72615374E-01	-2.86824844E-01
5.11597624E+07	 1.72545720E-01	-2.86858510E-01
5.11719704E+07	 1.72478409E-01	-2.86903326E-01
5.11841784E+07	 1.72408074E-01	-2.86947391E-01
5.11963864E+07	 1.72330131E-01	-2.86992482E-01
5.12085944E+07	 1.72266351E-01	-2.87036852E-01
5.12208025E+07	 1.72195985E-01	-2.87072448E-01
5.12330105E+07	 1.72126414E-01	-2.87118072E-01
5.12452185E+07	 1.72054206E-01	-2.87158336E-01
5.12574265E+07	 1.71987640E-01	-2.87207719E-01
5.12696346E+07	 1.71916868E-01	-2.87244827E-01
5.12818426E+07	 1.71841366E-01	-2.87286556E-01
5.12940506E+07	 1.71773210E-01	-2.87332584E-01
5.13062586E+07	 1.71709431E-01	-2.87372036E-01
5.13184667E+07	 1.71635806E-01	-2.87414281E-01
5.13306747E+07	 1.71563888E-01	-2.87457115E-01
5.13428827E+07	 1.71489047E-01	-2.87501067E-01
5.13550907E+07	 1.71427563E-01	-2.87540690E-01
5.13672988E+07	 1.71361940E-01	-2.87589196E-01
5.13795068E+07	 1.71288981E-01	-2.87630656E-01
5.13917148E+07	 1.71211750E-01	-2.87666106E-01
5.14039228E+07	 1.71150906E-01	-2.87711765E-01
5.14161309E+07	 1.71078148E-01	-2.87751959E-01
5.14283389E+07	 1.71014521E-01	-2.87803454E-01
5.14405469E+07	 1.70936486E-01	-2.87839332E-01
5.14527549E+07	 1.70873598E-01	-2.87886393E-01
5.14649630E+07	 1.70798343E-01	-2.87928615E-01
5.14771710E+07	 1.70725941E-01	-2.87964547E-01
5.14893790E+07	 1.70659982E-01	-2.88011198E-01
5.15015870E+07	 1.70585826E-01	-2.88054634E-01
5.15137951E+07	 1.70522856E-01	-2.88093521E-01
5.15260031E+07	 1.70447356E-01	-2.88141652E-01
5.15382111E+07	 1.70378600E-01	-2.88180771E-01
5.15504191E+07	 1.70309108E-01	-2.88221952E-01
5.15626272E+07	 1.70235282E-01	-2.88267149E-01
5.15748352E+07	 1.70166321E-01	-2.88311161E-01
5.15870432E+07	 1.70095344E-01	-2.88347147E-01
5.15992512E+07	 1.70021260E-01	-2.88391118E-01
5.16114593E+07	 1.69952522E-01	-2.88438799E-01
5.16236673E+07	 1.69889128E-01	-2.88473601E-01
5.16358753E+07	 1.69817121E-01	-2.88516807E-01
5.16480833E+07	 1.69741061E-01	-2.88558585E-01
5.16602914E+07	 1.69682255E-01	-2.88606860E-01
5.16724994E+07	 1.69611310E-01	-2.88640216E-01
5.16847074E+07	 1.69537791E-01	-2.88689657E-01
5.16969154E+07	 1.69465423E-01	-2.88726995E-01
5.17091235E+07	 1.69397846E-01	-2.88769914E-01
5.17213315E+07	 1.69324336E-01	-2.88818156E-01
5.17335395E+07	 1.69254063E-01	-2.88857004E-01
5.17457475E+07	 1.69185249E-01	-2.88898095E-01
5.17579556E+07	 1.69121153E-01	-2.88937871E-01
5.17701636E+07	 1.69050175E-01	-2.88976512E-01
5.17823716E+07	 1.68977446E-01	-2.89018434E-01
5.17945796E+07	 1.68905133E-01	-2.89069459E-01
5.18067877E+07	 1.68833650E-01	-2.89109601E-01
5.18189957E+07	 1.68760704E-01	-2.89149463E-01
5.18312037E+07	 1.68690568E-01	-2.89185281E-01
5.18434117E+07	 1.68621191E-01	-2.89233030E-01
5.18556198E+07	 1.68550067E-01	-2.89273258E-01
5.18678278E+07	 1.68481734E-01	-2.89321351E-01
5.18800358E+07	 1.68415518E-01	-2.89350584E-01
5.18922438E+07	 1.68336546E-01	-2.89399822E-01
5.19044519E+07	 1.68276909E-01	-2.89440070E-01
5.19166599E+07	 1.68202711E-01	-2.89485312E-01
5.19288679E+07	 1.68127199E-01	-2.89522305E-01
5.19410759E+07	 1.68061618E-01	-2.89565676E-01
5.19532840E+07	 1.67992609E-01	-2.89611139E-01
5.19654920E+07	 1.67923911E-01	-2.89648076E-01
5.19777000E+07	 1.67845550E-01	-2.89690859E-01
5.19899080E+07	 1.67778121E-01	-2.89733091E-01
5.20021161E+07	 1.67707264E-01	-2.89772211E-01
5.20143241E+07	 1.67636346E-01	-2.89820515E-01
5.20265321E+07	 1.67568285E-01	-2.89854677E-01
5.20387401E+07	 1.67491308E-01	-2.89899216E-01
5.20509482E+07	 1.67423786E-01	-2.89938208E-01
5.20631562E+07	 1.67345660E-01	-2.89982203E-01
5.20753642E+07	 1.67284252E-01	-2.90023455E-01
5.20875722E+07	 1.67201842E-01	-2.90066998E-01
5.20997803E+07	 1.67139304E-01	-2.90102668E-01
5.21119883E+07	 1.67066903E-01	-2.90143235E-01
5.21241963E+07	 1.66994109E-01	-2.90189157E-01
5.21364043E+07	 1.66925185E-01	-2.90223712E-01
5.21486124E+07	 1.66849822E-01	-2.90264655E-01
5.21608204E+07	 1.66783831E-01	-2.90312247E-01
5.21730284E+07	 1.66710864E-01	-2.90351085E-01
5.21852364E+07	 1.66643738E-01	-2.90395552E-01
5.21974445E+07	 1.66570620E-01	-2.90430723E-01
5.22096525E+07	 1.66504311E-01	-2.90480490E-01
5.22218605E+07	 1.66423324E-01	-2.90520445E-01
5.22340685E+07	 1.66356435E-01	-2.90547972E-01
5.22462766E+07	 1.66284384E-01	-2.90601243E-01
5.22584846E+07	 1.66213930E-01	-2.90637823E-01
5.22706926E+07	 1.66143287E-01	-2.90679604E-01
5.22829006E+07	 1.66070011E-01	-2.90716016E-01
5.22951087E+07	 1.66003207E-01	-2.90769907E-01
5.23073167E+07	 1.65925940E-01	-2.90806407E-01
5.23195247E+07	 1.65860454E-01	-2.90841645E-01
5.23317327E+07	 1.65790622E-01	-2.90886371E-01
5.23439408E+07	 1.65720004E-01	-2.90924877E-01
5.23561488E+07	 1.65641529E-01	-2.90964422E-01
5.23683568E+07	 1.65563318E-01	-2.91009477E-01
5.23805648E+07	 1.65500222E-01	-2.91044946E-01
5.23927728E+07	 1.65431871E-01	-2.91092089E-01
5.24049809E+07	 1.65359481E-01	-2.91134196E-01
5.24171889E+07	 1.65282197E-01	-2.91176384E-01
5.24293969E+07	 1.65216183E-01	-2.91215296E-01
5.24416049E+07	 1.65141892E-01	-2.91247397E-01
5.24538130E+07	 1.65078477E-01	-2.91299273E-01
5.24660210E+07	 1.65007157E-01	-2.91338848E-01
5.24782290E+07	 1.64928029E-01	-2.91374506E-01
5.24904370E+07	 1.64853248E-01	-2.91407044E-01
5.25026451E+07	 1.64788190E-01	-2.91458611E-01
5.25148531E+07	 1.64709914E-01	-2.91498506E-01
5.25270611E+07	 1.64645705E-01	-2.91539584E-01
5.25392691E+07	 1.64570706E-01	-2.91582702E-01
5.25514772E+07	 1.64498264E-01	-2.91622853E-01
5.25636852E+07	 1.64423713E-01	-2.91657806E-01
5.25758932E+07	 1.64355121E-01	-2.91708317E-01
5.25881012E+07	 1.64288246E-01	-2.91742614E-01
5.26003093E+07	 1.64216420E-01	-2.91785627E-01
5.26125173E+07	 1.64141325E-01	-2.91824508E-01
5.26247253E+07	 1.64072085E-01	-2.91865682E-01
5.26369333E+07	 1.63998525E-01	-2.91905555E-01
5.26491414E+07	 1.63927936E-01	-2.91949075E-01
5.26613494E+07	 1.63860349E-01	-2.91988059E-01
5.26735574E+07	 1.63789472E-01	-2.92027907E-01
5.26857654E+07	 1.63717350E-01	-2.92066878E-01
5.26979735E+07	 1.63647414E-01	-2.92103911E-01
5.27101815E+07	 1.63562649E-01	-2.92150843E-01
5.27223895E+07	 1.63495844E-01	-2.92189301E-01
5.27345975E+07	 1.63433986E-01	-2.92234644E-01
5.27468056E+07	 1.63357244E-01	-2.92269569E-01
5.27590136E+07	 1.63280688E-01	-2.92315013E-01
5.27712216E+07	 1.63214251E-01	-2.92343925E-01
5.27834296E+07	 1.63147241E-01	-2.92394430E-01
5.27956377E+07	 1.63068480E-01	-2.92430469E-01
5.28078457E+07	 1.62998071E-01	-2.92473509E-01
5.28200537E+07	 1.62929556E-01	-2.92505705E-01
5.28322617E+07	 1.62857034E-01	-2.92553708E-01
5.28444698E+07	 1.62785009E-01	-2.92594143E-01
5.28566778E+07	 1.62713073E-01	-2.92630221E-01
5.28688858E+07	 1.62637878E-01	-2.92669778E-01
5.28810938E+07	 1.62573685E-01	-2.92712396E-01
5.28933019E+07	 1.62497198E-01	-2.92754441E-01
5.29055099E+07	 1.62425542E-01	-2.92791614E-01
5.29177179E+07	 1.62346857E-01	-2.92832373E-01
5.29299259E+07	 1.62281662E-01	-2.92873594E-01
5.29421340E+07	 1.62207911E-01	-2.92917750E-01
5.29543420E+07	 1.62135170E-01	-2.92951380E-01
5.29665500E+07	 1.62067990E-01	-2.92993988E-01
5.29787580E+07	 1.61998281E-01	-2.93032108E-01
5.29909661E+07	 1.61920667E-01	-2.93073653E-01
5.30031741E+07	 1.61849991E-01	-2.93114717E-01
5.30153821E+07	 1.61784596E-01	-2.93156170E-01
5.30275901E+07	 1.61711622E-01	-2.93192433E-01
5.30397982E+07	 1.61634564E-01	-2.93234763E-01
5.30520062E+07	 1.61565185E-01	-2.93276979E-01
5.30642142E+07	 1.61496501E-01	-2.93308196E-01
5.30764222E+07	 1.61421582E-01	-2.93353482E-01
5.30886303E+07	 1.61350553E-01	-2.93393512E-01
5.31008383E+07	 1.61276685E-01	-2.93437567E-01
5.31130463E+07	 1.61211933E-01	-2.93471862E-01
5.31252543E+07	 1.61133834E-01	-2.93514248E-01
5.31374624E+07	 1.61073735E-01	-2.93556835E-01
5.31496704E+07	 1.60993557E-01	-2.93592503E-01
5.31618784E+07	 1.60924863E-01	-2.93633370E-01
5.31740864E+07	 1.60855856E-01	-2.93664672E-01
5.31862945E+07	 1.60782840E-01	-2.93711097E-01
5.31985025E+07	 1.60707802E-01	-2.93752422E-01
5.32107105E+07	 1.60639815E-01	-2.93794147E-01
5.32229185E+07	 1.60566086E-01	-2.93831332E-01
5.32351266E+07	 1.60495101E-01	-2.93870769E-01
5.32473346E+07	 1.60421643E-01	-2.93906846E-01
5.32595426E+07	 1.60354132E-01	-2.93952210E-01
5.32717506E+07	 1.60283543E-01	-2.93992572E-01
5.32839587E+07	 1.60207023E-01	-2.94022632E-01
5.32961667E+07	 1.60129629E-01	-2.94064213E-01
5.33083747E+07	 1.60063049E-01	-2.94110049E-01
5.33205827E+07	 1.59993407E-01	-2.94144275E-01
5.33327908E+07	 1.59924291E-01	-2.94184529E-01
5.33449988E+07	 1.59854232E-01	-2.94229988E-01
5.33572068E+07	 1.59772851E-01	-2.94265084E-01
5.33694148E+07	 1.59706967E-01	-2.94307794E-01
5.33816229E+07	 1.59634506E-01	-2.94340689E-01
5.33938309E+07	 1.59568607E-01	-2.94386754E-01
5.34060389E+07	 1.59486411E-01	-2.94420739E-01
5.34182469E+07	 1.59418369E-01	-2.94462452E-01
5.34304550E+07	 1.59349677E-01	-2.94497662E-01
5.34426630E+07	 1.59279381E-01	-2.94537378E-01
5.34548710E+07	 1.59202160E-01	-2.94574633E-01
5.34670790E+07	 1.59133321E-01	-2.94614390E-01
5.34792871E+07	 1.59059852E-01	-2.94654603E-01
5.34914951E+07	 1.58988860E-01	-2.94697299E-01
5.35037031E+07	 1.58919791E-01	-2.94734955E-01
5.35159111E+07	 1.58846568E-01	-2.94774557E-01
5.35281192E+07	 1.58779565E-01	-2.94813527E-01
5.35403272E+07	 1.58699174E-01	-2.94857962E-01
5.35525352E+07	 1.58623774E-01	-2.94890590E-01
5.35647432E+07	 1.58561075E-01	-2.94934789E-01
5.35769512E+07	 1.58486040E-01	-2.94968942E-01
5.35891593E+07	 1.58416528E-01	-2.95008352E-01
5.36013673E+07	 1.58346816E-01	-2.95044021E-01
5.36135753E+07	 1.58271890E-01	-2.95086779E-01
5.36257833E+07	 1.58195718E-01	-2.95129402E-01
5.36379914E+07	 1.58130819E-01	-2.95168394E-01
5.36501994E+07	 1.58055929E-01	-2.95208647E-01
5.36624074E+07	 1.57981983E-01	-2.95240884E-01
5.36746154E+07	 1.57912626E-01	-2.95283592E-01
5.36868235E+07	 1.57838164E-01	-2.95316986E-01
5.36990315E+07	 1.57764870E-01	-2.95364576E-01
5.37112395E+07	 1.57708983E-01	-2.95399584E-01
5.37234475E+07	 1.57619704E-01	-2.95441364E-01
5.37356556E+07	 1.57548861E-01	-2.95473709E-01
5.37478636E+07	 1.57476176E-01	-2.95517762E-01
5.37600716E+07	 1.57411834E-01	-2.95552672E-01
5.37722796E+07	 1.57339387E-01	-2.95599185E-01
5.37844877E+07	 1.57264373E-01	-2.95634127E-01
5.37966957E+07	 1.57188179E-01	-2.95669805E-01
5.38089037E+07	 1.57124193E-01	-2.95709839E-01
5.38211117E+07	 1.57046357E-01	-2.95750370E-01
5.38333198E+07	 1.56974742E-01	-2.95788851E-01
5.38455278E+07	 1.56902430E-01	-2.95827197E-01
5.38577358E+07	 1.56833425E-01	-2.95866082E-01
5.38699438E+07	 1.56765044E-01	-2.95898711E-01
5.38821519E+07	 1.56688898E-01	-2.95944104E-01
5.38943599E+07	 1.56611511E-01	-2.95980233E-01
5.39065679E+07	 1.56550609E-01	-2.96010915E-01
5.39187759E+07	 1.56472817E-01	-2.96057981E-01
5.39309840E+07	 1.56400580E-01	-2.96101635E-01
5.39431920E+07	 1.56327206E-01	-2.96137919E-01
5.39554000E+07	 1.56255890E-01	-2.96179585E-01
5.39676080E+07	 1.56182188E-01	-2.96213631E-01
5.39798161E+07	 1.56109981E-01	-2.96242332E-01
5.39920241E+07	 1.56037285E-01	-2.96295802E-01
5.40042321E+07	 1.55970034E-01	-2.96330058E-01
5.40164401E+07	 1.55893546E-01	-2.96366350E-01
5.40286482E+07	 1.55816920E-01	-2.96413154E-01
5.40408562E+07	 1.55744697E-01	-2.96446065E-01
5.40530642E+07	 1.55672365E-01	-2.96480146E-01
5.40652722E+07	 1.55597388E-01	-2.96526192E-01
5.40774803E+07	 1.55529321E-01	-2.96558342E-01
5.40896883E+07	 1.55456370E-01	-2.96601652E-01
5.41018963E+07	 1.55385422E-01	-2.96631362E-01
5.41141043E+07	 1.55308621E-01	-2.96680636E-01
5.41263124E+07	 1.55237420E-01	-2.96717314E-01
5.41385204E+07	 1.55167628E-01	-2.96757461E-01
5.41507284E+07	 1.55099710E-01	-2.96789945E-01
5.41629364E+07	 1.55023634E-01	-2.96833093E-01
5.41751445E+07	 1.54943165E-01	-2.96868560E-01
5.41873525E+07	 1.54877310E-01	-2.96904519E-01
5.41995605E+07	 1.54802729E-01	-2.96944625E-01
5.42117685E+07	 1.54727074E-01	-2.96989072E-01
5.42239766E+07	 1.54658097E-01	-2.97021160E-01
5.42361846E+07	 1.54583105E-01	-2.97059709E-01
5.42483926E+07	 1.54510762E-01	-2.97108227E-01
5.42606006E+07	 1.54435430E-01	-2.97142165E-01
5.42728087E+07	 1.54365808E-01	-2.97177645E-01
5.42850167E+07	 1.54294625E-01	-2.97219260E-01
5.42972247E+07	 1.54215694E-01	-2.97259539E-01
5.43094327E+07	 1.54142773E-01	-2.97293254E-01
5.43216408E+07	 1.54073320E-01	-2.97328088E-01
5.43338488E+07	 1.54000432E-01	-2.97368182E-01
5.43460568E+07	 1.53926259E-01	-2.97410949E-01
5.43582648E+07	 1.53852637E-01	-2.97451202E-01
5.43704729E+07	 1.53783802E-01	-2.97491333E-01
5.43826809E+07	 1.53703457E-01	-2.97522754E-01
5.43948889E+07	 1.53631916E-01	-2.97557086E-01
5.44070969E+07	 1.53562779E-01	-2.97599970E-01
5.44193050E+07	 1.53488367E-01	-2.97632796E-01
5.44315130E+07	 1.53415302E-01	-2.97676403E-01
5.44437210E+07	 1.53342286E-01	-2.97717764E-01
5.44559290E+07	 1.53270918E-01	-2.97756688E-01
5.44681371E+07	 1.53190264E-01	-2.97790143E-01
5.44803451E+07	 1.53134808E-01	-2.97824054E-01
5.44925531E+07	 1.53048232E-01	-2.97860313E-01
5.45047611E+07	 1.52985022E-01	-2.97900547E-01
5.45169692E+07	 1.52901921E-01	-2.97937071E-01
5.45291772E+07	 1.52830203E-01	-2.97984443E-01
5.45413852E+07	 1.52752295E-01	-2.98022425E-01
5.45535932E+07	 1.52688719E-01	-2.98055449E-01
5.45658013E+07	 1.52608470E-01	-2.98097323E-01
5.45780093E+07	 1.52541187E-01	-2.98126066E-01
5.45902173E+07	 1.52471324E-01	-2.98171416E-01
5.46024253E+07	 1.52398517E-01	-2.98206222E-01
5.46146334E+07	 1.52319385E-01	-2.98248990E-01
5.46268414E+07	 1.52245438E-01	-2.98280362E-01
5.46390494E+07	 1.52167491E-01	-2.98328240E-01
5.46512574E+07	 1.52093558E-01	-2.98355133E-01
5.46634655E+07	 1.52021659E-01	-2.98396252E-01
5.46756735E+07	 1.51956306E-01	-2.98431266E-01
5.46878815E+07	 1.51876420E-01	-2.98470206E-01
5.47000895E+07	 1.51803744E-01	-2.98511716E-01
5.47122976E+07	 1.51727469E-01	-2.98548145E-01
5.47245056E+07	 1.51661208E-01	-2.98589429E-01
5.47367136E+07	 1.51589996E-01	-2.98620000E-01
5.47489216E+07	 1.51512881E-01	-2.98662140E-01
5.47611296E+07	 1.51437072E-01	-2.98701824E-01
5.47733377E+07	 1.51368708E-01	-2.98732586E-01
5.47855457E+07	 1.51301548E-01	-2.98775323E-01
5.47977537E+07	 1.51219644E-01	-2.98812121E-01
5.48099617E+07	 1.51149011E-01	-2.98848061E-01
5.48221698E+07	 1.51077310E-01	-2.98883620E-01
5.48343778E+07	 1.51003138E-01	-2.98923566E-01
5.48465858E+07	 1.50928829E-01	-2.98961375E-01
5.48587938E+07	 1.50851719E-01	-2.99005587E-01
5.48710019E+07	 1.50781146E-01	-2.99042338E-01
5.48832099E+07	 1.50707170E-01	-2.99074980E-01
5.48954179E+07	 1.50626477E-01	-2.99107747E-01
5.49076259E+07	 1.50558012E-01	-2.99152619E-01
5.49198340E+07	 1.50486281E-01	-2.99185936E-01
5.49320420E+07	 1.50410960E-01	-2.99228886E-01
5.49442500E+07	 1.50342527E-01	-2.99249546E-01
5.49564580E+07	 1.50261209E-01	-2.99297904E-01
5.49686661E+07	 1.50188594E-01	-2.99334277E-01
5.49808741E+07	 1.50117324E-01	-2.99378438E-01
5.49930821E+07	 1.50047686E-01	-2.99415952E-01
5.50052901E+07	 1.49970227E-01	-2.99453238E-01
5.50174982E+07	 1.49899128E-01	-2.99490237E-01
5.50297062E+07	 1.49821944E-01	-2.99525586E-01
5.50419142E+07	 1.49754104E-01	-2.99566005E-01
5.50541222E+07	 1.49675825E-01	-2.99595771E-01
5.50663303E+07	 1.49605569E-01	-2.99642412E-01
5.50785383E+07	 1.49539072E-01	-2.99671556E-01
5.50907463E+07	 1.49465670E-01	-2.99711734E-01
5.51029543E+07	 1.49389595E-01	-2.99749323E-01
5.51151624E+07	 1.49314198E-01	-2.99788445E-01
5.51273704E+07	 1.49243349E-01	-2.99829567E-01
