!Keysight Technologies,N5242A,MY53222371,A.10.65.16
!Date: Tuesday, August 01, 2023 16:54:38
!Correction: S22(Full 1 Port(2)) 
!S1P File: Measurement: S22:
# Hz S  dB   R 50
10000000 -16.082687 -0.78864998
10153125 -16.152523 -1.3794305
10306250 -16.100731 -1.1741
10459375 -16.144182 -1.2417192
10612500 -16.109827 -1.0682917
10765625 -16.086475 -1.2741506
10918750 -16.07592 -1.3485612
11071875 -16.091967 -1.4518465
11225000 -16.129597 -1.0752395
11378125 -16.107237 -1.2374151
11531250 -16.101652 -1.3620774
11684375 -16.085918 -1.1791306
11837500 -16.100653 -1.5343287
11990625 -16.080168 -1.2886659
12143750 -16.108379 -1.4923912
12296875 -16.146935 -1.3848946
12450000 -16.067434 -1.4944905
12603125 -16.101753 -1.4476618
12756250 -16.102213 -1.6220765
12909375 -16.1091 -1.4053334
13062500 -16.129269 -1.5847913
13215625 -16.114 -1.42111
13368750 -16.07795 -1.538687
13521875 -16.130041 -1.7559332
13675000 -16.139534 -1.4762414
13828125 -16.13904 -1.7068837
13981250 -16.10194 -1.5733613
14134375 -16.159197 -1.8196597
14287500 -16.095396 -1.7242373
14440625 -16.094559 -1.7322607
14593750 -16.121742 -1.5172642
14746875 -16.100025 -1.7923298
14900000 -16.110477 -1.7393389
15053125 -16.074585 -1.9010344
15206250 -16.097036 -1.9976052
15359375 -16.100479 -1.7770661
15512500 -16.062113 -1.6452732
15665625 -16.067904 -1.8220298
15818750 -16.099424 -1.9278474
15971875 -16.098871 -1.9340872
16125000 -16.091381 -2.0575318
16278125 -16.076227 -1.9356459
16431250 -16.099215 -2.1440821
16584375 -16.136795 -2.0425973
16737500 -16.083122 -2.0585625
16890625 -16.09894 -2.1449764
17043750 -16.072073 -2.0712538
17196875 -16.11302 -2.1146641
17350000 -16.107817 -2.0225918
17503125 -16.099127 -2.127974
17656250 -16.098749 -2.2107394
17809375 -16.090775 -2.1713197
17962500 -16.081139 -2.2947366
18115625 -16.097378 -2.2741795
18268750 -16.079617 -2.0710073
18421875 -16.100592 -2.3613536
18575000 -16.07704 -2.3693337
18728125 -16.086254 -2.3883319
18881250 -16.092127 -2.2537184
19034375 -16.086079 -2.2660165
19187500 -16.085564 -2.4341123
19340625 -16.081526 -2.2849665
19493750 -16.078793 -2.2589438
19646875 -16.101921 -2.2978339
19800000 -16.064795 -2.4371531
19953125 -16.084297 -2.5055246
20106250 -16.091511 -2.4120233
20259375 -16.106085 -2.5244033
20412500 -16.084169 -2.5301147
20565625 -16.097183 -2.5147324
20718750 -16.070709 -2.5438948
20871875 -16.095921 -2.4481728
21025000 -16.069223 -2.5023413
21178125 -16.092569 -2.5313525
21331250 -16.090151 -2.610611
21484375 -16.064756 -2.664207
21637500 -16.085548 -2.50366
21790625 -16.096451 -2.5751853
21943750 -16.100321 -2.7446606
22096875 -16.081024 -2.7845764
22250000 -16.089437 -2.7538671
22403125 -16.092131 -2.5400167
22556250 -16.102419 -2.632875
22709375 -16.093796 -2.7937579
22862500 -16.08013 -2.7085757
23015625 -16.099863 -2.8446186
23168750 -16.108242 -2.7889702
23321875 -16.096729 -2.7804859
23475000 -16.114138 -3.1044571
23628125 -16.087666 -2.864188
23781250 -16.078072 -3.0371346
23934375 -16.094284 -2.7375305
24087500 -16.083652 -2.9051819
24240625 -16.08584 -2.9949498
24393750 -16.081787 -2.8659463
24546875 -16.103041 -2.9645886
24700000 -16.092533 -2.9641745
24853125 -16.087399 -2.9726679
25006250 -16.089937 -2.940788
25159375 -16.083601 -2.9987438
25312500 -16.085512 -3.03019
25465625 -16.095436 -3.0978577
25618750 -16.089668 -3.0197217
25771875 -16.073526 -3.0325198
25925000 -16.084183 -3.2151344
26078125 -16.087868 -3.1047423
26231250 -16.096191 -3.2733552
26384375 -16.100191 -3.2156074
26537500 -16.111637 -3.2746198
26690625 -16.102007 -3.2326198
26843750 -16.057806 -3.2468479
26996875 -16.080587 -3.3859544
27150000 -16.08971 -3.378145
27303125 -16.088377 -3.3929846
27456250 -16.081646 -3.3001001
27609375 -16.09424 -3.3780441
27762500 -16.089764 -3.386935
27915625 -16.084021 -3.3685746
28068750 -16.082624 -3.4347258
28221875 -16.084679 -3.4506226
28375000 -16.098188 -3.5454392
28528125 -16.074499 -3.5371125
28681250 -16.088108 -3.6341853
28834375 -16.093838 -3.6275985
28987500 -16.075254 -3.609679
29140625 -16.091433 -3.5920866
29293750 -16.09111 -3.6684148
29446875 -16.082088 -3.6319997
29600000 -16.084438 -3.5550702
29753125 -16.084768 -3.7506037
29906250 -16.078897 -3.6908131
30059375 -16.096123 -3.8496952
30212500 -16.0837 -3.6815796
30365625 -16.097628 -3.7642593
30518750 -16.081373 -3.8662994
30671875 -16.087397 -3.7994564
30825000 -16.079571 -3.9051838
30978125 -16.084463 -3.8389809
31131250 -16.088923 -3.8393519
31284375 -16.073778 -3.9241338
31437500 -16.08176 -3.9672031
31590625 -16.076725 -3.9820392
31743750 -16.071938 -4.0090637
31896875 -16.089535 -3.9957402
32050000 -16.094513 -4.003015
32203125 -16.092867 -4.1096158
32356250 -16.083738 -3.9723885
32509375 -16.086494 -4.1051426
32662500 -16.083502 -4.1202612
32815625 -16.07596 -4.0143242
32968750 -16.075294 -4.1008325
33121875 -16.081331 -4.147563
33275000 -16.085257 -4.1355586
33428125 -16.093437 -4.1752481
33581250 -16.074251 -4.3184152
33734375 -16.091461 -4.2358236
33887500 -16.082005 -4.2302403
34040625 -16.072426 -4.2935662
34193750 -16.073513 -4.2578516
34346875 -16.082237 -4.3465943
34500000 -16.085878 -4.388
34653125 -16.078884 -4.2950354
34806250 -16.101944 -4.3676839
34959375 -16.087229 -4.4386435
35112500 -16.08176 -4.3320098
35265625 -16.088387 -4.4743228
35418750 -16.086086 -4.5425506
35571875 -16.06658 -4.4769773
35725000 -16.081249 -4.5374756
35878125 -16.081741 -4.4735837
36031250 -16.091154 -4.5180645
36184375 -16.0805 -4.4660378
36337500 -16.083227 -4.5595026
36490625 -16.084511 -4.5897918
36643750 -16.07851 -4.5397854
36796875 -16.085398 -4.5902014
36950000 -16.072531 -4.6780105
37103125 -16.067371 -4.6518645
37256250 -16.076132 -4.6749969
37409375 -16.077377 -4.6953306
37562500 -16.079096 -4.7366719
37715625 -16.072336 -4.8332629
37868750 -16.072424 -4.7705331
38021875 -16.092089 -4.776711
38175000 -16.079363 -4.7728472
38328125 -16.082455 -4.9262881
38481250 -16.074627 -4.7472572
38634375 -16.080627 -4.9137683
38787500 -16.081699 -4.9386334
38940625 -16.075001 -4.9506679
39093750 -16.074724 -4.9328556
39246875 -16.08593 -4.8919396
39400000 -16.068146 -4.9138036
39553125 -16.072628 -4.9844909
39706250 -16.06942 -4.9670248
39859375 -16.072779 -4.984303
40012500 -16.077116 -5.0452232
40165625 -16.084078 -5.1105766
40318750 -16.066757 -5.1320763
40471875 -16.080889 -5.1096377
40625000 -16.086679 -5.1453738
40778125 -16.083738 -5.1580706
40931250 -16.073444 -5.0811157
41084375 -16.079557 -5.1664834
41237500 -16.076183 -5.1923881
41390625 -16.086533 -5.2550907
41543750 -16.073885 -5.2409568
41696875 -16.074257 -5.3187284
41850000 -16.073124 -5.3014283
42003125 -16.07164 -5.3443656
42156250 -16.082245 -5.3410358
42309375 -16.07629 -5.3682175
42462500 -16.065554 -5.3639412
42615625 -16.076696 -5.3285584
42768750 -16.067581 -5.4007754
42921875 -16.076036 -5.4224792
43075000 -16.071686 -5.4527879
43228125 -16.050238 -5.5012498
43381250 -16.075686 -5.5467925
43534375 -16.066256 -5.5451026
43687500 -16.076101 -5.5506792
43840625 -16.070856 -5.5158672
43993750 -16.066772 -5.5851502
44146875 -16.071318 -5.5995121
44300000 -16.069252 -5.5999064
44453125 -16.069262 -5.6824026
44606250 -16.067032 -5.6066432
44759375 -16.071348 -5.7165661
44912500 -16.060232 -5.6246209
45065625 -16.065945 -5.6600361
45218750 -16.070009 -5.7212853
45371875 -16.059328 -5.7317939
45525000 -16.059258 -5.7837477
45678125 -16.063385 -5.8053932
45831250 -16.072416 -5.8119903
45984375 -16.05998 -5.8647466
46137500 -16.066977 -5.8292422
46290625 -16.072519 -5.9192681
46443750 -16.059246 -5.9167771
46596875 -16.066502 -5.9519868
46750000 -16.070951 -5.9353724
46903125 -16.062435 -5.9649258
47056250 -16.061804 -6.0121012
47209375 -16.044525 -5.9889412
47362500 -16.048811 -6.0211158
47515625 -16.069988 -6.0523248
47668750 -16.061296 -6.084301
47821875 -16.060938 -6.0165677
47975000 -16.068497 -6.1456137
48128125 -16.058935 -6.1486707
48281250 -16.055822 -6.1908088
48434375 -16.066471 -6.1412559
48587500 -16.06068 -6.136138
48740625 -16.066618 -6.2652593
48893750 -16.061642 -6.2616711
49046875 -16.058449 -6.2628374
49200000 -16.063787 -6.298203
49353125 -16.056765 -6.2339511
49506250 -16.057579 -6.2862267
49659375 -16.059938 -6.2580886
49812500 -16.05308 -6.4018426
49965625 -16.056004 -6.3002272
50118750 -16.050814 -6.3968592
50271875 -16.054436 -6.440042
50425000 -16.051798 -6.4038243
50578125 -16.057827 -6.455904
50731250 -16.0569 -6.440124
50884375 -16.056829 -6.4531827
51037500 -16.049471 -6.4922223
51190625 -16.052433 -6.5544672
51343750 -16.059925 -6.5700817
51496875 -16.055077 -6.6275272
51650000 -16.046808 -6.5625343
51803125 -16.051514 -6.5835438
51956250 -16.062243 -6.7042007
52109375 -16.056808 -6.6736655
52262500 -16.059231 -6.6704645
52415625 -16.055161 -6.7278647
52568750 -16.054836 -6.7246327
52721875 -16.057375 -6.6751857
52875000 -16.059931 -6.7263823
53028125 -16.051188 -6.7641559
53181250 -16.055872 -6.8501563
53334375 -16.039099 -6.8608456
53487500 -16.050358 -6.7936959
53640625 -16.047258 -6.8446383
53793750 -16.052713 -6.9048619
53946875 -16.058929 -7.0150023
54100000 -16.052713 -6.9108181
54253125 -16.058487 -6.881772
54406250 -16.045679 -6.9740124
54559375 -16.046453 -6.9857588
54712500 -16.057476 -6.999568
54865625 -16.058453 -7.0640707
55018750 -16.046543 -7.0029531
55171875 -16.038912 -7.0602608
55325000 -16.050695 -7.1061149
55478125 -16.047464 -7.1434283
55631250 -16.048166 -7.1606665
55784375 -16.04804 -7.1778483
55937500 -16.049164 -7.1893206
56090625 -16.05094 -7.1608152
56243750 -16.058071 -7.1714487
56396875 -16.051306 -7.1680303
56550000 -16.048916 -7.2416563
56703125 -16.044432 -7.360405
56856250 -16.050097 -7.280787
57009375 -16.043537 -7.2834783
57162500 -16.052118 -7.3168144
57315625 -16.041422 -7.3552814
57468750 -16.048769 -7.3632207
57621875 -16.05118 -7.4060569
57775000 -16.045563 -7.476769
57928125 -16.050385 -7.4718719
58081250 -16.048576 -7.5044065
58234375 -16.052958 -7.480062
58387500 -16.037409 -7.5018616
58540625 -16.047514 -7.4762244
58693750 -16.052647 -7.5369353
58846875 -16.054054 -7.5234656
59000000 -16.059919 -7.5535278
59153125 -16.060099 -7.6485338
59306250 -16.051414 -7.6091843
59459375 -16.050379 -7.5596571
59612500 -16.058681 -7.6547103
59765625 -16.05472 -7.6555333
59918750 -16.049084 -7.7304277
60071875 -16.047098 -7.7002792
60225000 -16.04915 -7.752521
60378125 -16.047861 -7.7573466
60531250 -16.045952 -7.7786846
60684375 -16.047026 -7.7687325
60837500 -16.049171 -7.8008599
60990625 -16.044317 -7.8413272
61143750 -16.054079 -7.9303322
61296875 -16.046013 -7.9462023
61450000 -16.046141 -7.8462663
61603125 -16.044584 -7.9363484
61756250 -16.036379 -7.9963894
61909375 -16.03903 -7.9409957
62062500 -16.050186 -7.8864789
62215625 -16.042816 -8.0414906
62368750 -16.054335 -8.0252981
62521875 -16.051311 -8.0557833
62675000 -16.047894 -8.0272255
62828125 -16.05365 -8.1056509
62981250 -16.047422 -8.0713148
63134375 -16.056032 -8.1652384
63287500 -16.049366 -8.1441269
63440625 -16.048656 -8.1801214
63593750 -16.041534 -8.179883
63746875 -16.052214 -8.1631041
63900000 -16.051294 -8.2341871
64053125 -16.045313 -8.2183514
64206250 -16.03894 -8.2879534
64359375 -16.041494 -8.2380753
64512500 -16.044157 -8.2664957
64665625 -16.040949 -8.309144
64818750 -16.041553 -8.3392105
64971875 -16.044718 -8.3187628
65125000 -16.052788 -8.3467598
65278125 -16.052906 -8.5078306
65431250 -16.037212 -8.4731312
65584375 -16.055544 -8.3532648
65737500 -16.037676 -8.5274267
65890625 -16.050962 -8.4494095
66043750 -16.044916 -8.4706392
66196875 -16.046114 -8.4834833
66350000 -16.040056 -8.5164557
66503125 -16.051315 -8.5787582
66656250 -16.043186 -8.5475883
66809375 -16.056131 -8.5846519
66962500 -16.047394 -8.652173
67115625 -16.042919 -8.6376295
67268750 -16.040951 -8.6122694
67421875 -16.039877 -8.6834164
67575000 -16.046854 -8.7001009
67728125 -16.049654 -8.7006102
67881250 -16.052181 -8.7183218
68034375 -16.046062 -8.7514067
68187500 -16.041986 -8.8036957
68340625 -16.047594 -8.7735987
68493750 -16.04755 -8.7451477
68646875 -16.040243 -8.8336172
68800000 -16.041079 -8.7768564
68953125 -16.046553 -8.8397436
69106250 -16.041174 -8.8387079
69259375 -16.04353 -8.9039726
69412500 -16.042871 -9.0034561
69565625 -16.045248 -8.9459858
69718750 -16.0415 -8.9738283
69871875 -16.03669 -8.9672794
70025000 -16.041948 -9.0035419
70178125 -16.048903 -9.0179615
70331250 -16.048447 -9.0703087
70484375 -16.046684 -9.0157585
70637500 -16.043098 -9.018651
70790625 -16.05267 -9.0795231
70943750 -16.042017 -9.1417112
71096875 -16.043295 -9.1785707
71250000 -16.041645 -9.1928444
71403125 -16.03516 -9.1748724
71556250 -16.055925 -9.1914263
71709375 -16.042479 -9.2433624
71862500 -16.044685 -9.2240772
72015625 -16.056942 -9.2163754
72168750 -16.047371 -9.2616463
72321875 -16.05093 -9.292695
72475000 -16.044325 -9.2499151
72628125 -16.044792 -9.3415775
72781250 -16.042942 -9.416132
72934375 -16.043695 -9.3804684
73087500 -16.046391 -9.4155569
73240625 -16.043793 -9.4160414
73393750 -16.043823 -9.4679623
73546875 -16.038076 -9.4120264
73700000 -16.039906 -9.4342108
73853125 -16.045918 -9.4540825
74006250 -16.034897 -9.4966345
74159375 -16.036789 -9.5275936
74312500 -16.047091 -9.6009941
74465625 -16.048088 -9.5430803
74618750 -16.034756 -9.6200027
74771875 -16.044611 -9.6289988
74925000 -16.038073 -9.6346159
75078125 -16.044462 -9.6722908
75231250 -16.042257 -9.6269436
75384375 -16.049187 -9.7138796
75537500 -16.032993 -9.6749172
75690625 -16.034414 -9.7374554
75843750 -16.038639 -9.77458
75996875 -16.038334 -9.7962523
76150000 -16.035505 -9.777092
76303125 -16.043282 -9.8486786
76456250 -16.044138 -9.8257942
76609375 -16.044935 -9.8779488
76762500 -16.044775 -9.925148
76915625 -16.034626 -9.9025211
77068750 -16.041595 -9.9286108
77221875 -16.042404 -9.9471922
77375000 -16.043228 -9.9290266
77528125 -16.034071 -10.000842
77681250 -16.035543 -9.9818268
77834375 -16.042742 -10.005685
77987500 -16.038118 -10.004497
78140625 -16.04443 -10.033426
78293750 -16.030327 -10.094547
78446875 -16.037374 -10.140289
78600000 -16.035833 -10.119934
78753125 -16.035866 -10.164837
78906250 -16.042536 -10.124514
79059375 -16.039505 -10.192995
79212500 -16.033987 -10.229275
79365625 -16.038298 -10.213949
79518750 -16.043711 -10.244569
79671875 -16.039425 -10.28151
79825000 -16.038696 -10.310462
79978125 -16.037363 -10.295691
80131250 -16.051468 -10.308593
80284375 -16.031982 -10.346523
80437500 -16.041998 -10.380781
80590625 -16.039064 -10.384881
80743750 -16.036366 -10.36345
80896875 -16.037758 -10.471692
81050000 -16.039539 -10.468228
81203125 -16.035376 -10.459175
81356250 -16.039207 -10.494923
81509375 -16.035946 -10.520034
81662500 -16.032972 -10.543377
81815625 -16.037819 -10.528982
81968750 -16.040115 -10.566094
82121875 -16.043837 -10.590281
82275000 -16.034197 -10.630592
82428125 -16.030502 -10.67724
82581250 -16.034847 -10.654822
82734375 -16.037266 -10.633067
82887500 -16.039375 -10.70093
83040625 -16.043491 -10.77452
83193750 -16.03747 -10.749981
83346875 -16.032854 -10.732626
83500000 -16.045033 -10.753284
83653125 -16.038286 -10.778038
83806250 -16.041342 -10.794866
83959375 -16.038759 -10.831456
84112500 -16.037022 -10.861206
84265625 -16.040224 -10.85991
84418750 -16.031841 -10.891589
84571875 -16.035574 -10.908773
84725000 -16.033445 -10.948395
84878125 -16.04285 -10.98648
85031250 -16.040245 -11.000266
85184375 -16.03635 -11.025996
85337500 -16.035774 -10.993836
85490625 -16.034048 -11.032172
85643750 -16.038202 -11.051019
85796875 -16.034222 -11.064139
85950000 -16.042664 -11.088801
86103125 -16.030397 -11.157999
86256250 -16.040329 -11.076738
86409375 -16.035872 -11.204663
86562500 -16.037594 -11.178969
86715625 -16.037695 -11.216949
86868750 -16.035341 -11.281363
87021875 -16.035372 -11.243431
87175000 -16.039392 -11.217747
87328125 -16.037151 -11.350844
87481250 -16.030184 -11.317126
87634375 -16.033682 -11.366343
87787500 -16.036745 -11.350009
87940625 -16.03754 -11.308428
88093750 -16.038761 -11.367703
88246875 -16.044563 -11.455763
88400000 -16.043531 -11.497358
88553125 -16.044367 -11.463243
88706250 -16.033703 -11.454965
88859375 -16.037025 -11.508138
89012500 -16.032343 -11.488462
89165625 -16.026806 -11.577042
89318750 -16.03828 -11.50808
89471875 -16.02931 -11.587617
89625000 -16.036236 -11.598419
89778125 -16.040611 -11.602684
89931250 -16.035307 -11.645761
90084375 -16.036743 -11.672176
90237500 -16.037956 -11.674222
90390625 -16.031166 -11.659831
90543750 -16.039928 -11.714527
90696875 -16.041164 -11.754206
90850000 -16.035484 -11.748856
91003125 -16.038208 -11.74606
91156250 -16.043102 -11.773122
91309375 -16.029762 -11.80739
91462500 -16.034416 -11.835404
91615625 -16.039331 -11.888085
91768750 -16.043009 -11.846425
91921875 -16.040581 -11.900376
92075000 -16.03587 -11.912605
92228125 -16.036121 -11.928476
92381250 -16.039873 -11.958438
92534375 -16.03196 -11.998953
92687500 -16.031061 -12.025582
92840625 -16.034592 -12.007932
92993750 -16.034861 -12.051948
93146875 -16.036226 -12.092115
93300000 -16.030144 -12.092573
93453125 -16.034603 -12.120867
93606250 -16.036211 -12.152853
93759375 -16.033623 -12.175356
93912500 -16.039909 -12.131098
94065625 -16.031858 -12.164068
94218750 -16.03747 -12.184646
94371875 -16.031244 -12.221493
94525000 -16.038494 -12.267917
94678125 -16.028721 -12.29586
94831250 -16.030708 -12.28111
94984375 -16.030066 -12.319123
95137500 -16.032051 -12.344006
95290625 -16.031973 -12.282749
95443750 -16.036209 -12.385737
95596875 -16.032761 -12.407564
95750000 -16.029434 -12.408709
95903125 -16.038382 -12.443335
96056250 -16.039116 -12.431513
96209375 -16.034201 -12.434916
96362500 -16.030519 -12.435407
96515625 -16.035915 -12.528181
96668750 -16.030514 -12.502875
96821875 -16.032352 -12.548836
96975000 -16.022465 -12.577743
97128125 -16.028011 -12.56407
97281250 -16.02597 -12.585228
97434375 -16.024435 -12.663151
97587500 -16.030128 -12.624948
97740625 -16.030931 -12.670173
97893750 -16.025724 -12.666297
98046875 -16.025503 -12.717689
98200000 -16.035189 -12.732897
98353125 -16.022104 -12.792282
98506250 -16.024675 -12.726602
98659375 -16.029303 -12.777263
98812500 -16.030212 -12.795012
98965625 -16.034044 -12.837462
99118750 -16.031071 -12.84897
99271875 -16.031982 -12.872769
99425000 -16.024534 -12.882668
99578125 -16.02949 -12.92189
99731250 -16.031458 -12.963586
99884375 -16.022448 -12.969272
100037500 -16.027161 -13.014105
100190625 -16.028778 -13.037518
100343750 -16.029533 -12.962633
100496875 -16.036592 -13.035957
100650000 -16.027712 -13.082502
100803125 -16.028896 -13.091511
100956250 -16.025537 -13.103461
101109375 -16.023975 -13.109207
101262500 -16.028551 -13.160645
101415625 -16.029924 -13.148396
101568750 -16.023726 -13.129495
101721875 -16.029066 -13.233274
101875000 -16.02906 -13.2187
102028125 -16.020252 -13.262708
102181250 -16.033121 -13.266858
102334375 -16.02743 -13.309499
102487500 -16.025866 -13.317914
102640625 -16.027199 -13.332727
102793750 -16.027126 -13.382749
102946875 -16.030361 -13.36473
103100000 -16.027603 -13.381789
103253125 -16.026335 -13.348989
103406250 -16.030519 -13.445712
103559375 -16.028448 -13.447045
103712500 -16.032759 -13.460039
103865625 -16.024075 -13.47775
104018750 -16.024015 -13.518342
104171875 -16.027874 -13.542464
104325000 -16.02268 -13.562234
104478125 -16.023623 -13.525333
104631250 -16.028967 -13.617784
104784375 -16.025398 -13.615767
104937500 -16.026056 -13.612312
105090625 -16.028763 -13.654445
105243750 -16.022301 -13.704843
105396875 -16.023607 -13.68622
105550000 -16.023796 -13.673781
105703125 -16.025417 -13.739534
105856250 -16.02289 -13.720325
106009375 -16.017864 -13.758659
106162500 -16.02058 -13.811472
106315625 -16.015366 -13.846772
106468750 -16.022614 -13.835145
106621875 -16.021847 -13.832493
106775000 -16.011286 -13.864688
106928125 -16.013859 -13.918839
107081250 -16.023869 -13.936637
107234375 -16.02672 -13.88302
107387500 -16.023861 -13.965409
107540625 -16.015202 -13.995259
107693750 -16.028349 -13.998831
107846875 -16.024055 -13.978751
108000000 -16.018995 -14.022781
108153125 -16.024696 -14.00598
