! COPPER MOUNTAIN TECHNOLOGIES, PLANAR TR1300/1, 00071119, 20.2.2/1.0
! Date: 7/24/2023 9:16:28 AM
! Data: Format [Calibration Info]
! Freq          	S11: Re/Im F1                  
# HZ S RI R 50
5.00000000E+07	-5.65349644E-01	 5.50963407E-01
5.00122080E+07	-5.61314261E-01	 5.54979028E-01
5.00244160E+07	-5.57269770E-01	 5.58943280E-01
5.00366241E+07	-5.53194578E-01	 5.62879777E-01
5.00488321E+07	-5.49088916E-01	 5.66782416E-01
5.00610401E+07	-5.44974747E-01	 5.70674320E-01
5.00732481E+07	-5.40809640E-01	 5.74528105E-01
5.00854562E+07	-5.36625405E-01	 5.78364708E-01
5.00976642E+07	-5.32421111E-01	 5.82162104E-01
5.01098722E+07	-5.28158664E-01	 5.85916117E-01
5.01220802E+07	-5.23871592E-01	 5.89620087E-01
5.01342883E+07	-5.19619935E-01	 5.93361132E-01
5.01464963E+07	-5.15296484E-01	 5.97040756E-01
5.01587043E+07	-5.10961598E-01	 6.00689646E-01
5.01709123E+07	-5.06579501E-01	 6.04294055E-01
5.01831204E+07	-5.02201991E-01	 6.07885496E-01
5.01953284E+07	-4.97774930E-01	 6.11439873E-01
5.02075364E+07	-4.93288416E-01	 6.14924711E-01
5.02197444E+07	-4.88860818E-01	 6.18443358E-01
5.02319525E+07	-4.84364611E-01	 6.21903235E-01
5.02441605E+07	-4.79851856E-01	 6.25339811E-01
5.02563685E+07	-4.75303629E-01	 6.28731959E-01
5.02685765E+07	-4.70718761E-01	 6.32058787E-01
5.02807846E+07	-4.66138603E-01	 6.35430012E-01
5.02929926E+07	-4.61541623E-01	 6.38733835E-01
5.03052006E+07	-4.56902371E-01	 6.41988807E-01
5.03174086E+07	-4.52251645E-01	 6.45232997E-01
5.03296167E+07	-4.47555485E-01	 6.48434255E-01
5.03418247E+07	-4.42847343E-01	 6.51600817E-01
5.03540327E+07	-4.38131244E-01	 6.54735142E-01
5.03662407E+07	-4.33361501E-01	 6.57824853E-01
5.03784488E+07	-4.28600312E-01	 6.60893513E-01
5.03906568E+07	-4.23779680E-01	 6.63888582E-01
5.04028648E+07	-4.18989944E-01	 6.66927209E-01
5.04150728E+07	-4.14167092E-01	 6.69904144E-01
5.04272809E+07	-4.09307993E-01	 6.72828644E-01
5.04394889E+07	-4.04396456E-01	 6.75679819E-01
5.04516969E+07	-3.99533020E-01	 6.78596015E-01
5.04639049E+07	-3.94604491E-01	 6.81424963E-01
5.04761130E+07	-3.89665959E-01	 6.84216878E-01
5.04883210E+07	-3.84721467E-01	 6.86974193E-01
5.05005290E+07	-3.79740328E-01	 6.89699487E-01
5.05127370E+07	-3.74744889E-01	 6.92386498E-01
5.05249451E+07	-3.69723669E-01	 6.95055606E-01
5.05371531E+07	-3.64689298E-01	 6.97663993E-01
5.05493611E+07	-3.59643573E-01	 7.00247941E-01
5.05615691E+07	-3.54562649E-01	 7.02791797E-01
5.05737772E+07	-3.49476410E-01	 7.05293917E-01
5.05859852E+07	-3.44364841E-01	 7.07762762E-01
5.05981932E+07	-3.39243905E-01	 7.10220193E-01
5.06104012E+07	-3.34121377E-01	 7.12624522E-01
5.06226093E+07	-3.28950090E-01	 7.14979889E-01
5.06348173E+07	-3.23771977E-01	 7.17309792E-01
5.06470253E+07	-3.18586214E-01	 7.19614533E-01
5.06592333E+07	-3.13385129E-01	 7.21861807E-01
5.06714414E+07	-3.08155173E-01	 7.24084612E-01
5.06836494E+07	-3.02901933E-01	 7.26277057E-01
5.06958574E+07	-2.97664485E-01	 7.28414561E-01
5.07080654E+07	-2.92388315E-01	 7.30533310E-01
5.07202735E+07	-2.87111698E-01	 7.32603717E-01
5.07324815E+07	-2.81796981E-01	 7.34635165E-01
5.07446895E+07	-2.76483849E-01	 7.36640318E-01
5.07568975E+07	-2.71170461E-01	 7.38594085E-01
5.07691056E+07	-2.65830520E-01	 7.40510151E-01
5.07813136E+07	-2.60472436E-01	 7.42386864E-01
5.07935216E+07	-2.55099853E-01	 7.44234642E-01
5.08057296E+07	-2.49715262E-01	 7.46041912E-01
5.08179377E+07	-2.44326460E-01	 7.47819281E-01
5.08301457E+07	-2.38919384E-01	 7.49546294E-01
5.08423537E+07	-2.33505000E-01	 7.51246271E-01
5.08545617E+07	-2.28074922E-01	 7.52912545E-01
5.08667698E+07	-2.22637422E-01	 7.54523430E-01
5.08789778E+07	-2.17179597E-01	 7.56096159E-01
5.08911858E+07	-2.11718841E-01	 7.57649497E-01
5.09033938E+07	-2.06231226E-01	 7.59137297E-01
5.09156019E+07	-2.00728800E-01	 7.60619145E-01
5.09278099E+07	-1.95237292E-01	 7.62024355E-01
5.09400179E+07	-1.89738182E-01	 7.63418594E-01
5.09522259E+07	-1.84219006E-01	 7.64769920E-01
5.09644340E+07	-1.78698785E-01	 7.66081672E-01
5.09766420E+07	-1.73151861E-01	 7.67331448E-01
5.09888500E+07	-1.67607065E-01	 7.68571796E-01
5.10010580E+07	-1.62047491E-01	 7.69745851E-01
5.10132661E+07	-1.56498595E-01	 7.70898622E-01
5.10254741E+07	-1.50918887E-01	 7.72033586E-01
5.10376821E+07	-1.45349446E-01	 7.73096119E-01
5.10498901E+07	-1.39739182E-01	 7.74124680E-01
5.10620982E+07	-1.34175948E-01	 7.75117285E-01
5.10743062E+07	-1.28567170E-01	 7.76069668E-01
5.10865142E+07	-1.22961026E-01	 7.76988701E-01
5.10987222E+07	-1.17353468E-01	 7.77853923E-01
5.11109303E+07	-1.11726170E-01	 7.78679711E-01
5.11231383E+07	-1.06103348E-01	 7.79478257E-01
5.11353463E+07	-1.00477695E-01	 7.80222688E-01
5.11475543E+07	-9.48194268E-02	 7.80955607E-01
5.11597624E+07	-8.91905411E-02	 7.81623925E-01
5.11719704E+07	-8.35510368E-02	 7.82269956E-01
5.11841784E+07	-7.79024824E-02	 7.82852400E-01
5.11963864E+07	-7.22324301E-02	 7.83391218E-01
5.12085944E+07	-6.65735692E-02	 7.83927442E-01
5.12208025E+07	-6.09219503E-02	 7.84403724E-01
5.12330105E+07	-5.52606219E-02	 7.84841762E-01
5.12452185E+07	-4.95853511E-02	 7.85230088E-01
5.12574265E+07	-4.39107491E-02	 7.85597677E-01
5.12696346E+07	-3.82405121E-02	 7.85904410E-01
5.12818426E+07	-3.25615821E-02	 7.86164722E-01
5.12940506E+07	-2.68778267E-02	 7.86408251E-01
5.13062586E+07	-2.11939783E-02	 7.86589919E-01
5.13184667E+07	-1.55214748E-02	 7.86756648E-01
5.13306747E+07	-9.83394070E-03	 7.86869664E-01
5.13428827E+07	-4.15635746E-03	 7.86940801E-01
5.13550907E+07	 1.53365206E-03	 7.86965336E-01
5.13672988E+07	 7.21755620E-03	 7.86973821E-01
5.13795068E+07	 1.29025488E-02	 7.86900319E-01
5.13917148E+07	 1.85830016E-02	 7.86833265E-01
5.14039228E+07	 2.42683942E-02	 7.86695705E-01
5.14161309E+07	 2.99462433E-02	 7.86525526E-01
5.14283389E+07	 3.56278939E-02	 7.86329904E-01
5.14405469E+07	 4.13031460E-02	 7.86073462E-01
5.14527549E+07	 4.69817825E-02	 7.85788889E-01
5.14649630E+07	 5.26710148E-02	 7.85457686E-01
5.14771710E+07	 5.83305363E-02	 7.85074831E-01
5.14893790E+07	 6.40040442E-02	 7.84661324E-01
5.15015870E+07	 6.96747080E-02	 7.84217765E-01
5.15137951E+07	 7.53432747E-02	 7.83727074E-01
5.15260031E+07	 8.10081610E-02	 7.83202822E-01
5.15382111E+07	 8.66609812E-02	 7.82614251E-01
5.15504191E+07	 9.23144064E-02	 7.82022166E-01
5.15626272E+07	 9.79657081E-02	 7.81372647E-01
5.15748352E+07	 1.03617675E-01	 7.80688962E-01
5.15870432E+07	 1.09254774E-01	 7.79944623E-01
5.15992512E+07	 1.14882291E-01	 7.79172337E-01
5.16114593E+07	 1.20514269E-01	 7.78374013E-01
5.16236673E+07	 1.26141662E-01	 7.77508804E-01
5.16358753E+07	 1.31758570E-01	 7.76623980E-01
5.16480833E+07	 1.37368150E-01	 7.75692784E-01
5.16602914E+07	 1.42975223E-01	 7.74717998E-01
5.16724994E+07	 1.48572652E-01	 7.73700106E-01
5.16847074E+07	 1.54165621E-01	 7.72670579E-01
5.16969154E+07	 1.59749862E-01	 7.71570521E-01
5.17091235E+07	 1.65310917E-01	 7.70435349E-01
5.17213315E+07	 1.70876072E-01	 7.69272246E-01
5.17335395E+07	 1.76438267E-01	 7.68059959E-01
5.17457475E+07	 1.81978921E-01	 7.66812568E-01
5.17579556E+07	 1.87530354E-01	 7.65527475E-01
5.17701636E+07	 1.93060410E-01	 7.64207951E-01
5.17823716E+07	 1.98585494E-01	 7.62832038E-01
5.17945796E+07	 2.04096538E-01	 7.61432226E-01
5.18067877E+07	 2.09616485E-01	 7.59983191E-01
5.18189957E+07	 2.15107004E-01	 7.58511301E-01
5.18312037E+07	 2.20577678E-01	 7.56981896E-01
5.18434117E+07	 2.26065153E-01	 7.55406107E-01
5.18556198E+07	 2.31530107E-01	 7.53832898E-01
5.18678278E+07	 2.36963719E-01	 7.52171564E-01
5.18800358E+07	 2.42401579E-01	 7.50512925E-01
5.18922438E+07	 2.47829221E-01	 7.48795648E-01
5.19044519E+07	 2.53244587E-01	 7.47047475E-01
5.19166599E+07	 2.58642152E-01	 7.45250784E-01
5.19288679E+07	 2.64027452E-01	 7.43405393E-01
5.19410759E+07	 2.69401678E-01	 7.41556159E-01
5.19532840E+07	 2.74758991E-01	 7.39643587E-01
5.19654920E+07	 2.80109664E-01	 7.37680485E-01
5.19777000E+07	 2.85449215E-01	 7.35698877E-01
5.19899080E+07	 2.90777550E-01	 7.33688452E-01
5.20021161E+07	 2.96077490E-01	 7.31622790E-01
5.20143241E+07	 3.01375088E-01	 7.29526028E-01
5.20265321E+07	 3.06637035E-01	 7.27392027E-01
5.20387401E+07	 3.11901611E-01	 7.25222307E-01
5.20509482E+07	 3.17150281E-01	 7.23004597E-01
5.20631562E+07	 3.22374568E-01	 7.20775080E-01
5.20753642E+07	 3.27570957E-01	 7.18478616E-01
5.20875722E+07	 3.32800159E-01	 7.16183828E-01
5.20997803E+07	 3.37962093E-01	 7.13803231E-01
5.21119883E+07	 3.43133496E-01	 7.11422643E-01
5.21241963E+07	 3.48278272E-01	 7.09006104E-01
5.21364043E+07	 3.53415567E-01	 7.06512961E-01
5.21486124E+07	 3.58528439E-01	 7.04040417E-01
5.21608204E+07	 3.63612854E-01	 7.01475982E-01
5.21730284E+07	 3.68699608E-01	 6.98903665E-01
5.21852364E+07	 3.73752569E-01	 6.96281043E-01
5.21974445E+07	 3.78795587E-01	 6.93653615E-01
5.22096525E+07	 3.83803040E-01	 6.90965639E-01
5.22218605E+07	 3.88816308E-01	 6.88242713E-01
5.22340685E+07	 3.93781572E-01	 6.85483625E-01
5.22462766E+07	 3.98760918E-01	 6.82690521E-01
5.22584846E+07	 4.03708865E-01	 6.79875218E-01
5.22706926E+07	 4.08623708E-01	 6.77019141E-01
5.22829006E+07	 4.13514491E-01	 6.74115441E-01
5.22951087E+07	 4.18404597E-01	 6.71205024E-01
5.23073167E+07	 4.23266966E-01	 6.68208401E-01
5.23195247E+07	 4.28119378E-01	 6.65238748E-01
5.23317327E+07	 4.32919466E-01	 6.62192788E-01
5.23439408E+07	 4.37723814E-01	 6.59131475E-01
5.23561488E+07	 4.42497772E-01	 6.56011883E-01
5.23683568E+07	 4.47245980E-01	 6.52889992E-01
5.23805648E+07	 4.51970510E-01	 6.49714623E-01
5.23927728E+07	 4.56690164E-01	 6.46518849E-01
5.24049809E+07	 4.61377452E-01	 6.43267388E-01
5.24171889E+07	 4.66048608E-01	 6.40011313E-01
5.24293969E+07	 4.70680653E-01	 6.36703592E-01
5.24416049E+07	 4.75286093E-01	 6.33362432E-01
5.24538130E+07	 4.79902147E-01	 6.30002715E-01
5.24660210E+07	 4.84465060E-01	 6.26600254E-01
5.24782290E+07	 4.88998749E-01	 6.23165733E-01
5.24904370E+07	 4.93525882E-01	 6.19684848E-01
5.25026451E+07	 4.98011184E-01	 6.16200193E-01
5.25148531E+07	 5.02475918E-01	 6.12663175E-01
5.25270611E+07	 5.06918521E-01	 6.09106012E-01
5.25392691E+07	 5.11347181E-01	 6.05519245E-01
5.25514772E+07	 5.15735361E-01	 6.01880838E-01
5.25636852E+07	 5.20102944E-01	 5.98224348E-01
5.25758932E+07	 5.24449832E-01	 5.94538558E-01
5.25881012E+07	 5.28759887E-01	 5.90829283E-01
5.26003093E+07	 5.33047959E-01	 5.87074184E-01
5.26125173E+07	 5.37312563E-01	 5.83300273E-01
5.26247253E+07	 5.41539493E-01	 5.79488355E-01
5.26369333E+07	 5.45749815E-01	 5.75636999E-01
5.26491414E+07	 5.49937907E-01	 5.71777724E-01
5.26613494E+07	 5.54075690E-01	 5.67886704E-01
5.26735574E+07	 5.58219311E-01	 5.63948832E-01
5.26857654E+07	 5.62312810E-01	 5.59977631E-01
5.26979735E+07	 5.66382231E-01	 5.56025104E-01
5.27101815E+07	 5.70425236E-01	 5.51985304E-01
5.27223895E+07	 5.74442954E-01	 5.47952183E-01
5.27345975E+07	 5.78397188E-01	 5.43881564E-01
5.27468056E+07	 5.82358853E-01	 5.39774022E-01
5.27590136E+07	 5.86289786E-01	 5.35655343E-01
5.27712216E+07	 5.90182422E-01	 5.31483403E-01
5.27834296E+07	 5.94051545E-01	 5.27300142E-01
5.27956377E+07	 5.97881417E-01	 5.23089988E-01
5.28078457E+07	 6.01695121E-01	 5.18850643E-01
5.28200537E+07	 6.05477225E-01	 5.14596860E-01
5.28322617E+07	 6.09220331E-01	 5.10300958E-01
5.28444698E+07	 6.12924690E-01	 5.05973865E-01
5.28566778E+07	 6.16620486E-01	 5.01630786E-01
5.28688858E+07	 6.20261838E-01	 4.97243340E-01
5.28810938E+07	 6.23896250E-01	 4.92855305E-01
5.28933019E+07	 6.27487917E-01	 4.88431752E-01
5.29055099E+07	 6.31037485E-01	 4.83978307E-01
5.29177179E+07	 6.34564359E-01	 4.79491485E-01
5.29299259E+07	 6.38061059E-01	 4.75000630E-01
5.29421340E+07	 6.41537689E-01	 4.70489615E-01
5.29543420E+07	 6.44953811E-01	 4.65929790E-01
5.29665500E+07	 6.48361766E-01	 4.61358622E-01
5.29787580E+07	 6.51714116E-01	 4.56766225E-01
5.29909661E+07	 6.55037782E-01	 4.52128470E-01
5.30031741E+07	 6.58358103E-01	 4.47500838E-01
5.30153821E+07	 6.61606897E-01	 4.42822793E-01
5.30275901E+07	 6.64840143E-01	 4.38131830E-01
5.30397982E+07	 6.68050413E-01	 4.33413049E-01
5.30520062E+07	 6.71208739E-01	 4.28688283E-01
5.30642142E+07	 6.74338853E-01	 4.23921258E-01
5.30764222E+07	 6.77451099E-01	 4.19138886E-01
5.30886303E+07	 6.80506679E-01	 4.14327675E-01
5.31008383E+07	 6.83551681E-01	 4.09527017E-01
5.31130463E+07	 6.86524871E-01	 4.04662164E-01
5.31252543E+07	 6.89500405E-01	 3.99792218E-01
5.31374624E+07	 6.92431473E-01	 3.94901447E-01
5.31496704E+07	 6.95312631E-01	 3.89983848E-01
5.31618784E+07	 6.98169840E-01	 3.85068943E-01
5.31740864E+07	 7.00986617E-01	 3.80116842E-01
5.31862945E+07	 7.03778226E-01	 3.75133963E-01
5.31985025E+07	 7.06533182E-01	 3.70158914E-01
5.32107105E+07	 7.09238203E-01	 3.65135413E-01
5.32229185E+07	 7.11923946E-01	 3.60114383E-01
5.32351266E+07	 7.14563143E-01	 3.55061967E-01
5.32473346E+07	 7.17173421E-01	 3.50001347E-01
5.32595426E+07	 7.19736373E-01	 3.44914154E-01
5.32717506E+07	 7.22282415E-01	 3.39798701E-01
5.32839587E+07	 7.24770229E-01	 3.34676732E-01
5.32961667E+07	 7.27229702E-01	 3.29541906E-01
5.33083747E+07	 7.29652566E-01	 3.24392104E-01
5.33205827E+07	 7.32043718E-01	 3.19223931E-01
5.33327908E+07	 7.34400355E-01	 3.14037757E-01
5.33449988E+07	 7.36721816E-01	 3.08830886E-01
5.33572068E+07	 7.38989020E-01	 3.03603651E-01
5.33694148E+07	 7.41224543E-01	 2.98363136E-01
5.33816229E+07	 7.43432529E-01	 2.93103070E-01
5.33938309E+07	 7.45590987E-01	 2.87843316E-01
5.34060389E+07	 7.47712625E-01	 2.82543300E-01
5.34182469E+07	 7.49802906E-01	 2.77246348E-01
5.34304550E+07	 7.51845384E-01	 2.71937919E-01
5.34426630E+07	 7.53871845E-01	 2.66602823E-01
5.34548710E+07	 7.55835619E-01	 2.61267416E-01
5.34670790E+07	 7.57782633E-01	 2.55890343E-01
5.34792871E+07	 7.59676537E-01	 2.50542777E-01
5.34914951E+07	 7.61554047E-01	 2.45161821E-01
5.35037031E+07	 7.63352492E-01	 2.39753987E-01
5.35159111E+07	 7.65152582E-01	 2.34336050E-01
5.35281192E+07	 7.66872540E-01	 2.28931160E-01
5.35403272E+07	 7.68606220E-01	 2.23489984E-01
5.35525352E+07	 7.70282455E-01	 2.18046208E-01
5.35647432E+07	 7.71878041E-01	 2.12571667E-01
5.35769512E+07	 7.73497562E-01	 2.07107635E-01
5.35891593E+07	 7.75032343E-01	 2.01624563E-01
5.36013673E+07	 7.76558672E-01	 1.96114921E-01
5.36135753E+07	 7.78022802E-01	 1.90627759E-01
5.36257833E+07	 7.79448800E-01	 1.85102605E-01
5.36379914E+07	 7.80844488E-01	 1.79585762E-01
5.36501994E+07	 7.82207924E-01	 1.74070965E-01
5.36624074E+07	 7.83523572E-01	 1.68514830E-01
5.36746154E+07	 7.84804348E-01	 1.62970757E-01
5.36868235E+07	 7.86030183E-01	 1.57391760E-01
5.36990315E+07	 7.87233313E-01	 1.51838496E-01
5.37112395E+07	 7.88377018E-01	 1.46253480E-01
5.37234475E+07	 7.89514067E-01	 1.40683218E-01
5.37356556E+07	 7.90581204E-01	 1.35082024E-01
5.37478636E+07	 7.91603666E-01	 1.29490723E-01
5.37600716E+07	 7.92622380E-01	 1.23872421E-01
5.37722796E+07	 7.93572355E-01	 1.18251278E-01
5.37844877E+07	 7.94495874E-01	 1.12633578E-01
5.37966957E+07	 7.95363108E-01	 1.07005557E-01
5.38089037E+07	 7.96205559E-01	 1.01380104E-01
5.38211117E+07	 7.96994264E-01	 9.57356986E-02
5.38333198E+07	 7.97752132E-01	 9.00870651E-02
5.38455278E+07	 7.98471661E-01	 8.44389530E-02
5.38577358E+07	 7.99146961E-01	 7.87935440E-02
5.38699438E+07	 7.99791595E-01	 7.31298827E-02
5.38821519E+07	 8.00381096E-01	 6.74756356E-02
5.38943599E+07	 8.00918463E-01	 6.18054247E-02
5.39065679E+07	 8.01449823E-01	 5.61336279E-02
5.39187759E+07	 8.01927976E-01	 5.04508720E-02
5.39309840E+07	 8.02353062E-01	 4.47799411E-02
5.39431920E+07	 8.02745892E-01	 3.90942433E-02
5.39554000E+07	 8.03096400E-01	 3.34022586E-02
5.39676080E+07	 8.03416911E-01	 2.77292120E-02
5.39798161E+07	 8.03678977E-01	 2.20636922E-02
5.39920241E+07	 8.03903110E-01	 1.63468258E-02
5.40042321E+07	 8.04106336E-01	 1.06528896E-02
5.40164401E+07	 8.04270386E-01	 4.97604227E-03
5.40286482E+07	 8.04364495E-01	-7.20656464E-04
5.40408562E+07	 8.04436134E-01	-6.39504476E-03
5.40530642E+07	 8.04479700E-01	-1.21099330E-02
5.40652722E+07	 8.04469201E-01	-1.78033595E-02
5.40774803E+07	 8.04415971E-01	-2.34889502E-02
5.40896883E+07	 8.04314427E-01	-2.91833973E-02
5.41018963E+07	 8.04188885E-01	-3.48579766E-02
5.41141043E+07	 8.04010541E-01	-4.05567729E-02
5.41263124E+07	 8.03797006E-01	-4.62532409E-02
5.41385204E+07	 8.03548959E-01	-5.19256623E-02
5.41507284E+07	 8.03246849E-01	-5.76226060E-02
5.41629364E+07	 8.02907491E-01	-6.33032317E-02
5.41751445E+07	 8.02534938E-01	-6.89893883E-02
5.41873525E+07	 8.02124031E-01	-7.46550656E-02
5.41995605E+07	 8.01665057E-01	-8.03271519E-02
5.42117685E+07	 8.01160865E-01	-8.59951153E-02
5.42239766E+07	 8.00640004E-01	-9.16662406E-02
5.42361846E+07	 8.00058214E-01	-9.73344357E-02
5.42483926E+07	 7.99441078E-01	-1.02989613E-01
5.42606006E+07	 7.98771260E-01	-1.08633671E-01
5.42728087E+07	 7.98089035E-01	-1.14287285E-01
5.42850167E+07	 7.97351200E-01	-1.19923608E-01
5.42972247E+07	 7.96548207E-01	-1.25566299E-01
5.43094327E+07	 7.95741199E-01	-1.31202072E-01
5.43216408E+07	 7.94897429E-01	-1.36815538E-01
5.43338488E+07	 7.93984659E-01	-1.42441442E-01
5.43460568E+07	 7.93047268E-01	-1.48054688E-01
5.43582648E+07	 7.92077461E-01	-1.53654228E-01
5.43704729E+07	 7.91055852E-01	-1.59264645E-01
5.43826809E+07	 7.89987769E-01	-1.64842912E-01
5.43948889E+07	 7.88881241E-01	-1.70433396E-01
5.44070969E+07	 7.87755153E-01	-1.75997878E-01
5.44193050E+07	 7.86586810E-01	-1.81567905E-01
5.44315130E+07	 7.85366355E-01	-1.87118628E-01
5.44437210E+07	 7.84113518E-01	-1.92665817E-01
5.44559290E+07	 7.82814896E-01	-1.98216340E-01
5.44681371E+07	 7.81473781E-01	-2.03738329E-01
5.44803451E+07	 7.80106347E-01	-2.09258077E-01
5.44925531E+07	 7.78683755E-01	-2.14770834E-01
5.45047611E+07	 7.77225228E-01	-2.20261318E-01
5.45169692E+07	 7.75745561E-01	-2.25754882E-01
5.45291772E+07	 7.74211577E-01	-2.31233087E-01
5.45413852E+07	 7.72643784E-01	-2.36694931E-01
5.45535932E+07	 7.71021266E-01	-2.42146229E-01
5.45658013E+07	 7.69392250E-01	-2.47601058E-01
5.45780093E+07	 7.67707001E-01	-2.53035277E-01
5.45902173E+07	 7.65968207E-01	-2.58438165E-01
5.46024253E+07	 7.64221066E-01	-2.63842320E-01
5.46146334E+07	 7.62407814E-01	-2.69237053E-01
5.46268414E+07	 7.60570977E-01	-2.74627162E-01
5.46390494E+07	 7.58693037E-01	-2.79969930E-01
5.46512574E+07	 7.56769250E-01	-2.85330066E-01
5.46634655E+07	 7.54823117E-01	-2.90671567E-01
5.46756735E+07	 7.52820102E-01	-2.95989429E-01
5.46878815E+07	 7.50801638E-01	-3.01299854E-01
5.47000895E+07	 7.48738614E-01	-3.06611197E-01
5.47122976E+07	 7.46636310E-01	-3.11877416E-01
5.47245056E+07	 7.44484620E-01	-3.17140339E-01
5.47367136E+07	 7.42309083E-01	-3.22392711E-01
5.47489216E+07	 7.40093540E-01	-3.27626380E-01
5.47611296E+07	 7.37837181E-01	-3.32850905E-01
5.47733377E+07	 7.35550133E-01	-3.38053965E-01
5.47855457E+07	 7.33213538E-01	-3.43229858E-01
5.47977537E+07	 7.30853709E-01	-3.48388554E-01
5.48099617E+07	 7.28445595E-01	-3.53552076E-01
5.48221698E+07	 7.25999744E-01	-3.58672226E-01
5.48343778E+07	 7.23524836E-01	-3.63784521E-01
5.48465858E+07	 7.21031732E-01	-3.68892772E-01
5.48587938E+07	 7.18481107E-01	-3.73971111E-01
5.48710019E+07	 7.15902166E-01	-3.79041701E-01
5.48832099E+07	 7.13288350E-01	-3.84061814E-01
5.48954179E+07	 7.10614879E-01	-3.89081840E-01
5.49076259E+07	 7.07928782E-01	-3.94098296E-01
5.49198340E+07	 7.05205975E-01	-3.99076353E-01
5.49320420E+07	 7.02452684E-01	-4.04049880E-01
5.49442500E+07	 6.99637819E-01	-4.08985642E-01
5.49564580E+07	 6.96820562E-01	-4.13911985E-01
5.49686661E+07	 6.93957301E-01	-4.18811028E-01
5.49808741E+07	 6.91073788E-01	-4.23701216E-01
5.49930821E+07	 6.88123563E-01	-4.28550001E-01
5.50052901E+07	 6.85155079E-01	-4.33396626E-01
5.50174982E+07	 6.82157761E-01	-4.38210803E-01
5.50297062E+07	 6.79109088E-01	-4.43016895E-01
5.50419142E+07	 6.76053091E-01	-4.47784183E-01
5.50541222E+07	 6.72929350E-01	-4.52534579E-01
5.50663303E+07	 6.69803361E-01	-4.57257186E-01
5.50785383E+07	 6.66645075E-01	-4.61972679E-01
5.50907463E+07	 6.63414529E-01	-4.66655664E-01
5.51029543E+07	 6.60157584E-01	-4.71279578E-01
5.51151624E+07	 6.56910106E-01	-4.75948644E-01
5.51273704E+07	 6.53618547E-01	-4.80573030E-01
