! COPPER MOUNTAIN TECHNOLOGIES, PLANAR TR1300/1, 00071119, 20.2.2/1.0
! Date: 11/21/2023 6:57:52 PM
! Data: Format [Calibration Info]
! Freq          	S11: Re/Im F1                  
# HZ S RI R 50
5.00000000E+07	 4.88856735E-01	-6.80948254E-01
5.00122080E+07	 4.84470382E-01	-6.84111227E-01
5.00244160E+07	 4.80059510E-01	-6.87201961E-01
5.00366241E+07	 4.75608350E-01	-6.90274720E-01
5.00488321E+07	 4.71158848E-01	-6.93330813E-01
5.00610401E+07	 4.66673826E-01	-6.96330743E-01
5.00732481E+07	 4.62172833E-01	-6.99330552E-01
5.00854562E+07	 4.57685232E-01	-7.02284561E-01
5.00976642E+07	 4.53137795E-01	-7.05225903E-01
5.01098722E+07	 4.48595091E-01	-7.08122325E-01
5.01220802E+07	 4.43980164E-01	-7.10946294E-01
5.01342883E+07	 4.39433316E-01	-7.13831663E-01
5.01464963E+07	 4.34807210E-01	-7.16631355E-01
5.01587043E+07	 4.30200378E-01	-7.19416476E-01
5.01709123E+07	 4.25540438E-01	-7.22172170E-01
5.01831204E+07	 4.20885597E-01	-7.24883283E-01
5.01953284E+07	 4.16202907E-01	-7.27573376E-01
5.02075364E+07	 4.11476058E-01	-7.30183449E-01
5.02197444E+07	 4.06792584E-01	-7.32857731E-01
5.02319525E+07	 4.02068368E-01	-7.35449044E-01
5.02441605E+07	 3.97322938E-01	-7.38010281E-01
5.02563685E+07	 3.92556088E-01	-7.40544639E-01
5.02685765E+07	 3.87756915E-01	-7.42997993E-01
5.02807846E+07	 3.82991000E-01	-7.45522005E-01
5.02929926E+07	 3.78178156E-01	-7.47952573E-01
5.03052006E+07	 3.73353318E-01	-7.50347773E-01
5.03174086E+07	 3.68517136E-01	-7.52737661E-01
5.03296167E+07	 3.63664579E-01	-7.55085343E-01
5.03418247E+07	 3.58799435E-01	-7.57418501E-01
5.03540327E+07	 3.53902640E-01	-7.59682458E-01
5.03662407E+07	 3.49016362E-01	-7.61933528E-01
5.03784488E+07	 3.44108705E-01	-7.64161032E-01
5.03906568E+07	 3.39164636E-01	-7.66287852E-01
5.04028648E+07	 3.34221549E-01	-7.68483205E-01
5.04150728E+07	 3.29287733E-01	-7.70613837E-01
5.04272809E+07	 3.24312783E-01	-7.72699807E-01
5.04394889E+07	 3.19317126E-01	-7.74713615E-01
5.04516969E+07	 3.14342430E-01	-7.76769548E-01
5.04639049E+07	 3.09357310E-01	-7.78766609E-01
5.04761130E+07	 3.04313191E-01	-7.80728895E-01
5.04883210E+07	 2.99308320E-01	-7.82652075E-01
5.05005290E+07	 2.94255394E-01	-7.84563786E-01
5.05127370E+07	 2.89186525E-01	-7.86399463E-01
5.05249451E+07	 2.84148117E-01	-7.88235792E-01
5.05371531E+07	 2.79070129E-01	-7.90049861E-01
5.05493611E+07	 2.73984361E-01	-7.91794049E-01
5.05615691E+07	 2.68884422E-01	-7.93530308E-01
5.05737772E+07	 2.63776723E-01	-7.95230649E-01
5.05859852E+07	 2.58647913E-01	-7.96886570E-01
5.05981932E+07	 2.53528315E-01	-7.98512076E-01
5.06104012E+07	 2.48391633E-01	-8.00115396E-01
5.06226093E+07	 2.43243132E-01	-8.01672762E-01
5.06348173E+07	 2.38080468E-01	-8.03184775E-01
5.06470253E+07	 2.32923589E-01	-8.04692910E-01
5.06592333E+07	 2.27739762E-01	-8.06150100E-01
5.06714414E+07	 2.22543319E-01	-8.07577070E-01
5.06836494E+07	 2.17355517E-01	-8.08975363E-01
5.06958574E+07	 2.12168203E-01	-8.10336201E-01
5.07080654E+07	 2.06958953E-01	-8.11657892E-01
5.07202735E+07	 2.01730433E-01	-8.12937269E-01
5.07324815E+07	 1.96511400E-01	-8.14186234E-01
5.07446895E+07	 1.91285841E-01	-8.15419260E-01
5.07568975E+07	 1.86037880E-01	-8.16597117E-01
5.07691056E+07	 1.80786710E-01	-8.17762360E-01
5.07813136E+07	 1.75520756E-01	-8.18873843E-01
5.07935216E+07	 1.70274614E-01	-8.19985842E-01
5.08057296E+07	 1.65001832E-01	-8.21027290E-01
5.08179377E+07	 1.59734977E-01	-8.22045292E-01
5.08301457E+07	 1.54433408E-01	-8.23048291E-01
5.08423537E+07	 1.49153932E-01	-8.23993017E-01
5.08545617E+07	 1.43897125E-01	-8.24910068E-01
5.08667698E+07	 1.38599855E-01	-8.25785518E-01
5.08789778E+07	 1.33279170E-01	-8.26641944E-01
5.08911858E+07	 1.27979047E-01	-8.27447283E-01
5.09033938E+07	 1.22669487E-01	-8.28240226E-01
5.09156019E+07	 1.17348532E-01	-8.28968300E-01
5.09278099E+07	 1.12026680E-01	-8.29668427E-01
5.09400179E+07	 1.06711043E-01	-8.30339829E-01
5.09522259E+07	 1.01375017E-01	-8.30985437E-01
5.09644340E+07	 9.60539903E-02	-8.31597475E-01
5.09766420E+07	 9.07388247E-02	-8.32163890E-01
5.09888500E+07	 8.53951196E-02	-8.32705117E-01
5.10010580E+07	 8.00511316E-02	-8.33193841E-01
5.10132661E+07	 7.47151775E-02	-8.33667527E-01
5.10254741E+07	 6.93630307E-02	-8.34111087E-01
5.10376821E+07	 6.40267767E-02	-8.34519735E-01
5.10498901E+07	 5.86894769E-02	-8.34866031E-01
5.10620982E+07	 5.33354096E-02	-8.35220263E-01
5.10743062E+07	 4.79894881E-02	-8.35502560E-01
5.10865142E+07	 4.26618572E-02	-8.35763222E-01
5.10987222E+07	 3.73056329E-02	-8.35970378E-01
5.11109303E+07	 3.19487216E-02	-8.36166997E-01
5.11231383E+07	 2.65858345E-02	-8.36331146E-01
5.11353463E+07	 2.12460519E-02	-8.36448611E-01
5.11475543E+07	 1.58972383E-02	-8.36550130E-01
5.11597624E+07	 1.05548182E-02	-8.36580406E-01
5.11719704E+07	 5.19825680E-03	-8.36620195E-01
5.11841784E+07	-1.48156420E-04	-8.36591656E-01
5.11963864E+07	-5.51160861E-03	-8.36550554E-01
5.12085944E+07	-1.08494349E-02	-8.36474233E-01
5.12208025E+07	-1.61821493E-02	-8.36339953E-01
5.12330105E+07	-2.15337907E-02	-8.36191415E-01
5.12452185E+07	-2.68812705E-02	-8.36001556E-01
5.12574265E+07	-3.22105887E-02	-8.35801359E-01
5.12696346E+07	-3.75590451E-02	-8.35523368E-01
5.12818426E+07	-4.28941577E-02	-8.35223675E-01
5.12940506E+07	-4.82225113E-02	-8.34901614E-01
5.13062586E+07	-5.35484718E-02	-8.34536711E-01
5.13184667E+07	-5.88692978E-02	-8.34155598E-01
5.13306747E+07	-6.42121237E-02	-8.33715138E-01
5.13428827E+07	-6.95278489E-02	-8.33266921E-01
5.13550907E+07	-7.48263056E-02	-8.32749832E-01
5.13672988E+07	-8.01383953E-02	-8.32235884E-01
5.13795068E+07	-8.54567212E-02	-8.31676683E-01
5.13917148E+07	-9.07601910E-02	-8.31047935E-01
5.14039228E+07	-9.60382606E-02	-8.30422846E-01
5.14161309E+07	-1.01335084E-01	-8.29759963E-01
5.14283389E+07	-1.06627292E-01	-8.29084317E-01
5.14405469E+07	-1.11911053E-01	-8.28319840E-01
5.14527549E+07	-1.17183842E-01	-8.27566815E-01
5.14649630E+07	-1.22447922E-01	-8.26776929E-01
5.14771710E+07	-1.27738054E-01	-8.25909047E-01
5.14893790E+07	-1.32973759E-01	-8.25046494E-01
5.15015870E+07	-1.38231472E-01	-8.24159745E-01
5.15137951E+07	-1.43459581E-01	-8.23211785E-01
5.15260031E+07	-1.48716837E-01	-8.22258597E-01
5.15382111E+07	-1.53943390E-01	-8.21236233E-01
5.15504191E+07	-1.59161481E-01	-8.20212737E-01
5.15626272E+07	-1.64386347E-01	-8.19135626E-01
5.15748352E+07	-1.69590229E-01	-8.18034626E-01
5.15870432E+07	-1.74796291E-01	-8.16890548E-01
5.15992512E+07	-1.79991733E-01	-8.15718613E-01
5.16114593E+07	-1.85177018E-01	-8.14544841E-01
5.16236673E+07	-1.90335223E-01	-8.13276199E-01
5.16358753E+07	-1.95501185E-01	-8.12012210E-01
5.16480833E+07	-2.00663367E-01	-8.10708033E-01
5.16602914E+07	-2.05800421E-01	-8.09393225E-01
5.16724994E+07	-2.10929764E-01	-8.08007557E-01
5.16847074E+07	-2.16062898E-01	-8.06612595E-01
5.16969154E+07	-2.21192585E-01	-8.05184646E-01
5.17091235E+07	-2.26289511E-01	-8.03712358E-01
5.17213315E+07	-2.31396329E-01	-8.02216535E-01
5.17335395E+07	-2.36497413E-01	-8.00681701E-01
5.17457475E+07	-2.41548886E-01	-7.99104136E-01
5.17579556E+07	-2.46612287E-01	-7.97516937E-01
5.17701636E+07	-2.51676688E-01	-7.95883358E-01
5.17823716E+07	-2.56723175E-01	-7.94219803E-01
5.17945796E+07	-2.61748350E-01	-7.92547636E-01
5.18067877E+07	-2.66783462E-01	-7.90826071E-01
5.18189957E+07	-2.71778184E-01	-7.89059036E-01
5.18312037E+07	-2.76787166E-01	-7.87257019E-01
5.18434117E+07	-2.81767278E-01	-7.85449001E-01
5.18556198E+07	-2.86727887E-01	-7.83608657E-01
5.18678278E+07	-2.91690390E-01	-7.81727301E-01
5.18800358E+07	-2.96622449E-01	-7.79808498E-01
5.18922438E+07	-3.01570648E-01	-7.77856870E-01
5.19044519E+07	-3.06474217E-01	-7.75890799E-01
5.19166599E+07	-3.11381841E-01	-7.73896694E-01
5.19288679E+07	-3.16273538E-01	-7.71827087E-01
5.19410759E+07	-3.21155108E-01	-7.69788498E-01
5.19532840E+07	-3.26015028E-01	-7.67680492E-01
5.19654920E+07	-3.30842346E-01	-7.65537935E-01
5.19777000E+07	-3.35705367E-01	-7.63376884E-01
5.19899080E+07	-3.40519915E-01	-7.61190950E-01
5.20021161E+07	-3.45333046E-01	-7.58969554E-01
5.20143241E+07	-3.50111779E-01	-7.56733975E-01
5.20265321E+07	-3.54875297E-01	-7.54425462E-01
5.20387401E+07	-3.59654486E-01	-7.52124350E-01
5.20509482E+07	-3.64392420E-01	-7.49767147E-01
5.20631562E+07	-3.69119241E-01	-7.47397448E-01
5.20753642E+07	-3.73807218E-01	-7.45007028E-01
5.20875722E+07	-3.78536933E-01	-7.42573823E-01
5.20997803E+07	-3.83201892E-01	-7.40091168E-01
5.21119883E+07	-3.87859980E-01	-7.37617478E-01
5.21241963E+07	-3.92514393E-01	-7.35098443E-01
5.21364043E+07	-3.97124265E-01	-7.32533496E-01
5.21486124E+07	-4.01757024E-01	-7.29962451E-01
5.21608204E+07	-4.06334413E-01	-7.27363957E-01
5.21730284E+07	-4.10929786E-01	-7.24729577E-01
5.21852364E+07	-4.15455886E-01	-7.22047857E-01
5.21974445E+07	-4.20009206E-01	-7.19356368E-01
5.22096525E+07	-4.24527999E-01	-7.16654498E-01
5.22218605E+07	-4.29040066E-01	-7.13896459E-01
5.22340685E+07	-4.33506779E-01	-7.11092673E-01
5.22462766E+07	-4.37981443E-01	-7.08301714E-01
5.22584846E+07	-4.42432992E-01	-7.05472727E-01
5.22706926E+07	-4.46854989E-01	-7.02605142E-01
5.22829006E+07	-4.51269444E-01	-6.99696968E-01
5.22951087E+07	-4.55669710E-01	-6.96817404E-01
5.23073167E+07	-4.60036410E-01	-6.93852228E-01
5.23195247E+07	-4.64368535E-01	-6.90885291E-01
5.23317327E+07	-4.68703249E-01	-6.87887630E-01
5.23439408E+07	-4.73025028E-01	-6.84863668E-01
5.23561488E+07	-4.77307423E-01	-6.81796862E-01
5.23683568E+07	-4.81586777E-01	-6.78719144E-01
5.23805648E+07	-4.85821288E-01	-6.75603115E-01
5.23927728E+07	-4.90063318E-01	-6.72499165E-01
5.24049809E+07	-4.94271506E-01	-6.69335993E-01
5.24171889E+07	-4.98471205E-01	-6.66160002E-01
5.24293969E+07	-5.02627932E-01	-6.62944810E-01
5.24416049E+07	-5.06778697E-01	-6.59689717E-01
5.24538130E+07	-5.10899192E-01	-6.56441664E-01
5.24660210E+07	-5.15010488E-01	-6.53166568E-01
5.24782290E+07	-5.19074833E-01	-6.49831327E-01
5.24904370E+07	-5.23140220E-01	-6.46481453E-01
5.25026451E+07	-5.27179425E-01	-6.43153678E-01
5.25148531E+07	-5.31206844E-01	-6.39742813E-01
5.25270611E+07	-5.35193371E-01	-6.36332339E-01
5.25392691E+07	-5.39164584E-01	-6.32895932E-01
5.25514772E+07	-5.43109303E-01	-6.29439318E-01
5.25636852E+07	-5.47047867E-01	-6.25935405E-01
5.25758932E+07	-5.50946385E-01	-6.22437003E-01
5.25881012E+07	-5.54798555E-01	-6.18895356E-01
5.26003093E+07	-5.58668033E-01	-6.15348575E-01
5.26125173E+07	-5.62500728E-01	-6.11762617E-01
5.26247253E+07	-5.66298383E-01	-6.08173102E-01
5.26369333E+07	-5.70094503E-01	-6.04522141E-01
5.26491414E+07	-5.73856844E-01	-6.00878657E-01
5.26613494E+07	-5.77587042E-01	-5.97203269E-01
5.26735574E+07	-5.81287515E-01	-5.93503908E-01
5.26857654E+07	-5.84999215E-01	-5.89767132E-01
5.26979735E+07	-5.88650584E-01	-5.86033340E-01
5.27101815E+07	-5.92310660E-01	-5.82269765E-01
5.27223895E+07	-5.95935925E-01	-5.78485334E-01
5.27345975E+07	-5.99496985E-01	-5.74665746E-01
5.27468056E+07	-6.03065435E-01	-5.70820632E-01
5.27590136E+07	-6.06613633E-01	-5.66992002E-01
5.27712216E+07	-6.10119924E-01	-5.63098555E-01
5.27834296E+07	-6.13627092E-01	-5.59214083E-01
5.27956377E+07	-6.17082087E-01	-5.55283078E-01
5.28078457E+07	-6.20527703E-01	-5.51357525E-01
5.28200537E+07	-6.23933993E-01	-5.47382869E-01
5.28322617E+07	-6.27329441E-01	-5.43409735E-01
5.28444698E+07	-6.30684435E-01	-5.39413159E-01
5.28566778E+07	-6.34027151E-01	-5.35387140E-01
5.28688858E+07	-6.37334829E-01	-5.31341284E-01
5.28810938E+07	-6.40622339E-01	-5.27281489E-01
5.28933019E+07	-6.43896268E-01	-5.23196773E-01
5.29055099E+07	-6.47108811E-01	-5.19092614E-01
5.29177179E+07	-6.50318743E-01	-5.14971794E-01
5.29299259E+07	-6.53492389E-01	-5.10818595E-01
5.29421340E+07	-6.56659485E-01	-5.06666878E-01
5.29543420E+07	-6.59777957E-01	-5.02480090E-01
5.29665500E+07	-6.62870133E-01	-4.98294778E-01
5.29787580E+07	-6.65931586E-01	-4.94063667E-01
5.29909661E+07	-6.68980046E-01	-4.89829614E-01
5.30031741E+07	-6.72000527E-01	-4.85586778E-01
5.30153821E+07	-6.74984376E-01	-4.81311560E-01
5.30275901E+07	-6.77944915E-01	-4.77016630E-01
5.30397982E+07	-6.80884617E-01	-4.72718608E-01
5.30520062E+07	-6.83781805E-01	-4.68384783E-01
5.30642142E+07	-6.86660254E-01	-4.64038763E-01
5.30764222E+07	-6.89518497E-01	-4.59691906E-01
5.30886303E+07	-6.92340687E-01	-4.55301602E-01
5.31008383E+07	-6.95140294E-01	-4.50922574E-01
5.31130463E+07	-6.97884331E-01	-4.46502610E-01
5.31252543E+07	-7.00643048E-01	-4.42081050E-01
5.31374624E+07	-7.03339065E-01	-4.37651176E-01
5.31496704E+07	-7.06016832E-01	-4.33173227E-01
5.31618784E+07	-7.08667306E-01	-4.28700689E-01
5.31740864E+07	-7.11285519E-01	-4.24206706E-01
5.31862945E+07	-7.13882662E-01	-4.19702694E-01
5.31985025E+07	-7.16457341E-01	-4.15181616E-01
5.32107105E+07	-7.18986681E-01	-4.10646525E-01
5.32229185E+07	-7.21487367E-01	-4.06090023E-01
5.32351266E+07	-7.23971504E-01	-4.01521444E-01
5.32473346E+07	-7.26427758E-01	-3.96937499E-01
5.32595426E+07	-7.28847766E-01	-3.92361877E-01
5.32717506E+07	-7.31238804E-01	-3.87745300E-01
5.32839587E+07	-7.33592872E-01	-3.83107050E-01
5.32961667E+07	-7.35931328E-01	-3.78463857E-01
5.33083747E+07	-7.38227976E-01	-3.73819298E-01
5.33205827E+07	-7.40498803E-01	-3.69149329E-01
5.33327908E+07	-7.42732163E-01	-3.64475358E-01
5.33449988E+07	-7.44965514E-01	-3.59789051E-01
5.33572068E+07	-7.47145721E-01	-3.55079625E-01
5.33694148E+07	-7.49302641E-01	-3.50362820E-01
5.33816229E+07	-7.51423733E-01	-3.45619208E-01
5.33938309E+07	-7.53506338E-01	-3.40878627E-01
5.34060389E+07	-7.55569397E-01	-3.36121831E-01
5.34182469E+07	-7.57608313E-01	-3.31355454E-01
5.34304550E+07	-7.59598999E-01	-3.26575288E-01
5.34426630E+07	-7.61583045E-01	-3.21790098E-01
5.34548710E+07	-7.63506988E-01	-3.16981253E-01
5.34670790E+07	-7.65437311E-01	-3.12155552E-01
5.34792871E+07	-7.67308520E-01	-3.07338388E-01
5.34914951E+07	-7.69162406E-01	-3.02510099E-01
5.35037031E+07	-7.70969874E-01	-2.97662350E-01
5.35159111E+07	-7.72761847E-01	-2.92809722E-01
5.35281192E+07	-7.74518195E-01	-2.87941402E-01
5.35403272E+07	-7.76261864E-01	-2.83055102E-01
5.35525352E+07	-7.77955459E-01	-2.78170355E-01
5.35647432E+07	-7.79603780E-01	-2.73271815E-01
5.35769512E+07	-7.81254463E-01	-2.68370828E-01
5.35891593E+07	-7.82846833E-01	-2.63453545E-01
5.36013673E+07	-7.84422339E-01	-2.58518159E-01
5.36135753E+07	-7.85948200E-01	-2.53585473E-01
5.36257833E+07	-7.87466167E-01	-2.48638236E-01
5.36379914E+07	-7.88956346E-01	-2.43694934E-01
5.36501994E+07	-7.90408850E-01	-2.38742803E-01
5.36624074E+07	-7.91813192E-01	-2.33769508E-01
5.36746154E+07	-7.93201344E-01	-2.28795462E-01
5.36868235E+07	-7.94560426E-01	-2.23803790E-01
5.36990315E+07	-7.95874428E-01	-2.18817606E-01
5.37112395E+07	-7.97159544E-01	-2.13824214E-01
5.37234475E+07	-7.98423289E-01	-2.08814659E-01
5.37356556E+07	-7.99647714E-01	-2.03794436E-01
5.37478636E+07	-8.00834645E-01	-1.98778872E-01
5.37600716E+07	-8.02014203E-01	-1.93756050E-01
5.37722796E+07	-8.03130369E-01	-1.88722652E-01
5.37844877E+07	-8.04231523E-01	-1.83679365E-01
5.37966957E+07	-8.05306419E-01	-1.78635484E-01
5.38089037E+07	-8.06342863E-01	-1.73586061E-01
5.38211117E+07	-8.07355399E-01	-1.68524819E-01
5.38333198E+07	-8.08325560E-01	-1.63466424E-01
5.38455278E+07	-8.09261876E-01	-1.58387716E-01
5.38577358E+07	-8.10184798E-01	-1.53323823E-01
5.38699438E+07	-8.11055046E-01	-1.48260586E-01
5.38821519E+07	-8.11905395E-01	-1.43173576E-01
5.38943599E+07	-8.12707035E-01	-1.38079876E-01
5.39065679E+07	-8.13492115E-01	-1.32990594E-01
5.39187759E+07	-8.14257773E-01	-1.27899556E-01
5.39309840E+07	-8.14977119E-01	-1.22803537E-01
5.39431920E+07	-8.15669622E-01	-1.17713371E-01
5.39554000E+07	-8.16311477E-01	-1.12600765E-01
5.39676080E+07	-8.16932834E-01	-1.07493018E-01
5.39798161E+07	-8.17523414E-01	-1.02376421E-01
5.39920241E+07	-8.18082805E-01	-9.72647137E-02
5.40042321E+07	-8.18616192E-01	-9.21551937E-02
5.40164401E+07	-8.19118086E-01	-8.70351482E-02
5.40286482E+07	-8.19579604E-01	-8.19028241E-02
5.40408562E+07	-8.20005809E-01	-7.67759083E-02
5.40530642E+07	-8.20397599E-01	-7.16559015E-02
5.40652722E+07	-8.20756841E-01	-6.65300959E-02
5.40774803E+07	-8.21103963E-01	-6.13967370E-02
5.40896883E+07	-8.21399875E-01	-5.62766860E-02
5.41018963E+07	-8.21665083E-01	-5.11325336E-02
5.41141043E+07	-8.21897446E-01	-4.60084938E-02
5.41263124E+07	-8.22110136E-01	-4.08734715E-02
5.41385204E+07	-8.22289658E-01	-3.57539555E-02
5.41507284E+07	-8.22420852E-01	-3.06114381E-02
5.41629364E+07	-8.22532755E-01	-2.54701120E-02
5.41751445E+07	-8.22610329E-01	-2.03376805E-02
5.41873525E+07	-8.22662739E-01	-1.52044004E-02
5.41995605E+07	-8.22665753E-01	-1.00670762E-02
5.42117685E+07	-8.22650631E-01	-4.93528030E-03
5.42239766E+07	-8.22600166E-01	 1.83280874E-04
5.42361846E+07	-8.22513426E-01	 5.31510984E-03
5.42483926E+07	-8.22413789E-01	 1.04395088E-02
5.42606006E+07	-8.22258282E-01	 1.55718224E-02
5.42728087E+07	-8.22083964E-01	 2.06979821E-02
5.42850167E+07	-8.21870054E-01	 2.58133855E-02
5.42972247E+07	-8.21612459E-01	 3.09389116E-02
5.43094327E+07	-8.21352080E-01	 3.60641056E-02
5.43216408E+07	-8.21054451E-01	 4.11773734E-02
5.43338488E+07	-8.20708828E-01	 4.62936664E-02
5.43460568E+07	-8.20354492E-01	 5.14092539E-02
5.43582648E+07	-8.19947254E-01	 5.65195362E-02
5.43704729E+07	-8.19516531E-01	 6.16133877E-02
5.43826809E+07	-8.19045846E-01	 6.67088316E-02
5.43948889E+07	-8.18551700E-01	 7.18147454E-02
5.44070969E+07	-8.18036900E-01	 7.69084321E-02
5.44193050E+07	-8.17479560E-01	 8.19976591E-02
5.44315130E+07	-8.16892253E-01	 8.70777307E-02
5.44437210E+07	-8.16259595E-01	 9.21613172E-02
5.44559290E+07	-8.15608652E-01	 9.72453903E-02
5.44681371E+07	-8.14931570E-01	 1.02307342E-01
5.44803451E+07	-8.14224817E-01	 1.07381419E-01
5.44925531E+07	-8.13462884E-01	 1.12432941E-01
5.45047611E+07	-8.12691376E-01	 1.17495188E-01
5.45169692E+07	-8.11881816E-01	 1.22539589E-01
5.45291772E+07	-8.11024191E-01	 1.27592162E-01
5.45413852E+07	-8.10158304E-01	 1.32621561E-01
5.45535932E+07	-8.09252831E-01	 1.37662461E-01
5.45658013E+07	-8.08338729E-01	 1.42693925E-01
5.45780093E+07	-8.07353767E-01	 1.47713338E-01
5.45902173E+07	-8.06361120E-01	 1.52725877E-01
5.46024253E+07	-8.05330566E-01	 1.57729827E-01
5.46146334E+07	-8.04274225E-01	 1.62725364E-01
5.46268414E+07	-8.03195729E-01	 1.67719364E-01
5.46390494E+07	-8.02066935E-01	 1.72711014E-01
5.46512574E+07	-8.00918852E-01	 1.77672814E-01
5.46634655E+07	-7.99743134E-01	 1.82651831E-01
5.46756735E+07	-7.98524797E-01	 1.87611742E-01
5.46878815E+07	-7.97292601E-01	 1.92564946E-01
5.47000895E+07	-7.96012551E-01	 1.97511977E-01
5.47122976E+07	-7.94715305E-01	 2.02451602E-01
5.47245056E+07	-7.93368626E-01	 2.07374181E-01
5.47367136E+07	-7.92014422E-01	 2.12287383E-01
5.47489216E+07	-7.90617594E-01	 2.17205661E-01
5.47611296E+07	-7.89205953E-01	 2.22108942E-01
5.47733377E+07	-7.87733787E-01	 2.26994536E-01
5.47855457E+07	-7.86243386E-01	 2.31879661E-01
5.47977537E+07	-7.84729126E-01	 2.36744735E-01
5.48099617E+07	-7.83200121E-01	 2.41611131E-01
5.48221698E+07	-7.81610941E-01	 2.46453165E-01
5.48343778E+07	-7.80013635E-01	 2.51297658E-01
5.48465858E+07	-7.78382904E-01	 2.56135766E-01
5.48587938E+07	-7.76708287E-01	 2.60956397E-01
5.48710019E+07	-7.75021784E-01	 2.65760523E-01
5.48832099E+07	-7.73280796E-01	 2.70550982E-01
5.48954179E+07	-7.71530375E-01	 2.75347483E-01
5.49076259E+07	-7.69753246E-01	 2.80128365E-01
5.49198340E+07	-7.67944621E-01	 2.84893050E-01
5.49320420E+07	-7.66108936E-01	 2.89652889E-01
5.49442500E+07	-7.64241867E-01	 2.94357928E-01
5.49564580E+07	-7.62320944E-01	 2.99100455E-01
5.49686661E+07	-7.60406958E-01	 3.03827796E-01
5.49808741E+07	-7.58434899E-01	 3.08534273E-01
5.49930821E+07	-7.56460937E-01	 3.13223484E-01
5.50052901E+07	-7.54450848E-01	 3.17898259E-01
5.50174982E+07	-7.52405975E-01	 3.22564928E-01
5.50297062E+07	-7.50336016E-01	 3.27217296E-01
5.50419142E+07	-7.48239172E-01	 3.31863361E-01
5.50541222E+07	-7.46081681E-01	 3.36480374E-01
5.50663303E+07	-7.43945534E-01	 3.41102991E-01
5.50785383E+07	-7.41770940E-01	 3.45695412E-01
5.50907463E+07	-7.39552317E-01	 3.50268866E-01
5.51029543E+07	-7.37254693E-01	 3.54827046E-01
5.51151624E+07	-7.35032782E-01	 3.59417809E-01
5.51273704E+07	-7.32739190E-01	 3.63944218E-01
