! MS46122B
! 1746301/73750021
! 8/7/2023 2:35:36 PM
! C:\USERS\SPEGWAL\DOWNLOADS\SAURABH\REACH\NODES\FRONT END\MEASUREMENTS\MEASURED S-PARAMETER_07-08-2023\MS-3\P2_J3\J1_ON.S2P
! CHANNEL.1
! TR.MEASUREMENT
! CORRECTED.DATA
# GHZ S RI R 50.0
! FREQ.GHZ         S11RE         S11IM         S21RE         S21IM         S12RE         S12IM         S22RE         S22IM         
!; PortSelection: Port_12
   0.001000000     1.0044680   -0.0072254    -0.0000023    0.0000019    -0.0000009    0.0000027     0.0018561    0.0024320 
   0.001249500     1.0020450   -0.0068753     0.0000007    0.0000008     0.0000002   -0.0000007     0.0012265    0.0024787 
   0.001499000     1.0018570   -0.0071701     0.0000006   -0.0000004     0.0000007   -0.0000012     0.0010059    0.0026863 
   0.001748500     1.0017590   -0.0074802    -0.0000017    0.0000005    -0.0000003   -0.0000004     0.0010325    0.0029054 
   0.001998000     1.0017650   -0.0077596    -0.0000008    0.0000007    -0.0000007    0.0000012     0.0011625    0.0030420 
   0.002247500     1.0020970   -0.0086766    -0.0000005    0.0000005    -0.0000008   -0.0000010     0.0014771    0.0029051 
   0.002497000     1.0020630   -0.0090619    -0.0000008    0.0000020     0.0000006    0.0000005     0.0017196    0.0029615 
   0.002746500     1.0021120   -0.0093743     0.0000000    0.0000005     0.0000001   -0.0000001     0.0019634    0.0029664 
   0.002996000     1.0022470   -0.0097738    -0.0000004    0.0000008    -0.0000008   -0.0000004     0.0022345    0.0028933 
   0.003245500     1.0023240   -0.0101134     0.0000006   -0.0000010     0.0000006    0.0000009     0.0024496    0.0028017 
   0.003495000     1.0022870   -0.0104294    -0.0000007   -0.0000007    -0.0000007   -0.0000002     0.0026742    0.0027054 
   0.003744500     1.0023750   -0.0108721    -0.0000001    0.0000000     0.0000014   -0.0000011     0.0028779    0.0025638 
   0.003994000     1.0023930   -0.0113435    -0.0000015    0.0000010     0.0000003    0.0000010     0.0030527    0.0023941 
   0.004243500     1.0024180   -0.0116284     0.0000002   -0.0000007    -0.0000003   -0.0000004     0.0034372    0.0021709 
   0.004493000     1.0025140   -0.0121750     0.0000007    0.0000012     0.0000006    0.0000005     0.0035730    0.0020167 
   0.004742500     1.0025880   -0.0125363     0.0000001   -0.0000010     0.0000008    0.0000000     0.0036663    0.0018993 
   0.004992000     1.0026320   -0.0130090    -0.0000010   -0.0000001     0.0000002    0.0000008     0.0037664    0.0017750 
   0.005241500     1.0027610   -0.0134793     0.0000003    0.0000002     0.0000006    0.0000004     0.0038377    0.0016637 
   0.005491000     1.0027860   -0.0139964    -0.0000006    0.0000004    -0.0000006    0.0000004     0.0038789    0.0015583 
   0.005740500     1.0027920   -0.0145809    -0.0000007    0.0000004     0.0000005   -0.0000004     0.0039023    0.0014617 
   0.005990000     1.0027910   -0.0151268    -0.0000010   -0.0000010    -0.0000002    0.0000007     0.0039344    0.0013696 
   0.006239500     1.0029340   -0.0155988    -0.0000005    0.0000012     0.0000004    0.0000006     0.0039529    0.0012714 
   0.006489000     1.0029960   -0.0162767     0.0000000    0.0000001    -0.0000001    0.0000003     0.0039531    0.0011969 
   0.006738500     1.0030450   -0.0167662     0.0000006    0.0000006    -0.0000006    0.0000002     0.0039591    0.0011295 
   0.006988000     1.0030420   -0.0172055    -0.0000007   -0.0000007    -0.0000001   -0.0000001     0.0039499    0.0010792 
   0.007237500     1.0029950   -0.0176686    -0.0000002   -0.0000002     0.0000003    0.0000005     0.0039390    0.0010238 
   0.007487000     1.0027980   -0.0179492    -0.0000015   -0.0000010    -0.0000002   -0.0000005     0.0039342    0.0009880 
   0.007736500     1.0025180   -0.0181878    -0.0000006    0.0000011     0.0000003   -0.0000010     0.0039333    0.0009440 
   0.007986000     1.0020030   -0.0183462    -0.0000001    0.0000004    -0.0000009   -0.0000002     0.0039334    0.0008989 
   0.008235500     1.0012590   -0.0185964    -0.0000012   -0.0000014     0.0000004   -0.0000001     0.0039050    0.0008602 
   0.008485000     1.0005860   -0.0186619     0.0000009   -0.0000002     0.0000013    0.0000006     0.0039050    0.0008310 
   0.008734500     0.9998792   -0.0188752    -0.0000004    0.0000003     0.0000012   -0.0000011     0.0038946    0.0007923 
   0.008984000     0.9992727   -0.0189654     0.0000009    0.0000000     0.0000007    0.0000009     0.0038949    0.0007513 
   0.009233500     0.9972078   -0.0180749     0.0000001    0.0000015     0.0000007   -0.0000006     0.0038699    0.0007194 
   0.009483000     0.9971217   -0.0184789    -0.0000008   -0.0000014    -0.0000002    0.0000003     0.0038765    0.0007031 
   0.009732500     0.9972261   -0.0190368     0.0000008    0.0000010     0.0000008    0.0000010     0.0038653    0.0006610 
   0.009982000     0.9971330   -0.0194446    -0.0000008   -0.0000007     0.0000000    0.0000002     0.0038670    0.0006455 
   0.010231500     0.9970914   -0.0197896    -0.0000007    0.0000002     0.0000005   -0.0000005     0.0038560    0.0006327 
   0.010481000     0.9969713   -0.0203445     0.0000000   -0.0000009     0.0000000   -0.0000008     0.0038493    0.0006055 
   0.010730500     0.9969253   -0.0209503     0.0000003   -0.0000001     0.0000011   -0.0000007     0.0038551    0.0006051 
   0.010980000     0.9969493   -0.0214150     0.0000003   -0.0000003     0.0000010   -0.0000004     0.0038428    0.0005737 
   0.011229500     0.9969653   -0.0217304     0.0000001    0.0000004    -0.0000011    0.0000003     0.0038459    0.0005597 
   0.011479000     0.9968699   -0.0222482    -0.0000012   -0.0000002    -0.0000005    0.0000000     0.0038577    0.0005395 
   0.011728500     0.9969828   -0.0226581     0.0000016   -0.0000008    -0.0000003   -0.0000001     0.0038514    0.0005038 
   0.011978000     0.9969766   -0.0229867     0.0000011   -0.0000004     0.0000004    0.0000001     0.0038409    0.0005114 
   0.012227500     0.9969240   -0.0235633    -0.0000001   -0.0000010    -0.0000002   -0.0000001     0.0038351    0.0004911 
   0.012477000     0.9968488   -0.0240385    -0.0000011   -0.0000001     0.0000011   -0.0000005     0.0038212    0.0004697 
   0.012726500     0.9969380   -0.0244635     0.0000005    0.0000001     0.0000014    0.0000000     0.0038369    0.0004497 
   0.012976000     0.9968739   -0.0249794     0.0000008   -0.0000006    -0.0000006   -0.0000013     0.0038440    0.0004306 
   0.013225500     0.9968219   -0.0254529    -0.0000001    0.0000000     0.0000011   -0.0000006     0.0038351    0.0004141 
   0.013475000     0.9968036   -0.0259018     0.0000005    0.0000012     0.0000003   -0.0000005     0.0038272    0.0003960 
   0.013724500     0.9967383   -0.0262420     0.0000004    0.0000005    -0.0000006    0.0000003     0.0038243    0.0003868 
   0.013974000     0.9967085   -0.0267448     0.0000003    0.0000007     0.0000003   -0.0000003     0.0038337    0.0003767 
   0.014223500     0.9967033   -0.0271413     0.0000003   -0.0000007     0.0000011   -0.0000009     0.0038246    0.0003650 
   0.014473000     0.9966011   -0.0277102     0.0000006    0.0000007    -0.0000008   -0.0000003     0.0038085    0.0003687 
   0.014722500     0.9965387   -0.0281976     0.0000005    0.0000005     0.0000005    0.0000000     0.0038277    0.0003468 
   0.014972000     0.9965863   -0.0286929     0.0000011   -0.0000002    -0.0000005   -0.0000002     0.0038241    0.0003327 
   0.015221500     0.9966364   -0.0290384    -0.0000001   -0.0000003    -0.0000007    0.0000004     0.0038103    0.0003372 
   0.015471000     0.9965741   -0.0294905     0.0000004   -0.0000009     0.0000001    0.0000003     0.0038141    0.0003190 
   0.015720500     0.9964640   -0.0299288    -0.0000004    0.0000010    -0.0000008    0.0000001     0.0038127    0.0003222 
   0.015970000     0.9964403   -0.0302715    -0.0000002   -0.0000009     0.0000002   -0.0000001     0.0037996    0.0003020 
   0.016219500     0.9963379   -0.0308013     0.0000009    0.0000007    -0.0000007    0.0000003     0.0037934    0.0003011 
   0.016469000     0.9963017   -0.0312559    -0.0000009   -0.0000011     0.0000000    0.0000015     0.0037878    0.0002864 
   0.016718500     0.9963789   -0.0316933     0.0000023    0.0000003    -0.0000003   -0.0000006     0.0037874    0.0002764 
   0.016968000     0.9964066   -0.0321691     0.0000011   -0.0000009     0.0000006   -0.0000011     0.0037731    0.0002611 
   0.017217500     0.9962800   -0.0326743    -0.0000004    0.0000001     0.0000003    0.0000002     0.0037659    0.0002376 
   0.017467000     0.9963326   -0.0329940     0.0000001   -0.0000010    -0.0000001   -0.0000005     0.0037681    0.0002278 
   0.017716500     0.9964031   -0.0335018    -0.0000002    0.0000002     0.0000003    0.0000003     0.0037774    0.0002264 
   0.017966000     0.9963331   -0.0340474     0.0000002   -0.0000003     0.0000006   -0.0000003     0.0037682    0.0002106 
   0.018215500     0.9964324   -0.0344576    -0.0000006    0.0000000    -0.0000016    0.0000002     0.0037812    0.0001954 
   0.018465000     0.9961945   -0.0349555    -0.0000004    0.0000012    -0.0000006   -0.0000006     0.0037856    0.0001856 
   0.018714500     0.9962003   -0.0354092    -0.0000004    0.0000000     0.0000001   -0.0000004     0.0037985    0.0001759 
   0.018964000     0.9960824   -0.0357229     0.0000002    0.0000003     0.0000005   -0.0000003     0.0037958    0.0001843 
   0.019213500     0.9961687   -0.0363172    -0.0000008    0.0000002    -0.0000001   -0.0000004     0.0038069    0.0001542 
   0.019463000     0.9959450   -0.0367195    -0.0000003    0.0000000     0.0000000   -0.0000014     0.0038158    0.0001443 
   0.019712500     0.9959191   -0.0371708     0.0000009    0.0000002    -0.0000001   -0.0000009     0.0038161    0.0001334 
   0.019962000     0.9959987   -0.0375852    -0.0000001   -0.0000020    -0.0000008   -0.0000004     0.0038542    0.0001374 
   0.020211500     0.9960567   -0.0380397     0.0000005    0.0000004    -0.0000006    0.0000006     0.0038334    0.0001187 
   0.020461000     0.9959472   -0.0384466     0.0000000   -0.0000011     0.0000012    0.0000000     0.0038295    0.0001213 
   0.020710500     0.9959487   -0.0388966     0.0000004   -0.0000001    -0.0000006   -0.0000002     0.0038351    0.0000990 
   0.020960000     0.9958525   -0.0394151     0.0000014    0.0000006    -0.0000011    0.0000007     0.0038448    0.0000894 
   0.021209500     0.9957797   -0.0397712    -0.0000012   -0.0000003     0.0000003    0.0000004     0.0038461    0.0000791 
   0.021459000     0.9958001   -0.0402306    -0.0000006    0.0000001     0.0000002   -0.0000009     0.0038570    0.0000783 
   0.021708500     0.9957258   -0.0406954    -0.0000002   -0.0000003     0.0000001   -0.0000011     0.0038626    0.0000617 
   0.021958000     0.9957941   -0.0412323     0.0000006   -0.0000002     0.0000006    0.0000001     0.0038801    0.0000478 
   0.022207500     0.9958380   -0.0416938    -0.0000005    0.0000005    -0.0000006   -0.0000006     0.0038934    0.0000353 
   0.022457000     0.9957337   -0.0422142     0.0000003    0.0000005     0.0000007    0.0000003     0.0038724    0.0000473 
   0.022706500     0.9958472   -0.0425629    -0.0000001    0.0000009    -0.0000003   -0.0000006     0.0038826    0.0000381 
   0.022956000     0.9957132   -0.0430325     0.0000001   -0.0000006    -0.0000002   -0.0000005     0.0039070    0.0000222 
   0.023205500     0.9956747   -0.0434761     0.0000015    0.0000005     0.0000007   -0.0000010     0.0039133    0.0000446 
   0.023455000     0.9956074   -0.0438689    -0.0000006   -0.0000012    -0.0000003   -0.0000005     0.0039184    0.0000116 
   0.023704500     0.9956571   -0.0443345     0.0000010    0.0000010    -0.0000004   -0.0000002     0.0039222    0.0000091 
   0.023954000     0.9954970   -0.0448867    -0.0000007   -0.0000003    -0.0000011   -0.0000005     0.0039371    0.0000038 
   0.024203500     0.9955660   -0.0452995    -0.0000014    0.0000002    -0.0000001   -0.0000006     0.0039313    0.0000018 
   0.024453000     0.9955502   -0.0456829     0.0000008   -0.0000004    -0.0000005   -0.0000008     0.0039481   -0.0000214 
   0.024702500     0.9955328   -0.0462354     0.0000001   -0.0000008    -0.0000005    0.0000008     0.0039592   -0.0000305 
   0.024952000     0.9954849   -0.0466140    -0.0000001    0.0000003     0.0000002   -0.0000001     0.0039624   -0.0000308 
   0.025201500     0.9958220   -0.0468844    -0.0000002    0.0000008     0.0000012    0.0000004     0.0039255   -0.0000211 
   0.025451000     0.9954159   -0.0473340    -0.0000003    0.0000003     0.0000003   -0.0000006     0.0039756   -0.0000473 
   0.025700500     0.9953853   -0.0480139    -0.0000002    0.0000006    -0.0000002   -0.0000002     0.0039782   -0.0000699 
   0.025950000     0.9953611   -0.0483698    -0.0000003   -0.0000005    -0.0000006   -0.0000006     0.0040054   -0.0000671 
   0.026199500     0.9953726   -0.0489597     0.0000010    0.0000002     0.0000001   -0.0000005     0.0040042   -0.0000925 
   0.026449000     0.9953104   -0.0493200    -0.0000006    0.0000015     0.0000005   -0.0000006     0.0040193   -0.0000844 
   0.026698500     0.9953045   -0.0497026    -0.0000001   -0.0000006     0.0000006    0.0000009     0.0040204   -0.0001052 
   0.026948000     0.9951847   -0.0501732     0.0000001   -0.0000012    -0.0000001    0.0000002     0.0040322   -0.0001082 
   0.027197500     0.9951571   -0.0505835     0.0000008   -0.0000005     0.0000012    0.0000003     0.0040390   -0.0001172 
   0.027447000     0.9951910   -0.0508975     0.0000006    0.0000000     0.0000001   -0.0000003     0.0040590   -0.0001263 
   0.027696500     0.9950894   -0.0514246     0.0000001   -0.0000007    -0.0000013    0.0000002     0.0040736   -0.0001400 
   0.027946000     0.9951935   -0.0518959    -0.0000005    0.0000000     0.0000001    0.0000014     0.0040795   -0.0001397 
   0.028195500     0.9950579   -0.0521786     0.0000000    0.0000008     0.0000007   -0.0000011     0.0040866   -0.0001633 
   0.028445000     0.9950893   -0.0527058     0.0000002   -0.0000004    -0.0000001    0.0000003     0.0041027   -0.0001609 
   0.028694500     0.9949601   -0.0531443     0.0000018   -0.0000005     0.0000006   -0.0000009     0.0041076   -0.0001718 
   0.028944000     0.9948027   -0.0537598    -0.0000011   -0.0000001    -0.0000006    0.0000002     0.0041293   -0.0001690 
   0.029193500     0.9948449   -0.0541160     0.0000004    0.0000000    -0.0000001   -0.0000008     0.0041394   -0.0001800 
   0.029443000     0.9947778   -0.0546481    -0.0000008    0.0000017     0.0000005   -0.0000001     0.0041474   -0.0001875 
   0.029692500     0.9948288   -0.0551117    -0.0000002    0.0000014     0.0000006   -0.0000006     0.0041600   -0.0001713 
   0.029942000     0.9946578   -0.0555664     0.0000013   -0.0000003     0.0000010    0.0000005     0.0041825   -0.0001819 
   0.030191500     0.9947776   -0.0557583    -0.0000001    0.0000004    -0.0000005    0.0000011     0.0042024   -0.0001880 
   0.030441000     0.9946835   -0.0562409     0.0000001    0.0000002     0.0000000   -0.0000003     0.0042087   -0.0001957 
   0.030690500     0.9946461   -0.0566005    -0.0000001    0.0000005    -0.0000011    0.0000009     0.0042204   -0.0002052 
   0.030940000     0.9946653   -0.0570691     0.0000005   -0.0000007    -0.0000005    0.0000002     0.0042258   -0.0001972 
   0.031189500     0.9946600   -0.0574683     0.0000000    0.0000004    -0.0000006   -0.0000009     0.0042409   -0.0002117 
   0.031439000     0.9945627   -0.0579769     0.0000002    0.0000002     0.0000009    0.0000009     0.0042621   -0.0002070 
   0.031688500     0.9945961   -0.0585469     0.0000004   -0.0000014    -0.0000010   -0.0000005     0.0042668   -0.0002088 
   0.031938000     0.9945079   -0.0590269     0.0000007   -0.0000008    -0.0000007   -0.0000015     0.0042918   -0.0002139 
   0.032187500     0.9945370   -0.0592501    -0.0000003   -0.0000001    -0.0000004    0.0000004     0.0043021   -0.0001989 
   0.032437000     0.9944549   -0.0597719     0.0000012   -0.0000006    -0.0000002   -0.0000004     0.0043187   -0.0002174 
   0.032686500     0.9945145   -0.0599874    -0.0000001   -0.0000008    -0.0000006    0.0000011     0.0043798   -0.0002477 
   0.032936000     0.9944711   -0.0606867     0.0000007   -0.0000005    -0.0000002   -0.0000005     0.0043571   -0.0002084 
   0.033185500     0.9944031   -0.0609696     0.0000000    0.0000004     0.0000005   -0.0000002     0.0044084   -0.0002544 
   0.033435000     0.9943260   -0.0615073     0.0000002   -0.0000008    -0.0000003   -0.0000001     0.0043978   -0.0002046 
   0.033684500     0.9942784   -0.0620434     0.0000000    0.0000000     0.0000005   -0.0000003     0.0044189   -0.0002061 
   0.033934000     0.9942144   -0.0625107    -0.0000003   -0.0000002    -0.0000006   -0.0000008     0.0044447   -0.0001964 
   0.034183500     0.9942452   -0.0631248    -0.0000001   -0.0000002    -0.0000007   -0.0000005     0.0044560   -0.0001973 
   0.034433000     0.9942773   -0.0635102     0.0000007   -0.0000007    -0.0000003   -0.0000012     0.0044666   -0.0001875 
   0.034682500     0.9942458   -0.0639819    -0.0000002   -0.0000010     0.0000008   -0.0000003     0.0044876   -0.0001810 
   0.034932000     0.9942489   -0.0643101     0.0000001    0.0000018     0.0000001    0.0000003     0.0045077   -0.0001738 
   0.035181500     0.9941976   -0.0646846     0.0000008   -0.0000007     0.0000003   -0.0000006     0.0045218   -0.0001739 
   0.035431000     0.9942734   -0.0651117     0.0000005   -0.0000001     0.0000000   -0.0000003     0.0045336   -0.0001642 
   0.035680500     0.9941968   -0.0654768     0.0000000    0.0000011     0.0000003   -0.0000011     0.0045683   -0.0001571 
   0.035930000     0.9940942   -0.0660390     0.0000001    0.0000003     0.0000003   -0.0000005     0.0045692   -0.0001422 
   0.036179500     0.9940226   -0.0665270    -0.0000016    0.0000008    -0.0000003    0.0000001     0.0045796   -0.0001385 
   0.036429000     0.9939516   -0.0670096    -0.0000004    0.0000006     0.0000007    0.0000000     0.0045854   -0.0001322 
   0.036678500     0.9939612   -0.0675117    -0.0000003    0.0000012    -0.0000017    0.0000009     0.0046107   -0.0001255 
   0.036928000     0.9938614   -0.0679234    -0.0000010    0.0000006    -0.0000008   -0.0000007     0.0046197   -0.0001157 
   0.037177500     0.9938951   -0.0684386     0.0000003    0.0000011     0.0000000    0.0000006     0.0046448   -0.0001078 
   0.037427000     0.9938863   -0.0686930     0.0000004    0.0000009     0.0000001    0.0000007     0.0046599   -0.0000986 
   0.037676500     0.9939230   -0.0691709    -0.0000006   -0.0000018    -0.0000006    0.0000005     0.0046761   -0.0000854 
   0.037926000     0.9939202   -0.0695804    -0.0000003    0.0000007    -0.0000008    0.0000004     0.0047000   -0.0000860 
   0.038175500     0.9938759   -0.0699617     0.0000000   -0.0000004     0.0000002    0.0000004     0.0047047   -0.0000718 
   0.038425000     0.9938027   -0.0703805    -0.0000002   -0.0000003     0.0000005   -0.0000003     0.0047434   -0.0000653 
   0.038674500     0.9938100   -0.0708004    -0.0000016    0.0000012    -0.0000011   -0.0000003     0.0047578   -0.0000531 
   0.038924000     0.9937263   -0.0714632    -0.0000002    0.0000009     0.0000006   -0.0000016     0.0047599   -0.0000387 
   0.039173500     0.9937148   -0.0719409     0.0000002    0.0000004     0.0000001    0.0000005     0.0047866   -0.0000326 
   0.039423000     0.9936877   -0.0723785    -0.0000007    0.0000004     0.0000015    0.0000000     0.0048225   -0.0000286 
   0.039672500     0.9937372   -0.0724301     0.0000005   -0.0000004    -0.0000016    0.0000003     0.0048517   -0.0000238 
   0.039922000     0.9938711   -0.0729160     0.0000004   -0.0000013     0.0000010   -0.0000015     0.0048152   -0.0000447 
   0.040171500     0.9939718   -0.0734414     0.0000008   -0.0000007    -0.0000011   -0.0000003     0.0048444   -0.0000280 
