! MS46122B
! 1746301/73750021
! 8/7/2023 2:36:34 PM
! C:\USERS\SPEGWAL\DOWNLOADS\SAURABH\REACH\NODES\FRONT END\MEASUREMENTS\MEASURED S-PARAMETER_07-08-2023\MS-3\P2_J3\J2_ON.S2P
! CHANNEL.1
! TR.MEASUREMENT
! CORRECTED.DATA
# GHZ S RI R 50.0
! FREQ.GHZ         S11RE         S11IM         S21RE         S21IM         S12RE         S12IM         S22RE         S22IM         
!; PortSelection: Port_12
   0.001000000     1.0015820   -0.0086711     0.0000029    0.0000026     0.0000007    0.0000007     0.0017667    0.0025379 
   0.001249500     1.0020140   -0.0069115     0.0000004    0.0000013    -0.0000012    0.0000006     0.0012124    0.0024848 
   0.001499000     1.0018960   -0.0071885    -0.0000001    0.0000007    -0.0000010   -0.0000002     0.0009948    0.0027129 
   0.001748500     1.0017900   -0.0075078     0.0000010    0.0000009    -0.0000003    0.0000003     0.0010187    0.0029065 
   0.001998000     1.0017810   -0.0078367     0.0000001    0.0000002    -0.0000001   -0.0000003     0.0011628    0.0030653 
   0.002247500     1.0021210   -0.0087472    -0.0000001    0.0000003     0.0000002   -0.0000003     0.0014788    0.0029165 
   0.002497000     1.0020830   -0.0091258    -0.0000009   -0.0000019     0.0000004   -0.0000015     0.0017192    0.0029731 
   0.002746500     1.0022730   -0.0093969    -0.0000004    0.0000011     0.0000012   -0.0000008     0.0019657    0.0029953 
   0.002996000     1.0022940   -0.0098164    -0.0000007    0.0000008     0.0000013   -0.0000007     0.0022388    0.0028987 
   0.003245500     1.0023530   -0.0101514     0.0000007    0.0000000     0.0000003    0.0000013     0.0024671    0.0028195 
   0.003495000     1.0023230   -0.0104431     0.0000001   -0.0000018    -0.0000004   -0.0000003     0.0026905    0.0027138 
   0.003744500     1.0024260   -0.0109383    -0.0000007   -0.0000004    -0.0000005   -0.0000004     0.0028904    0.0025770 
   0.003994000     1.0024410   -0.0114655    -0.0000003    0.0000003     0.0000000   -0.0000001     0.0030600    0.0024069 
   0.004243500     1.0025120   -0.0116867     0.0000001    0.0000005     0.0000007    0.0000001     0.0034413    0.0021758 
   0.004493000     1.0025440   -0.0121646     0.0000008    0.0000001    -0.0000001   -0.0000005     0.0035797    0.0020407 
   0.004742500     1.0025830   -0.0126255    -0.0000012    0.0000001    -0.0000006    0.0000008     0.0036882    0.0019059 
   0.004992000     1.0026450   -0.0131002    -0.0000003   -0.0000003     0.0000000    0.0000002     0.0037712    0.0017935 
   0.005241500     1.0027920   -0.0135956    -0.0000001    0.0000008    -0.0000015    0.0000007     0.0038605    0.0016506 
   0.005491000     1.0028350   -0.0141364     0.0000007    0.0000003     0.0000001    0.0000012     0.0038921    0.0015584 
   0.005740500     1.0028660   -0.0146202    -0.0000002    0.0000000    -0.0000006    0.0000004     0.0039180    0.0014630 
   0.005990000     1.0028610   -0.0151731     0.0000005   -0.0000006     0.0000000    0.0000008     0.0039464    0.0013737 
   0.006239500     1.0029930   -0.0156613     0.0000010   -0.0000003     0.0000007    0.0000001     0.0039567    0.0012845 
   0.006489000     1.0030560   -0.0163425    -0.0000008   -0.0000002    -0.0000003    0.0000003     0.0039623    0.0012021 
   0.006738500     1.0030690   -0.0168305     0.0000006   -0.0000004     0.0000003   -0.0000001     0.0039702    0.0011347 
   0.006988000     1.0031350   -0.0172910    -0.0000009   -0.0000003    -0.0000001   -0.0000004     0.0039638    0.0010925 
   0.007237500     1.0031210   -0.0176533    -0.0000007    0.0000004    -0.0000003    0.0000004     0.0039557    0.0010288 
   0.007487000     1.0028630   -0.0180099     0.0000004    0.0000011    -0.0000001   -0.0000008     0.0039417    0.0009888 
   0.007736500     1.0025240   -0.0182901     0.0000019    0.0000007     0.0000014    0.0000009     0.0039496    0.0009402 
   0.007986000     1.0020200   -0.0184474     0.0000007   -0.0000010     0.0000000   -0.0000007     0.0039363    0.0009010 
   0.008235500     1.0013750   -0.0186895     0.0000003   -0.0000009    -0.0000003   -0.0000004     0.0039266    0.0008640 
   0.008485000     1.0006630   -0.0187678    -0.0000008    0.0000006     0.0000011    0.0000008     0.0039252    0.0008310 
   0.008734500     0.9999565   -0.0188702    -0.0000002    0.0000008     0.0000005    0.0000006     0.0039115    0.0008034 
   0.008984000     0.9992861   -0.0189555    -0.0000013   -0.0000004     0.0000000    0.0000014     0.0039033    0.0007584 
   0.009233500     0.9971504   -0.0181112    -0.0000003   -0.0000001    -0.0000002    0.0000000     0.0038827    0.0007286 
   0.009483000     0.9971513   -0.0185904     0.0000001   -0.0000006     0.0000008    0.0000005     0.0038885    0.0007007 
   0.009732500     0.9972198   -0.0191173    -0.0000009    0.0000000     0.0000006    0.0000003     0.0038768    0.0006762 
   0.009982000     0.9971855   -0.0194190     0.0000002    0.0000002    -0.0000004    0.0000004     0.0038759    0.0006524 
   0.010231500     0.9970495   -0.0199244    -0.0000008   -0.0000006    -0.0000004    0.0000000     0.0038655    0.0006437 
   0.010481000     0.9969584   -0.0203640    -0.0000006    0.0000001     0.0000003   -0.0000001     0.0038486    0.0006166 
   0.010730500     0.9969622   -0.0209770    -0.0000018   -0.0000003     0.0000000    0.0000005     0.0038494    0.0006045 
   0.010980000     0.9970058   -0.0214802     0.0000014   -0.0000003    -0.0000007   -0.0000004     0.0038522    0.0005877 
   0.011229500     0.9969361   -0.0217760    -0.0000004    0.0000005     0.0000005   -0.0000011     0.0038582    0.0005636 
   0.011479000     0.9968765   -0.0223367     0.0000012   -0.0000004    -0.0000006    0.0000006     0.0038672    0.0005414 
   0.011728500     0.9969563   -0.0226720     0.0000009    0.0000006     0.0000000   -0.0000019     0.0038601    0.0005126 
   0.011978000     0.9969252   -0.0231174     0.0000005    0.0000002     0.0000001   -0.0000013     0.0038365    0.0005250 
   0.012227500     0.9969661   -0.0236181    -0.0000002   -0.0000010    -0.0000014    0.0000000     0.0038319    0.0004989 
   0.012477000     0.9968722   -0.0241771    -0.0000007    0.0000011    -0.0000004    0.0000002     0.0038302    0.0004842 
   0.012726500     0.9968612   -0.0245874     0.0000008    0.0000000    -0.0000002   -0.0000003     0.0038281    0.0004733 
   0.012976000     0.9969273   -0.0250959     0.0000005   -0.0000007     0.0000000   -0.0000004     0.0038403    0.0004408 
   0.013225500     0.9967859   -0.0255371     0.0000002    0.0000005     0.0000011    0.0000003     0.0038343    0.0004254 
   0.013475000     0.9968068   -0.0259875     0.0000000   -0.0000002     0.0000009    0.0000002     0.0038308    0.0004030 
   0.013724500     0.9967026   -0.0263685     0.0000000    0.0000000     0.0000006    0.0000001     0.0038307    0.0003967 
   0.013974000     0.9967542   -0.0268199    -0.0000007   -0.0000002    -0.0000010    0.0000002     0.0038334    0.0003916 
   0.014223500     0.9967126   -0.0272780    -0.0000003    0.0000001    -0.0000003    0.0000002     0.0038313    0.0003784 
   0.014473000     0.9966458   -0.0277378    -0.0000004   -0.0000001     0.0000001   -0.0000001     0.0038204    0.0003832 
   0.014722500     0.9964855   -0.0282439     0.0000001   -0.0000007    -0.0000011   -0.0000002     0.0038304    0.0003648 
   0.014972000     0.9966663   -0.0288060     0.0000004    0.0000000     0.0000006    0.0000004     0.0038222    0.0003449 
   0.015221500     0.9966235   -0.0291562     0.0000001    0.0000004     0.0000005    0.0000006     0.0038212    0.0003444 
   0.015471000     0.9964950   -0.0295794     0.0000006   -0.0000001     0.0000002   -0.0000006     0.0038189    0.0003336 
   0.015720500     0.9964723   -0.0299831    -0.0000007   -0.0000007    -0.0000001   -0.0000007     0.0038037    0.0003320 
   0.015970000     0.9963827   -0.0303098     0.0000004   -0.0000001    -0.0000002    0.0000000     0.0038083    0.0003120 
   0.016219500     0.9963022   -0.0308854     0.0000001    0.0000009    -0.0000008   -0.0000005     0.0037927    0.0003131 
   0.016469000     0.9963362   -0.0313668    -0.0000004    0.0000001     0.0000002    0.0000012     0.0037862    0.0003017 
   0.016718500     0.9962894   -0.0318170     0.0000010    0.0000005     0.0000003    0.0000000     0.0037839    0.0002883 
   0.016968000     0.9963379   -0.0323042     0.0000006    0.0000002     0.0000000    0.0000003     0.0037704    0.0002594 
   0.017217500     0.9963446   -0.0327300    -0.0000007    0.0000006     0.0000008   -0.0000006     0.0037666    0.0002454 
   0.017467000     0.9963400   -0.0331555     0.0000003    0.0000009     0.0000011   -0.0000003     0.0037814    0.0002441 
   0.017716500     0.9964119   -0.0336121     0.0000003    0.0000000    -0.0000009    0.0000002     0.0037717    0.0002336 
   0.017966000     0.9964389   -0.0341528     0.0000004    0.0000008    -0.0000006   -0.0000008     0.0037776    0.0002196 
   0.018215500     0.9963897   -0.0345565     0.0000001    0.0000000     0.0000003   -0.0000003     0.0037893    0.0001996 
   0.018465000     0.9962525   -0.0349964     0.0000002    0.0000006    -0.0000006    0.0000002     0.0037884    0.0001893 
   0.018714500     0.9962486   -0.0353555     0.0000005    0.0000009     0.0000021    0.0000001     0.0037881    0.0001919 
   0.018964000     0.9960996   -0.0358288    -0.0000004    0.0000005    -0.0000003    0.0000003     0.0038033    0.0001846 
   0.019213500     0.9961630   -0.0363701    -0.0000010    0.0000000    -0.0000007   -0.0000003     0.0038121    0.0001637 
   0.019463000     0.9960375   -0.0367630    -0.0000009   -0.0000012     0.0000002   -0.0000010     0.0038111    0.0001578 
   0.019712500     0.9959026   -0.0372366    -0.0000005    0.0000002     0.0000003   -0.0000006     0.0038249    0.0001441 
   0.019962000     0.9960446   -0.0376203    -0.0000007   -0.0000004    -0.0000001    0.0000000     0.0038426    0.0001542 
   0.020211500     0.9959884   -0.0381136    -0.0000001    0.0000003     0.0000003   -0.0000003     0.0038337    0.0001364 
   0.020461000     0.9959726   -0.0384930    -0.0000007   -0.0000009    -0.0000008   -0.0000005     0.0038334    0.0001324 
   0.020710500     0.9959403   -0.0390277     0.0000017    0.0000003    -0.0000004   -0.0000005     0.0038307    0.0001139 
   0.020960000     0.9959317   -0.0395608     0.0000000   -0.0000002     0.0000015    0.0000000     0.0038499    0.0001129 
   0.021209500     0.9958286   -0.0399436    -0.0000003   -0.0000007    -0.0000007   -0.0000006     0.0038551    0.0000878 
   0.021459000     0.9956908   -0.0403035     0.0000007   -0.0000006     0.0000009    0.0000004     0.0038471    0.0000920 
   0.021708500     0.9957408   -0.0408052     0.0000001   -0.0000007    -0.0000004    0.0000000     0.0038668    0.0000694 
   0.021958000     0.9958036   -0.0412870    -0.0000003    0.0000001     0.0000000    0.0000000     0.0038776    0.0000606 
   0.022207500     0.9958456   -0.0417823     0.0000003   -0.0000014     0.0000004    0.0000009     0.0038892    0.0000499 
   0.022457000     0.9957495   -0.0422963     0.0000008   -0.0000013    -0.0000006    0.0000006     0.0038700    0.0000586 
   0.022706500     0.9959053   -0.0426203     0.0000006   -0.0000001    -0.0000006   -0.0000004     0.0038705    0.0000468 
   0.022956000     0.9956795   -0.0431330     0.0000007   -0.0000013     0.0000008   -0.0000007     0.0039097    0.0000408 
   0.023205500     0.9956521   -0.0435755     0.0000004   -0.0000012    -0.0000004    0.0000004     0.0039035    0.0000454 
   0.023455000     0.9955785   -0.0440697    -0.0000004   -0.0000001     0.0000002   -0.0000008     0.0039119    0.0000221 
   0.023704500     0.9955714   -0.0444212    -0.0000011    0.0000004     0.0000006    0.0000007     0.0039206    0.0000189 
   0.023954000     0.9954902   -0.0449801    -0.0000004    0.0000000     0.0000006   -0.0000005     0.0039340    0.0000118 
   0.024203500     0.9954888   -0.0454921     0.0000005    0.0000010     0.0000001    0.0000000     0.0039328    0.0000164 
   0.024453000     0.9954960   -0.0458480     0.0000000   -0.0000001    -0.0000009   -0.0000005     0.0039422   -0.0000081 
   0.024702500     0.9955601   -0.0462946    -0.0000015    0.0000009    -0.0000004    0.0000003     0.0039551   -0.0000088 
   0.024952000     0.9953726   -0.0466856     0.0000001   -0.0000007     0.0000006   -0.0000006     0.0039615   -0.0000263 
   0.025201500     0.9958343   -0.0470033    -0.0000008    0.0000002    -0.0000008   -0.0000008     0.0039166   -0.0000084 
   0.025451000     0.9955064   -0.0474119    -0.0000004   -0.0000003     0.0000007   -0.0000003     0.0039741   -0.0000497 
   0.025700500     0.9953607   -0.0480389     0.0000007    0.0000010    -0.0000004   -0.0000007     0.0039629   -0.0000575 
   0.025950000     0.9953604   -0.0484770     0.0000001   -0.0000003    -0.0000002   -0.0000006     0.0039970   -0.0000651 
   0.026199500     0.9953981   -0.0490391     0.0000002    0.0000004    -0.0000006   -0.0000006     0.0039913   -0.0000766 
   0.026449000     0.9952281   -0.0494094     0.0000001    0.0000001     0.0000000    0.0000003     0.0040091   -0.0000873 
   0.026698500     0.9951769   -0.0497748    -0.0000010   -0.0000008    -0.0000005    0.0000005     0.0040159   -0.0000989 
   0.026948000     0.9951351   -0.0502272    -0.0000004    0.0000003     0.0000003    0.0000002     0.0040281   -0.0001093 
   0.027197500     0.9951605   -0.0506382     0.0000001   -0.0000012    -0.0000004   -0.0000002     0.0040349   -0.0001130 
   0.027447000     0.9951795   -0.0510790    -0.0000006   -0.0000005     0.0000001   -0.0000006     0.0040565   -0.0001177 
   0.027696500     0.9950995   -0.0515773     0.0000018    0.0000012    -0.0000002    0.0000006     0.0040602   -0.0001432 
   0.027946000     0.9951698   -0.0520082     0.0000003    0.0000004    -0.0000011   -0.0000002     0.0040712   -0.0001431 
   0.028195500     0.9951335   -0.0523223     0.0000011   -0.0000010    -0.0000012    0.0000000     0.0040797   -0.0001523 
   0.028445000     0.9950508   -0.0528071     0.0000000    0.0000007    -0.0000007    0.0000005     0.0040981   -0.0001533 
   0.028694500     0.9949372   -0.0532492     0.0000006   -0.0000007    -0.0000002    0.0000003     0.0041041   -0.0001696 
   0.028944000     0.9947999   -0.0538167     0.0000004   -0.0000011     0.0000010   -0.0000010     0.0041303   -0.0001702 
   0.029193500     0.9948423   -0.0542337     0.0000000    0.0000010    -0.0000002   -0.0000001     0.0041308   -0.0001730 
   0.029443000     0.9947087   -0.0547247     0.0000005    0.0000006    -0.0000007    0.0000015     0.0041480   -0.0001866 
   0.029692500     0.9947356   -0.0552741     0.0000003   -0.0000011     0.0000005   -0.0000002     0.0041543   -0.0001741 
   0.029942000     0.9946621   -0.0557104    -0.0000001    0.0000003     0.0000003    0.0000000     0.0041755   -0.0001797 
   0.030191500     0.9947470   -0.0558269     0.0000006   -0.0000002    -0.0000001    0.0000000     0.0041914   -0.0001890 
   0.030441000     0.9946932   -0.0563727     0.0000007    0.0000009    -0.0000012    0.0000000     0.0042002   -0.0001841 
   0.030690500     0.9946949   -0.0566862     0.0000007    0.0000005    -0.0000009   -0.0000001     0.0042114   -0.0001982 
   0.030940000     0.9946331   -0.0571934     0.0000013    0.0000004    -0.0000007    0.0000005     0.0042229   -0.0001921 
   0.031189500     0.9946395   -0.0576545     0.0000010    0.0000004     0.0000000   -0.0000002     0.0042385   -0.0002080 
   0.031439000     0.9946051   -0.0581090     0.0000007   -0.0000008    -0.0000015    0.0000013     0.0042572   -0.0001987 
   0.031688500     0.9945373   -0.0586694    -0.0000007    0.0000013    -0.0000003    0.0000004     0.0042566   -0.0002099 
   0.031938000     0.9945315   -0.0591887     0.0000001   -0.0000014    -0.0000014   -0.0000005     0.0042933   -0.0002012 
   0.032187500     0.9945113   -0.0594085    -0.0000003   -0.0000003    -0.0000006   -0.0000006     0.0042979   -0.0002092 
   0.032437000     0.9944186   -0.0599194     0.0000010   -0.0000015    -0.0000014    0.0000000     0.0043088   -0.0002088 
   0.032686500     0.9945036   -0.0601114    -0.0000010   -0.0000006    -0.0000012    0.0000008     0.0043676   -0.0002474 
   0.032936000     0.9944616   -0.0607749     0.0000006    0.0000004     0.0000004   -0.0000005     0.0043544   -0.0001986 
   0.033185500     0.9943897   -0.0610908     0.0000005    0.0000001     0.0000001    0.0000011     0.0044026   -0.0002494 
   0.033435000     0.9943452   -0.0616319     0.0000003    0.0000002     0.0000003   -0.0000004     0.0043901   -0.0001964 
   0.033684500     0.9942496   -0.0622184     0.0000004   -0.0000005    -0.0000001    0.0000003     0.0044070   -0.0002075 
   0.033934000     0.9941877   -0.0626400    -0.0000004   -0.0000005     0.0000006    0.0000009     0.0044349   -0.0001922 
   0.034183500     0.9942154   -0.0632258    -0.0000008   -0.0000002    -0.0000002   -0.0000003     0.0044490   -0.0001910 
   0.034433000     0.9942867   -0.0635904     0.0000011   -0.0000004     0.0000003   -0.0000006     0.0044582   -0.0001773 
   0.034682500     0.9942225   -0.0641154    -0.0000014    0.0000004     0.0000000    0.0000014     0.0044774   -0.0001786 
   0.034932000     0.9942353   -0.0644471     0.0000012    0.0000000    -0.0000008    0.0000003     0.0044969   -0.0001774 
   0.035181500     0.9941829   -0.0648235     0.0000001   -0.0000009    -0.0000013   -0.0000005     0.0045138   -0.0001635 
   0.035431000     0.9942182   -0.0652361    -0.0000002    0.0000009    -0.0000005    0.0000002     0.0045329   -0.0001647 
   0.035680500     0.9941681   -0.0656483    -0.0000010    0.0000002    -0.0000003   -0.0000004     0.0045635   -0.0001616 
   0.035930000     0.9940819   -0.0661745    -0.0000008    0.0000015     0.0000003   -0.0000009     0.0045603   -0.0001508 
   0.036179500     0.9939443   -0.0666802     0.0000008   -0.0000001    -0.0000001    0.0000000     0.0045791   -0.0001408 
   0.036429000     0.9939747   -0.0670907    -0.0000003    0.0000002     0.0000002    0.0000000     0.0045834   -0.0001244 
   0.036678500     0.9939652   -0.0676101     0.0000010   -0.0000007    -0.0000006   -0.0000003     0.0046025   -0.0001236 
   0.036928000     0.9938741   -0.0681071    -0.0000005   -0.0000013     0.0000012    0.0000005     0.0046188   -0.0001179 
   0.037177500     0.9938438   -0.0685974    -0.0000023    0.0000010    -0.0000005   -0.0000001     0.0046397   -0.0001049 
   0.037427000     0.9939076   -0.0688418     0.0000001    0.0000002     0.0000006   -0.0000005     0.0046491   -0.0001007 
   0.037676500     0.9938961   -0.0692962    -0.0000013    0.0000011    -0.0000018   -0.0000010     0.0046701   -0.0001010 
   0.037926000     0.9938833   -0.0697305    -0.0000013    0.0000007     0.0000005   -0.0000009     0.0046797   -0.0000761 
   0.038175500     0.9938178   -0.0701159     0.0000007    0.0000009     0.0000007    0.0000000     0.0047151   -0.0000748 
   0.038425000     0.9937682   -0.0705596     0.0000001   -0.0000007    -0.0000008   -0.0000006     0.0047246   -0.0000664 
   0.038674500     0.9937644   -0.0709828    -0.0000001    0.0000004     0.0000004   -0.0000011     0.0047562   -0.0000554 
   0.038924000     0.9937060   -0.0716311     0.0000013   -0.0000007     0.0000011   -0.0000008     0.0047555   -0.0000440 
   0.039173500     0.9937077   -0.0720786     0.0000006    0.0000008    -0.0000005   -0.0000006     0.0047885   -0.0000409 
   0.039423000     0.9936782   -0.0725557     0.0000002    0.0000002     0.0000006    0.0000007     0.0048202   -0.0000357 
   0.039672500     0.9936721   -0.0726180    -0.0000010    0.0000003    -0.0000010   -0.0000008     0.0048486   -0.0000317 
   0.039922000     0.9938603   -0.0730707     0.0000007    0.0000003     0.0000002    0.0000005     0.0048137   -0.0000463 
   0.040171500     0.9939020   -0.0735318    -0.0000016   -0.0000011     0.0000002    0.0000007     0.0048445   -0.0000392 
