! MS46122B
! 1746301/73750021
! 8/7/2023 2:28:51 PM
! C:\USERS\SPEGWAL\DOWNLOADS\SAURABH\REACH\NODES\FRONT END\MEASUREMENTS\MEASURED SWITCH S-PARAMETER_28-07-2023\MS-3\J3_OFF.S2P
! CHANNEL.1
! TR.MEASUREMENT
! CORRECTED.DATA
# GHZ S RI R 50.0
! FREQ.GHZ         S11RE         S11IM         S21RE         S21IM         S12RE         S12IM         S22RE         S22IM         
!; PortSelection: Port_12
   0.001000000     1.0023570   -0.0068698    -0.0000002   -0.0000036     0.0000001    0.0000009     0.0018281    0.0024332 
   0.001249500     1.0020860   -0.0054281     0.0000004    0.0000018    -0.0000009    0.0000003     0.0013568    0.0023157 
   0.001499000     1.0018460   -0.0054052     0.0000004    0.0000001     0.0000023   -0.0000005     0.0011188    0.0025086 
   0.001748500     1.0018360   -0.0054245    -0.0000007   -0.0000003     0.0000003    0.0000020     0.0011345    0.0027107 
   0.001998000     1.0018060   -0.0055384     0.0000008   -0.0000006    -0.0000016   -0.0000002     0.0012614    0.0028579 
   0.002247500     1.0021010   -0.0060764     0.0000011    0.0000005    -0.0000009   -0.0000005     0.0015434    0.0027256 
   0.002497000     1.0020960   -0.0061007    -0.0000001   -0.0000002     0.0000007    0.0000000     0.0017655    0.0027968 
   0.002746500     1.0021120   -0.0061298    -0.0000006    0.0000009    -0.0000013    0.0000019     0.0019865    0.0028087 
   0.002996000     1.0023120   -0.0062747    -0.0000001    0.0000001    -0.0000010   -0.0000003     0.0022517    0.0027322 
   0.003245500     1.0023590   -0.0063306    -0.0000014    0.0000004    -0.0000002    0.0000001     0.0024628    0.0026620 
   0.003495000     1.0023140   -0.0063527    -0.0000001   -0.0000008    -0.0000002   -0.0000012     0.0026705    0.0025770 
   0.003744500     1.0023640   -0.0064721    -0.0000002    0.0000004    -0.0000009   -0.0000002     0.0028563    0.0024463 
   0.003994000     1.0024490   -0.0066580    -0.0000002    0.0000002     0.0000007    0.0000010     0.0030298    0.0022879 
   0.004243500     1.0024310   -0.0067522     0.0000001    0.0000006    -0.0000001   -0.0000002     0.0033893    0.0020773 
   0.004493000     1.0025170   -0.0069824    -0.0000008    0.0000013    -0.0000004   -0.0000005     0.0035355    0.0019407 
   0.004742500     1.0025810   -0.0070547    -0.0000014   -0.0000002     0.0000018    0.0000003     0.0036461    0.0018183 
   0.004992000     1.0026170   -0.0072929     0.0000015   -0.0000002    -0.0000007   -0.0000009     0.0037365    0.0016993 
   0.005241500     1.0026970   -0.0074909    -0.0000008    0.0000004     0.0000006   -0.0000002     0.0038061    0.0015925 
   0.005491000     1.0028040   -0.0077232     0.0000004   -0.0000004    -0.0000006    0.0000000     0.0038389    0.0014917 
   0.005740500     1.0028160   -0.0079307    -0.0000010   -0.0000007     0.0000000   -0.0000014     0.0038781    0.0013939 
   0.005990000     1.0028100   -0.0082356     0.0000012    0.0000007    -0.0000007    0.0000006     0.0039043    0.0012974 
   0.006239500     1.0028830   -0.0084301    -0.0000001    0.0000002    -0.0000005   -0.0000006     0.0039196    0.0012318 
   0.006489000     1.0029800   -0.0087711     0.0000004   -0.0000001     0.0000000   -0.0000003     0.0039230    0.0011523 
   0.006738500     1.0030010   -0.0089493    -0.0000005   -0.0000005     0.0000009    0.0000005     0.0039323    0.0010821 
   0.006988000     1.0030590   -0.0092203    -0.0000013    0.0000005    -0.0000004   -0.0000005     0.0039250    0.0010263 
   0.007237500     1.0030620   -0.0093535    -0.0000005   -0.0000001     0.0000001   -0.0000003     0.0039260    0.0009805 
   0.007487000     1.0028420   -0.0094151     0.0000002    0.0000002     0.0000000    0.0000000     0.0039114    0.0009381 
   0.007736500     1.0026300   -0.0094726     0.0000000    0.0000006    -0.0000001    0.0000005     0.0039200    0.0008956 
   0.007986000     1.0022190   -0.0093941     0.0000002   -0.0000017     0.0000013    0.0000009     0.0039151    0.0008509 
   0.008235500     1.0015490   -0.0093554     0.0000004   -0.0000004     0.0000006    0.0000002     0.0039012    0.0008137 
   0.008485000     1.0009340   -0.0091655     0.0000009   -0.0000004    -0.0000005    0.0000004     0.0039051    0.0007840 
   0.008734500     1.0002810   -0.0091789    -0.0000009    0.0000006     0.0000009    0.0000010     0.0038966    0.0007481 
   0.008984000     0.9996636   -0.0090300     0.0000002    0.0000001    -0.0000009   -0.0000009     0.0038920    0.0007147 
   0.009233500     0.9975901   -0.0078799    -0.0000004    0.0000007     0.0000004    0.0000014     0.0038746    0.0006765 
   0.009483000     0.9975800   -0.0081004     0.0000002   -0.0000002    -0.0000008   -0.0000007     0.0038762    0.0006492 
   0.009732500     0.9975718   -0.0083520    -0.0000007    0.0000004    -0.0000007    0.0000010     0.0038707    0.0006267 
   0.009982000     0.9975986   -0.0083632    -0.0000010    0.0000004    -0.0000004   -0.0000010     0.0038702    0.0005995 
   0.010231500     0.9974880   -0.0086148    -0.0000012    0.0000009    -0.0000011   -0.0000007     0.0038614    0.0005826 
   0.010481000     0.9974231   -0.0088410    -0.0000002    0.0000007     0.0000004   -0.0000002     0.0038559    0.0005605 
   0.010730500     0.9974599   -0.0090532    -0.0000007   -0.0000002     0.0000002   -0.0000002     0.0038625    0.0005548 
   0.010980000     0.9974608   -0.0092871     0.0000006    0.0000000     0.0000000   -0.0000006     0.0038502    0.0005342 
   0.011229500     0.9974020   -0.0094193    -0.0000002    0.0000007     0.0000007    0.0000001     0.0038649    0.0005073 
   0.011479000     0.9973322   -0.0096180     0.0000002    0.0000012     0.0000007   -0.0000001     0.0038671    0.0004947 
   0.011728500     0.9973840   -0.0096997    -0.0000002   -0.0000001    -0.0000001    0.0000004     0.0038559    0.0004583 
   0.011978000     0.9974446   -0.0097722     0.0000006    0.0000009     0.0000011    0.0000002     0.0038517    0.0004691 
   0.012227500     0.9974810   -0.0101027    -0.0000005   -0.0000002     0.0000014    0.0000006     0.0038542    0.0004445 
   0.012477000     0.9973771   -0.0103523    -0.0000004   -0.0000004    -0.0000002    0.0000009     0.0038470    0.0004206 
   0.012726500     0.9974354   -0.0104713     0.0000003    0.0000005     0.0000009    0.0000003     0.0038576    0.0004095 
   0.012976000     0.9975013   -0.0106504    -0.0000009   -0.0000007     0.0000000   -0.0000004     0.0038738    0.0003889 
   0.013225500     0.9973111   -0.0107629     0.0000009    0.0000017     0.0000002   -0.0000002     0.0038573    0.0003643 
   0.013475000     0.9973509   -0.0110240     0.0000000    0.0000007    -0.0000009    0.0000004     0.0038559    0.0003514 
   0.013724500     0.9973378   -0.0111061    -0.0000007   -0.0000001    -0.0000006    0.0000007     0.0038536    0.0003559 
   0.013974000     0.9973241   -0.0113197     0.0000001   -0.0000007    -0.0000001    0.0000006     0.0038565    0.0003390 
   0.014223500     0.9972941   -0.0116049    -0.0000008    0.0000006    -0.0000008   -0.0000007     0.0038583    0.0003208 
   0.014473000     0.9972749   -0.0117067     0.0000004    0.0000002     0.0000000   -0.0000001     0.0038423    0.0003234 
   0.014722500     0.9971622   -0.0118567    -0.0000006    0.0000005     0.0000003    0.0000008     0.0038698    0.0003100 
   0.014972000     0.9972908   -0.0121343    -0.0000011   -0.0000003     0.0000010   -0.0000008     0.0038559    0.0002970 
   0.015221500     0.9971727   -0.0123021     0.0000003    0.0000002    -0.0000015    0.0000001     0.0038477    0.0002943 
   0.015471000     0.9971396   -0.0123210     0.0000013   -0.0000001    -0.0000001    0.0000011     0.0038481    0.0002831 
   0.015720500     0.9970797   -0.0126257     0.0000009    0.0000003    -0.0000004   -0.0000011     0.0038401    0.0002765 
   0.015970000     0.9970573   -0.0126964     0.0000003    0.0000003     0.0000007    0.0000003     0.0038455    0.0002640 
   0.016219500     0.9969283   -0.0129318    -0.0000007   -0.0000005    -0.0000010   -0.0000002     0.0038237    0.0002556 
   0.016469000     0.9971393   -0.0131124     0.0000003    0.0000000     0.0000001   -0.0000006     0.0038193    0.0002399 
   0.016718500     0.9970198   -0.0133685     0.0000003   -0.0000004    -0.0000002    0.0000008     0.0038275    0.0002274 
   0.016968000     0.9971513   -0.0135201     0.0000009    0.0000004    -0.0000002    0.0000013     0.0038070    0.0002104 
   0.017217500     0.9970407   -0.0136361     0.0000006    0.0000000     0.0000003    0.0000002     0.0038158    0.0001891 
   0.017467000     0.9971157   -0.0138569     0.0000002    0.0000002     0.0000004   -0.0000007     0.0038215    0.0001973 
   0.017716500     0.9971694   -0.0139861    -0.0000004   -0.0000002     0.0000001   -0.0000008     0.0038218    0.0001870 
   0.017966000     0.9971090   -0.0142804     0.0000002    0.0000000     0.0000004    0.0000003     0.0038258    0.0001732 
   0.018215500     0.9971693   -0.0144497     0.0000003    0.0000001     0.0000002    0.0000002     0.0038368    0.0001574 
   0.018465000     0.9971254   -0.0145942     0.0000002   -0.0000005    -0.0000003    0.0000002     0.0038474    0.0001472 
   0.018714500     0.9971146   -0.0146933     0.0000000   -0.0000001     0.0000008    0.0000003     0.0038453    0.0001290 
   0.018964000     0.9969484   -0.0147853     0.0000008    0.0000000     0.0000002    0.0000000     0.0038578    0.0001356 
   0.019213500     0.9970807   -0.0151387     0.0000000    0.0000002     0.0000002    0.0000002     0.0038694    0.0001098 
   0.019463000     0.9969101   -0.0153321     0.0000004   -0.0000002     0.0000008    0.0000003     0.0038747    0.0001038 
   0.019712500     0.9969295   -0.0154712    -0.0000019   -0.0000008     0.0000015    0.0000004     0.0038804    0.0000947 
   0.019962000     0.9969161   -0.0155571    -0.0000010    0.0000014    -0.0000004   -0.0000004     0.0038956    0.0001026 
   0.020211500     0.9969003   -0.0158273     0.0000011    0.0000009    -0.0000007   -0.0000001     0.0038894    0.0000874 
   0.020461000     0.9969136   -0.0158472     0.0000006   -0.0000001    -0.0000007   -0.0000005     0.0038952    0.0000899 
   0.020710500     0.9968290   -0.0160111     0.0000004   -0.0000001    -0.0000001   -0.0000003     0.0038961    0.0000667 
   0.020960000     0.9968413   -0.0162440    -0.0000004   -0.0000007    -0.0000011   -0.0000010     0.0039064    0.0000618 
   0.021209500     0.9967995   -0.0164382     0.0000005    0.0000000     0.0000000    0.0000003     0.0039246    0.0000381 
   0.021459000     0.9968114   -0.0165222     0.0000009    0.0000011    -0.0000007    0.0000002     0.0039292    0.0000515 
   0.021708500     0.9967199   -0.0167491    -0.0000005    0.0000001     0.0000005    0.0000001     0.0039357    0.0000244 
   0.021958000     0.9968708   -0.0169974    -0.0000002    0.0000003     0.0000000   -0.0000016     0.0039332    0.0000218 
   0.022207500     0.9967903   -0.0172344    -0.0000004   -0.0000002     0.0000007    0.0000000     0.0039454    0.0000076 
   0.022457000     0.9968556   -0.0173610     0.0000001   -0.0000011     0.0000003    0.0000012     0.0039412    0.0000160 
   0.022706500     0.9968306   -0.0174659     0.0000003   -0.0000002    -0.0000006    0.0000004     0.0039546    0.0000122 
   0.022956000     0.9967943   -0.0177345     0.0000012    0.0000008     0.0000006   -0.0000007     0.0039894    0.0000029 
   0.023205500     0.9967498   -0.0179049     0.0000000   -0.0000012    -0.0000001    0.0000009     0.0039775    0.0000048 
   0.023455000     0.9966298   -0.0179859     0.0000000   -0.0000003     0.0000011   -0.0000009     0.0039943   -0.0000140 
   0.023704500     0.9966907   -0.0181635    -0.0000014    0.0000002    -0.0000013    0.0000002     0.0039949   -0.0000147 
   0.023954000     0.9966477   -0.0183501    -0.0000010   -0.0000009    -0.0000003    0.0000003     0.0040175   -0.0000188 
   0.024203500     0.9966606   -0.0185830    -0.0000001    0.0000004     0.0000004    0.0000002     0.0040182   -0.0000219 
   0.024453000     0.9966092   -0.0188220    -0.0000015    0.0000003    -0.0000006    0.0000003     0.0040236   -0.0000390 
   0.024702500     0.9966584   -0.0189196    -0.0000006   -0.0000002    -0.0000004   -0.0000013     0.0040265   -0.0000450 
   0.024952000     0.9965689   -0.0191696     0.0000001    0.0000012     0.0000001   -0.0000003     0.0040393   -0.0000630 
   0.025201500     0.9969923   -0.0191035     0.0000009   -0.0000004     0.0000007    0.0000010     0.0040062   -0.0000379 
   0.025451000     0.9966122   -0.0193246     0.0000000    0.0000000    -0.0000002   -0.0000015     0.0040550   -0.0000827 
   0.025700500     0.9965695   -0.0196939    -0.0000007    0.0000005    -0.0000002   -0.0000011     0.0040497   -0.0000842 
   0.025950000     0.9967034   -0.0197958    -0.0000002   -0.0000007    -0.0000007    0.0000008     0.0040728   -0.0000901 
   0.026199500     0.9966111   -0.0199671    -0.0000022   -0.0000007     0.0000000   -0.0000003     0.0040834   -0.0001029 
   0.026449000     0.9965408   -0.0202102     0.0000000   -0.0000005    -0.0000010   -0.0000005     0.0040967   -0.0001092 
   0.026698500     0.9965773   -0.0202866    -0.0000011   -0.0000008     0.0000003    0.0000008     0.0041065   -0.0001238 
   0.026948000     0.9965051   -0.0204363     0.0000010   -0.0000002    -0.0000004   -0.0000005     0.0041123   -0.0001258 
   0.027197500     0.9965614   -0.0205873     0.0000002    0.0000012    -0.0000002    0.0000008     0.0041233   -0.0001344 
   0.027447000     0.9965987   -0.0208016     0.0000012    0.0000003    -0.0000009   -0.0000004     0.0041404   -0.0001487 
   0.027696500     0.9964953   -0.0209336    -0.0000004    0.0000008     0.0000007    0.0000002     0.0041504   -0.0001546 
   0.027946000     0.9966034   -0.0211010     0.0000006   -0.0000004     0.0000003   -0.0000003     0.0041658   -0.0001619 
   0.028195500     0.9964179   -0.0212020    -0.0000005   -0.0000010     0.0000004   -0.0000001     0.0041574   -0.0001745 
   0.028445000     0.9964748   -0.0213591    -0.0000012   -0.0000005     0.0000013    0.0000003     0.0041738   -0.0001720 
   0.028694500     0.9963481   -0.0216130    -0.0000017    0.0000002     0.0000015    0.0000005     0.0041799   -0.0001837 
   0.028944000     0.9963318   -0.0217744     0.0000004    0.0000008     0.0000002   -0.0000006     0.0042105   -0.0001801 
   0.029193500     0.9963486   -0.0218387    -0.0000004    0.0000008     0.0000000    0.0000001     0.0042122   -0.0001878 
   0.029443000     0.9963143   -0.0222012    -0.0000015   -0.0000005    -0.0000013    0.0000004     0.0042251   -0.0001967 
   0.029692500     0.9963133   -0.0224496     0.0000003   -0.0000007     0.0000005   -0.0000005     0.0042407   -0.0001831 
   0.029942000     0.9962977   -0.0226291     0.0000008    0.0000017     0.0000007   -0.0000003     0.0042603   -0.0001996 
   0.030191500     0.9963215   -0.0226369    -0.0000012    0.0000000     0.0000003    0.0000000     0.0042760   -0.0001983 
   0.030441000     0.9962389   -0.0229343    -0.0000004   -0.0000015    -0.0000003   -0.0000008     0.0042693   -0.0001929 
   0.030690500     0.9962838   -0.0229432     0.0000000   -0.0000007     0.0000005   -0.0000001     0.0042921   -0.0002031 
   0.030940000     0.9963173   -0.0230877     0.0000002    0.0000007    -0.0000002   -0.0000005     0.0043035   -0.0002042 
   0.031189500     0.9963205   -0.0231970    -0.0000003   -0.0000013     0.0000004   -0.0000001     0.0043146   -0.0001953 
   0.031439000     0.9962254   -0.0234233     0.0000006   -0.0000001     0.0000017   -0.0000001     0.0043452   -0.0002077 
   0.031688500     0.9963108   -0.0236404     0.0000009    0.0000006    -0.0000009   -0.0000001     0.0043420   -0.0002049 
   0.031938000     0.9962195   -0.0238390     0.0000006   -0.0000002    -0.0000005    0.0000010     0.0043699   -0.0002053 
   0.032187500     0.9963014   -0.0238995    -0.0000007   -0.0000005     0.0000001   -0.0000005     0.0043831   -0.0001986 
   0.032437000     0.9962277   -0.0241627     0.0000002    0.0000010     0.0000011   -0.0000010     0.0043865   -0.0002103 
   0.032686500     0.9962874   -0.0241322     0.0000003   -0.0000013    -0.0000002    0.0000017     0.0044488   -0.0002393 
   0.032936000     0.9962301   -0.0245379    -0.0000003   -0.0000006     0.0000012    0.0000006     0.0044254   -0.0001950 
   0.033185500     0.9962311   -0.0244967    -0.0000004    0.0000007    -0.0000001    0.0000007     0.0044744   -0.0002466 
   0.033435000     0.9962141   -0.0248192    -0.0000013    0.0000009    -0.0000008   -0.0000001     0.0044667   -0.0002011 
   0.033684500     0.9961417   -0.0251302    -0.0000008   -0.0000001    -0.0000006    0.0000006     0.0044916   -0.0002033 
   0.033934000     0.9961583   -0.0252315     0.0000003   -0.0000001    -0.0000001    0.0000006     0.0045136   -0.0001880 
   0.034183500     0.9962231   -0.0254363    -0.0000003    0.0000013     0.0000007   -0.0000008     0.0045311   -0.0001853 
   0.034433000     0.9962077   -0.0255644    -0.0000004    0.0000005     0.0000001    0.0000004     0.0045349   -0.0001783 
   0.034682500     0.9961986   -0.0257996    -0.0000009    0.0000009     0.0000007    0.0000002     0.0045485   -0.0001714 
   0.034932000     0.9961884   -0.0259180     0.0000007    0.0000006     0.0000005    0.0000005     0.0045736   -0.0001682 
   0.035181500     0.9962152   -0.0260632     0.0000000   -0.0000015    -0.0000002   -0.0000011     0.0045847   -0.0001627 
   0.035431000     0.9962624   -0.0262052     0.0000008   -0.0000003     0.0000002    0.0000002     0.0046004   -0.0001495 
   0.035680500     0.9961892   -0.0262856    -0.0000019    0.0000000    -0.0000003   -0.0000007     0.0046275   -0.0001449 
   0.035930000     0.9961618   -0.0265108     0.0000002    0.0000001    -0.0000001   -0.0000005     0.0046279   -0.0001413 
   0.036179500     0.9961349   -0.0267374    -0.0000004   -0.0000007     0.0000001   -0.0000003     0.0046336   -0.0001332 
   0.036429000     0.9961938   -0.0268501     0.0000007   -0.0000013    -0.0000002   -0.0000010     0.0046444   -0.0001230 
   0.036678500     0.9961739   -0.0271150     0.0000000   -0.0000006     0.0000003    0.0000005     0.0046555   -0.0001070 
   0.036928000     0.9960526   -0.0273656     0.0000000   -0.0000003     0.0000004    0.0000003     0.0046805   -0.0001075 
   0.037177500     0.9960871   -0.0276470     0.0000001   -0.0000013     0.0000009   -0.0000010     0.0046866   -0.0000938 
   0.037427000     0.9961006   -0.0276271     0.0000003    0.0000002     0.0000001    0.0000000     0.0047050   -0.0000751 
   0.037676500     0.9961054   -0.0278404    -0.0000010   -0.0000008     0.0000001    0.0000007     0.0047235   -0.0000800 
   0.037926000     0.9961094   -0.0280284    -0.0000001    0.0000004     0.0000003   -0.0000002     0.0047534   -0.0000697 
   0.038175500     0.9961172   -0.0281967    -0.0000009   -0.0000007     0.0000006    0.0000003     0.0047745   -0.0000527 
   0.038425000     0.9961081   -0.0283862    -0.0000011    0.0000010     0.0000003   -0.0000001     0.0047838   -0.0000595 
   0.038674500     0.9961569   -0.0284028    -0.0000007   -0.0000004     0.0000004    0.0000004     0.0048052   -0.0000428 
   0.038924000     0.9961372   -0.0286393    -0.0000011   -0.0000005    -0.0000011    0.0000006     0.0047962   -0.0000174 
   0.039173500     0.9961329   -0.0288020     0.0000004    0.0000003    -0.0000009    0.0000006     0.0048411   -0.0000230 
   0.039423000     0.9961169   -0.0289868    -0.0000003    0.0000007     0.0000006    0.0000001     0.0048717   -0.0000234 
   0.039672500     0.9961360   -0.0289825     0.0000006   -0.0000007    -0.0000005   -0.0000001     0.0048947   -0.0000174 
   0.039922000     0.9963130   -0.0291526    -0.0000004    0.0000004     0.0000003   -0.0000003     0.0048580   -0.0000312 
   0.040171500     0.9963740   -0.0292816     0.0000004    0.0000012     0.0000000    0.0000000     0.0048840   -0.0000155 
