! MS46122B
! 1746301/73750021
! 8/7/2023 2:29:37 PM
! C:\USERS\SPEGWAL\DOWNLOADS\SAURABH\REACH\NODES\FRONT END\MEASUREMENTS\MEASURED SWITCH S-PARAMETER_28-07-2023\MS-3\J3_ON.S2P
! CHANNEL.1
! TR.MEASUREMENT
! CORRECTED.DATA
# GHZ S RI R 50.0
! FREQ.GHZ         S11RE         S11IM         S21RE         S21IM         S12RE         S12IM         S22RE         S22IM         
!; PortSelection: Port_12
   0.001000000    -0.0016532    0.0019291     1.0011640   -0.0030549     0.9983077   -0.0038582    -0.0008056    0.0024861 
   0.001249500    -0.0017242    0.0021155     1.0001860   -0.0028907     0.9991798   -0.0035254    -0.0010039    0.0023081 
   0.001499000    -0.0018940    0.0022970     1.0001100   -0.0029778     0.9990394   -0.0038399    -0.0011727    0.0023901 
   0.001748500    -0.0019120    0.0024722     1.0000230   -0.0031483     0.9991124   -0.0042049    -0.0011747    0.0024563 
   0.001998000    -0.0017960    0.0026196     0.9999608   -0.0034385     0.9989361   -0.0044995    -0.0011330    0.0025104 
   0.002247500    -0.0015092    0.0023579     0.9998791   -0.0037612     0.9989375   -0.0049350    -0.0008635    0.0022555 
   0.002497000    -0.0013142    0.0023963     0.9998139   -0.0038069     0.9989151   -0.0051774    -0.0007386    0.0022296 
   0.002746500    -0.0011154    0.0024254     0.9996946   -0.0039722     0.9988438   -0.0054326    -0.0005801    0.0022366 
   0.002996000    -0.0009227    0.0024144     0.9996238   -0.0041141     0.9987756   -0.0056555    -0.0004372    0.0021833 
   0.003245500    -0.0007153    0.0023444     0.9995123   -0.0042062     0.9986566   -0.0058777    -0.0003064    0.0021294 
   0.003495000    -0.0005237    0.0022902     0.9993304   -0.0043133     0.9985960   -0.0060912    -0.0001698    0.0020805 
   0.003744500    -0.0003366    0.0022039     0.9993189   -0.0044546     0.9984893   -0.0063258    -0.0000454    0.0019896 
   0.003994000    -0.0001785    0.0020842     0.9992595   -0.0046102     0.9984009   -0.0066068     0.0000799    0.0018866 
   0.004243500    -0.0000348    0.0019581     0.9990575   -0.0047742     0.9983885   -0.0068201     0.0004079    0.0015547 
   0.004493000     0.0001089    0.0018254     0.9990125   -0.0049740     0.9983267   -0.0069966     0.0005053    0.0014908 
   0.004742500     0.0002135    0.0016902     0.9989249   -0.0051492     0.9983325   -0.0071475     0.0005663    0.0014087 
   0.004992000     0.0003120    0.0015551     0.9989060   -0.0054061     0.9982612   -0.0072860     0.0006459    0.0013317 
   0.005241500     0.0003963    0.0014265     0.9990360   -0.0056133     0.9981176   -0.0074085     0.0006766    0.0012524 
   0.005491000     0.0004574    0.0013135     0.9989648   -0.0057477     0.9980587   -0.0075277     0.0007157    0.0011617 
   0.005740500     0.0004986    0.0012153     0.9990162   -0.0059236     0.9979610   -0.0078246     0.0007371    0.0010911 
   0.005990000     0.0005290    0.0011148     0.9989678   -0.0061618     0.9979148   -0.0079389     0.0007726    0.0010252 
   0.006239500     0.0005671    0.0010303     0.9989197   -0.0064215     0.9978099   -0.0080985     0.0007940    0.0009651 
   0.006489000     0.0005848    0.0009452     0.9988577   -0.0065951     0.9977685   -0.0084545     0.0008093    0.0009091 
   0.006738500     0.0006018    0.0008933     0.9989191   -0.0069092     0.9978021   -0.0086640     0.0008308    0.0008607 
   0.006988000     0.0006046    0.0008196     0.9989288   -0.0071300     0.9977946   -0.0088046     0.0008211    0.0008268 
   0.007237500     0.0006120    0.0007532     0.9988768   -0.0073316     0.9977536   -0.0089851     0.0008156    0.0007786 
   0.007487000     0.0006131    0.0007150     0.9988673   -0.0075434     0.9976951   -0.0092160     0.0008209    0.0007413 
   0.007736500     0.0006068    0.0006572     0.9988938   -0.0077820     0.9977003   -0.0094959     0.0008248    0.0007037 
   0.007986000     0.0006034    0.0006208     0.9988391   -0.0080448     0.9977469   -0.0097020     0.0008316    0.0006500 
   0.008235500     0.0005878    0.0005945     0.9988564   -0.0082767     0.9976807   -0.0098929     0.0008179    0.0006277 
   0.008485000     0.0005943    0.0005513     0.9988471   -0.0085780     0.9976614   -0.0101185     0.0008048    0.0005958 
   0.008734500     0.0005806    0.0005192     0.9988986   -0.0087039     0.9976702   -0.0102869     0.0008071    0.0005745 
   0.008984000     0.0005753    0.0004787     0.9988620   -0.0089770     0.9976627   -0.0105381     0.0008017    0.0005387 
   0.009233500     0.0005707    0.0004426     0.9989911   -0.0093394     0.9976889   -0.0107543     0.0008026    0.0005081 
   0.009483000     0.0005604    0.0004032     0.9988896   -0.0096112     0.9975300   -0.0109585     0.0008077    0.0004804 
   0.009732500     0.0005472    0.0003918     0.9989721   -0.0096829     0.9976888   -0.0112454     0.0008074    0.0004623 
   0.009982000     0.0005433    0.0003549     0.9988273   -0.0099304     0.9976199   -0.0114260     0.0007928    0.0004368 
   0.010231500     0.0005419    0.0003353     0.9989179   -0.0104977     0.9975843   -0.0117489     0.0007926    0.0004250 
   0.010481000     0.0005079    0.0003152     0.9988902   -0.0104490     0.9976330   -0.0119557     0.0007828    0.0003935 
   0.010730500     0.0005077    0.0002921     0.9987901   -0.0108735     0.9976196   -0.0121977     0.0007828    0.0003830 
   0.010980000     0.0004980    0.0002838     0.9988723   -0.0108583     0.9975745   -0.0123292     0.0007754    0.0003593 
   0.011229500     0.0005003    0.0002557     0.9987990   -0.0111757     0.9975985   -0.0126153     0.0007750    0.0003262 
   0.011479000     0.0004710    0.0002302     0.9988497   -0.0113853     0.9975487   -0.0127923     0.0007632    0.0003154 
   0.011728500     0.0004603    0.0002017     0.9989287   -0.0117246     0.9975548   -0.0130729     0.0007551    0.0002909 
   0.011978000     0.0004444    0.0001887     0.9989563   -0.0119153     0.9975746   -0.0132496     0.0007382    0.0002721 
   0.012227500     0.0004258    0.0001799     0.9988441   -0.0121793     0.9975388   -0.0134102     0.0007370    0.0002569 
   0.012477000     0.0004221    0.0001634     0.9988188   -0.0122074     0.9974532   -0.0136754     0.0007333    0.0002333 
   0.012726500     0.0004108    0.0001507     0.9987779   -0.0124906     0.9974601   -0.0139434     0.0007297    0.0002172 
   0.012976000     0.0004024    0.0001397     0.9987565   -0.0127648     0.9975011   -0.0142397     0.0007245    0.0002017 
   0.013225500     0.0003822    0.0001192     0.9987812   -0.0128161     0.9973615   -0.0143556     0.0007411    0.0001704 
   0.013475000     0.0003715    0.0001006     0.9988077   -0.0131611     0.9974481   -0.0146088     0.0007225    0.0001540 
   0.013724500     0.0003507    0.0000882     0.9987404   -0.0135827     0.9974371   -0.0148213     0.0007182    0.0001393 
   0.013974000     0.0003355    0.0000810     0.9989423   -0.0137549     0.9975243   -0.0150739     0.0007076    0.0001231 
   0.014223500     0.0003293    0.0000792     0.9988838   -0.0139611     0.9973897   -0.0152021     0.0006857    0.0001046 
   0.014473000     0.0003163    0.0000564     0.9988018   -0.0142163     0.9972492   -0.0155458     0.0006985    0.0000981 
   0.014722500     0.0002955    0.0000352     0.9986502   -0.0143388     0.9973814   -0.0155974     0.0006841    0.0000877 
   0.014972000     0.0002888    0.0000341     0.9985891   -0.0146887     0.9974514   -0.0160432     0.0006818    0.0000543 
   0.015221500     0.0002751    0.0000335     0.9988305   -0.0148165     0.9973618   -0.0162523     0.0006702    0.0000471 
   0.015471000     0.0002556    0.0000190     0.9988167   -0.0149692     0.9973106   -0.0163537     0.0006662    0.0000318 
   0.015720500     0.0002411    0.0000109     0.9987080   -0.0153062     0.9972889   -0.0166842     0.0006748    0.0000176 
   0.015970000     0.0002223   -0.0000026     0.9987044   -0.0153107     0.9973010   -0.0168635     0.0006686   -0.0000028 
   0.016219500     0.0002031   -0.0000091     0.9987302   -0.0157302     0.9973208   -0.0169930     0.0006577   -0.0000081 
   0.016469000     0.0001969   -0.0000111     0.9987939   -0.0159071     0.9973845   -0.0172343     0.0006419   -0.0000397 
   0.016718500     0.0001798   -0.0000178     0.9987752   -0.0162218     0.9972193   -0.0174633     0.0006424   -0.0000469 
   0.016968000     0.0001643   -0.0000368     0.9986893   -0.0164997     0.9971858   -0.0176945     0.0006399   -0.0000784 
   0.017217500     0.0001373   -0.0000284     0.9987628   -0.0166398     0.9972531   -0.0178197     0.0006307   -0.0000828 
   0.017467000     0.0001158   -0.0000357     0.9986987   -0.0168899     0.9972676   -0.0181744     0.0006289   -0.0000995 
   0.017716500     0.0001015   -0.0000407     0.9986224   -0.0170444     0.9972226   -0.0183732     0.0006136   -0.0001076 
   0.017966000     0.0000844   -0.0000444     0.9987569   -0.0172951     0.9972951   -0.0185568     0.0006070   -0.0001202 
   0.018215500     0.0000699   -0.0000522     0.9986406   -0.0174240     0.9971771   -0.0187129     0.0006021   -0.0001461 
   0.018465000     0.0000582   -0.0000616     0.9985458   -0.0177454     0.9971383   -0.0190972     0.0006051   -0.0001524 
   0.018714500     0.0000474   -0.0000554     0.9985561   -0.0180899     0.9971163   -0.0193403     0.0006097   -0.0001755 
   0.018964000     0.0000153   -0.0000628     0.9985632   -0.0181410     0.9971526   -0.0195255     0.0006094   -0.0001901 
   0.019213500    -0.0000124   -0.0000570     0.9986894   -0.0183501     0.9971935   -0.0197297     0.0006029   -0.0001947 
   0.019463000    -0.0000009   -0.0000671     0.9985093   -0.0188125     0.9971490   -0.0199229     0.0006038   -0.0002077 
   0.019712500    -0.0000188   -0.0000662     0.9985679   -0.0188870     0.9970559   -0.0201710     0.0005966   -0.0002309 
   0.019962000    -0.0000304   -0.0000692     0.9986570   -0.0192806     0.9971361   -0.0204608     0.0005959   -0.0002428 
   0.020211500    -0.0000469   -0.0000606     0.9985583   -0.0194152     0.9971024   -0.0206765     0.0005833   -0.0002585 
   0.020461000    -0.0000631   -0.0000517     0.9985462   -0.0195859     0.9971511   -0.0207129     0.0005800   -0.0002640 
   0.020710500    -0.0000796   -0.0000535     0.9986179   -0.0198979     0.9969611   -0.0209712     0.0005731   -0.0002817 
   0.020960000    -0.0000926   -0.0000457     0.9986504   -0.0200584     0.9970580   -0.0212668     0.0005799   -0.0002811 
   0.021209500    -0.0001103   -0.0000513     0.9986342   -0.0203064     0.9969368   -0.0214760     0.0005837   -0.0003077 
   0.021459000    -0.0001196   -0.0000432     0.9986098   -0.0205594     0.9970418   -0.0217276     0.0005750   -0.0003097 
   0.021708500    -0.0001417   -0.0000442     0.9986359   -0.0206730     0.9969198   -0.0219800     0.0005783   -0.0003119 
   0.021958000    -0.0001443   -0.0000364     0.9985924   -0.0210488     0.9970315   -0.0220944     0.0005643   -0.0003505 
   0.022207500    -0.0001829   -0.0000349     0.9985666   -0.0210575     0.9969682   -0.0223513     0.0005639   -0.0003528 
   0.022457000    -0.0001837   -0.0000293     0.9984764   -0.0213820     0.9970787   -0.0227541     0.0005686   -0.0003507 
   0.022706500    -0.0001917   -0.0000271     0.9985533   -0.0215027     0.9971555   -0.0229129     0.0005652   -0.0003637 
   0.022956000    -0.0002106   -0.0000212     0.9985662   -0.0215870     0.9971735   -0.0232088     0.0005637   -0.0003677 
   0.023205500    -0.0002081   -0.0000250     0.9985271   -0.0218251     0.9971998   -0.0234754     0.0005532   -0.0003818 
   0.023455000    -0.0002249   -0.0000041     0.9984965   -0.0221629     0.9971390   -0.0237175     0.0005596   -0.0003935 
   0.023704500    -0.0002438   -0.0000159     0.9984936   -0.0223797     0.9971077   -0.0238700     0.0005678   -0.0004012 
   0.023954000    -0.0002637    0.0000086     0.9984604   -0.0225227     0.9970754   -0.0240218     0.0005611   -0.0004144 
   0.024203500    -0.0002619    0.0000094     0.9984024   -0.0228531     0.9971291   -0.0241937     0.0005645   -0.0004154 
   0.024453000    -0.0002639    0.0000250     0.9985484   -0.0230199     0.9970383   -0.0244563     0.0005518   -0.0004197 
   0.024702500    -0.0002847    0.0000217     0.9984676   -0.0232152     0.9969473   -0.0246232     0.0005443   -0.0004393 
   0.024952000    -0.0002880    0.0000320     0.9983697   -0.0235582     0.9970295   -0.0248844     0.0005482   -0.0004469 
   0.025201500    -0.0002911    0.0000766     0.9986809   -0.0235385     0.9975331   -0.0248280     0.0005151   -0.0004287 
   0.025451000    -0.0003076    0.0000418     0.9983059   -0.0239706     0.9970066   -0.0253268     0.0005601   -0.0004654 
   0.025700500    -0.0003003    0.0000638     0.9982947   -0.0242161     0.9969597   -0.0255821     0.0005650   -0.0004702 
   0.025950000    -0.0003252    0.0000596     0.9983547   -0.0244152     0.9969158   -0.0258486     0.0005761   -0.0004785 
   0.026199500    -0.0003150    0.0000758     0.9982972   -0.0247030     0.9968821   -0.0259778     0.0005630   -0.0004874 
   0.026449000    -0.0003243    0.0000906     0.9984151   -0.0249426     0.9968232   -0.0261359     0.0005646   -0.0004886 
   0.026698500    -0.0003281    0.0000937     0.9984013   -0.0251587     0.9970282   -0.0263986     0.0005642   -0.0005016 
   0.026948000    -0.0003342    0.0000928     0.9982990   -0.0253743     0.9969166   -0.0266051     0.0005697   -0.0004974 
   0.027197500    -0.0003288    0.0001032     0.9983086   -0.0257532     0.9968391   -0.0268275     0.0005665   -0.0004892 
   0.027447000    -0.0003511    0.0001119     0.9982757   -0.0258892     0.9967958   -0.0270285     0.0005821   -0.0005126 
   0.027696500    -0.0003424    0.0001329     0.9982698   -0.0261497     0.9967634   -0.0273420     0.0005891   -0.0005158 
   0.027946000    -0.0003495    0.0001412     0.9982576   -0.0264206     0.9967767   -0.0274795     0.0005884   -0.0005303 
   0.028195500    -0.0003422    0.0001353     0.9983386   -0.0265664     0.9967435   -0.0276498     0.0005877   -0.0005392 
   0.028445000    -0.0003441    0.0001503     0.9982435   -0.0268239     0.9967873   -0.0278912     0.0006017   -0.0005284 
   0.028694500    -0.0003530    0.0001564     0.9982337   -0.0270884     0.9968110   -0.0280917     0.0006118   -0.0005340 
   0.028944000    -0.0003465    0.0001806     0.9983432   -0.0272556     0.9968135   -0.0283102     0.0006154   -0.0005359 
   0.029193500    -0.0003444    0.0001800     0.9983807   -0.0275164     0.9968138   -0.0285163     0.0006253   -0.0005229 
   0.029443000    -0.0003497    0.0001845     0.9983041   -0.0276326     0.9967563   -0.0288068     0.0006271   -0.0005404 
   0.029692500    -0.0003413    0.0002053     0.9982661   -0.0278669     0.9967080   -0.0291333     0.0006304   -0.0005451 
   0.029942000    -0.0003439    0.0002052     0.9982311   -0.0280365     0.9967035   -0.0293261     0.0006202   -0.0005489 
   0.030191500    -0.0003397    0.0002053     0.9982497   -0.0282449     0.9966215   -0.0296006     0.0006417   -0.0005566 
   0.030441000    -0.0003392    0.0002251     0.9981979   -0.0284124     0.9966468   -0.0298677     0.0006470   -0.0005299 
   0.030690500    -0.0003349    0.0002295     0.9981593   -0.0286241     0.9967058   -0.0300629     0.0006612   -0.0005447 
   0.030940000    -0.0003356    0.0002410     0.9983244   -0.0289227     0.9966859   -0.0302799     0.0006650   -0.0005339 
   0.031189500    -0.0003280    0.0002479     0.9981942   -0.0290819     0.9967030   -0.0304651     0.0006705   -0.0005275 
   0.031439000    -0.0003121    0.0002500     0.9981401   -0.0293120     0.9967833   -0.0306943     0.0006822   -0.0005355 
   0.031688500    -0.0003073    0.0002686     0.9981155   -0.0295737     0.9967134   -0.0308797     0.0006794   -0.0005230 
   0.031938000    -0.0003052    0.0002774     0.9980416   -0.0298185     0.9966248   -0.0311269     0.0006925   -0.0005165 
   0.032187500    -0.0002998    0.0002772     0.9980670   -0.0299483     0.9965419   -0.0314143     0.0007101   -0.0005166 
   0.032437000    -0.0002898    0.0002831     0.9980174   -0.0301869     0.9965501   -0.0315584     0.0007024   -0.0005310 
   0.032686500    -0.0002821    0.0003527     0.9981179   -0.0308231     0.9962258   -0.0308970     0.0007390   -0.0005512 
   0.032936000    -0.0002645    0.0003182     0.9980584   -0.0306350     0.9964876   -0.0319299     0.0007086   -0.0005142 
   0.033185500    -0.0002600    0.0003691     0.9980347   -0.0314082     0.9961324   -0.0313584     0.0007552   -0.0005682 
   0.033435000    -0.0002484    0.0003300     0.9979208   -0.0311401     0.9964759   -0.0323435     0.0007215   -0.0005015 
   0.033684500    -0.0002376    0.0003338     0.9979681   -0.0313439     0.9964005   -0.0325952     0.0007390   -0.0004891 
   0.033934000    -0.0002362    0.0003478     0.9979476   -0.0316725     0.9964171   -0.0327575     0.0007487   -0.0004814 
   0.034183500    -0.0002199    0.0003497     0.9979682   -0.0317708     0.9964195   -0.0329555     0.0007623   -0.0004754 
   0.034433000    -0.0002165    0.0003589     0.9979436   -0.0320532     0.9964042   -0.0332683     0.0007553   -0.0004832 
   0.034682500    -0.0001872    0.0003735     0.9979705   -0.0322905     0.9964032   -0.0333678     0.0007715   -0.0004781 
   0.034932000    -0.0001754    0.0003828     0.9979947   -0.0324946     0.9964115   -0.0336199     0.0007788   -0.0004676 
   0.035181500    -0.0001622    0.0003798     0.9979183   -0.0327777     0.9964243   -0.0338224     0.0007878   -0.0004536 
   0.035431000    -0.0001514    0.0003823     0.9978976   -0.0329735     0.9964471   -0.0339598     0.0008013   -0.0004533 
   0.035680500    -0.0001420    0.0003907     0.9978330   -0.0332725     0.9963602   -0.0342920     0.0008216   -0.0004639 
   0.035930000    -0.0001371    0.0003947     0.9978526   -0.0335850     0.9963548   -0.0345457     0.0008414   -0.0004534 
   0.036179500    -0.0001243    0.0003959     0.9977984   -0.0337130     0.9963402   -0.0348973     0.0008525   -0.0004488 
   0.036429000    -0.0001063    0.0004047     0.9978247   -0.0339704     0.9963067   -0.0350331     0.0008518   -0.0004213 
   0.036678500    -0.0000775    0.0004094     0.9979206   -0.0340749     0.9962988   -0.0352156     0.0008654   -0.0004095 
   0.036928000    -0.0000521    0.0004127     0.9977986   -0.0343835     0.9963169   -0.0353904     0.0008686   -0.0003891 
   0.037177500    -0.0000406    0.0004150     0.9978901   -0.0345907     0.9963315   -0.0355756     0.0008762   -0.0003669 
   0.037427000    -0.0000234    0.0004312     0.9978758   -0.0348699     0.9963054   -0.0357556     0.0008812   -0.0003598 
   0.037676500    -0.0000122    0.0004253     0.9978912   -0.0350891     0.9963352   -0.0360853     0.0008853   -0.0003430 
   0.037926000    -0.0000037    0.0004159     0.9978479   -0.0352194     0.9963264   -0.0362151     0.0008962   -0.0003466 
   0.038175500     0.0000239    0.0004342     0.9978227   -0.0355174     0.9962445   -0.0364659     0.0009224   -0.0003495 
   0.038425000     0.0000398    0.0004422     0.9977356   -0.0356974     0.9962603   -0.0366941     0.0009513   -0.0003385 
   0.038674500     0.0000760    0.0004581     0.9978250   -0.0358793     0.9962651   -0.0368761     0.0009435   -0.0003009 
   0.038924000     0.0000833    0.0004190     0.9978623   -0.0361623     0.9962459   -0.0371127     0.0009386   -0.0002915 
   0.039173500     0.0001019    0.0004198     0.9978131   -0.0363771     0.9962534   -0.0373283     0.0009499   -0.0002746 
   0.039423000     0.0001201    0.0004319     0.9979469   -0.0366054     0.9961758   -0.0374804     0.0009703   -0.0002709 
   0.039672500     0.0001479    0.0004901     0.9978825   -0.0371475     0.9957767   -0.0368917     0.0010284   -0.0002394 
   0.039922000     0.0001430    0.0004320     0.9981850   -0.0368313     0.9969213   -0.0378285     0.0010229   -0.0002577 
   0.040171500     0.0001747    0.0004314     0.9981742   -0.0371060     0.9968398   -0.0380663     0.0010212   -0.0002371 
