! MS46122B
! 1746301/73750021
! 8/7/2023 2:37:41 PM
! C:\USERS\SPEGWAL\DOWNLOADS\SAURABH\REACH\NODES\FRONT END\MEASUREMENTS\MEASURED S-PARAMETER_07-08-2023\MS-3\P2_J3\J4_ON.S2P
! CHANNEL.1
! TR.MEASUREMENT
! CORRECTED.DATA
# GHZ S RI R 50.0
! FREQ.GHZ         S11RE         S11IM         S21RE         S21IM         S12RE         S12IM         S22RE         S22IM         
!; PortSelection: Port_12
   0.001000000     1.0045290   -0.0073395    -0.0000013    0.0000042     0.0000017   -0.0000027     0.0018103    0.0025047 
   0.001249500     1.0020520   -0.0069918    -0.0000004   -0.0000005     0.0000006   -0.0000002     0.0012078    0.0025170 
   0.001499000     1.0018530   -0.0072615     0.0000006    0.0000004    -0.0000006    0.0000001     0.0009974    0.0027178 
   0.001748500     1.0017820   -0.0076054     0.0000006    0.0000001     0.0000019    0.0000011     0.0010159    0.0029307 
   0.001998000     1.0018590   -0.0078724     0.0000007    0.0000003    -0.0000005    0.0000004     0.0011538    0.0030824 
   0.002247500     1.0021260   -0.0088260    -0.0000005    0.0000001    -0.0000011   -0.0000010     0.0014758    0.0029375 
   0.002497000     1.0021510   -0.0091783    -0.0000001    0.0000003    -0.0000013    0.0000005     0.0017265    0.0030032 
   0.002746500     1.0022010   -0.0094791     0.0000004    0.0000009    -0.0000014    0.0000000     0.0019656    0.0030036 
   0.002996000     1.0024010   -0.0097624    -0.0000001    0.0000001     0.0000011   -0.0000007     0.0022501    0.0029108 
   0.003245500     1.0023980   -0.0102103     0.0000003    0.0000003     0.0000000   -0.0000001     0.0024754    0.0028357 
   0.003495000     1.0023330   -0.0105249    -0.0000014   -0.0000002     0.0000007   -0.0000010     0.0026965    0.0027415 
   0.003744500     1.0024640   -0.0109452     0.0000006    0.0000003    -0.0000023    0.0000004     0.0028962    0.0025899 
   0.003994000     1.0025100   -0.0114165    -0.0000002   -0.0000010    -0.0000007   -0.0000004     0.0030698    0.0024129 
   0.004243500     1.0025080   -0.0118297    -0.0000008    0.0000006    -0.0000001   -0.0000011     0.0034472    0.0021849 
   0.004493000     1.0025890   -0.0122467    -0.0000011   -0.0000005     0.0000006   -0.0000001     0.0035945    0.0020421 
   0.004742500     1.0026360   -0.0125488     0.0000001    0.0000001    -0.0000005    0.0000003     0.0037056    0.0019143 
   0.004992000     1.0027060   -0.0131312     0.0000009   -0.0000001     0.0000008   -0.0000001     0.0037863    0.0017993 
   0.005241500     1.0028570   -0.0136324     0.0000006   -0.0000001    -0.0000002    0.0000002     0.0038668    0.0016797 
   0.005491000     1.0028730   -0.0141965    -0.0000011    0.0000003    -0.0000007   -0.0000015     0.0039021    0.0015729 
   0.005740500     1.0028690   -0.0146934     0.0000007    0.0000007     0.0000000    0.0000006     0.0039261    0.0014660 
   0.005990000     1.0029380   -0.0152237    -0.0000006    0.0000001     0.0000012    0.0000005     0.0039579    0.0013728 
   0.006239500     1.0029770   -0.0157674    -0.0000007   -0.0000007     0.0000003   -0.0000001     0.0039668    0.0012947 
   0.006489000     1.0030950   -0.0164250    -0.0000004   -0.0000001    -0.0000003    0.0000004     0.0039675    0.0012123 
   0.006738500     1.0030620   -0.0168331    -0.0000003    0.0000003    -0.0000013    0.0000002     0.0039821    0.0011433 
   0.006988000     1.0031280   -0.0173521     0.0000005    0.0000009    -0.0000001   -0.0000002     0.0039683    0.0010928 
   0.007237500     1.0031180   -0.0177017    -0.0000008   -0.0000001     0.0000001    0.0000001     0.0039660    0.0010359 
   0.007487000     1.0028820   -0.0180553     0.0000005   -0.0000011     0.0000004    0.0000002     0.0039519    0.0009961 
   0.007736500     1.0025700   -0.0183388    -0.0000010   -0.0000004    -0.0000003    0.0000013     0.0039592    0.0009501 
   0.007986000     1.0020420   -0.0184671    -0.0000002   -0.0000012    -0.0000002   -0.0000003     0.0039449    0.0009116 
   0.008235500     1.0012920   -0.0187442     0.0000005    0.0000009    -0.0000003   -0.0000010     0.0039285    0.0008704 
   0.008485000     1.0006210   -0.0188936     0.0000007    0.0000002     0.0000018    0.0000003     0.0039333    0.0008402 
   0.008734500     0.9999436   -0.0189590     0.0000006    0.0000000    -0.0000004   -0.0000010     0.0039241    0.0008000 
   0.008984000     0.9992861   -0.0190965    -0.0000004   -0.0000005     0.0000000    0.0000010     0.0039164    0.0007729 
   0.009233500     0.9971858   -0.0181585     0.0000020   -0.0000001     0.0000002    0.0000000     0.0038962    0.0007337 
   0.009483000     0.9971697   -0.0185680     0.0000005    0.0000012    -0.0000001   -0.0000004     0.0038846    0.0007093 
   0.009732500     0.9972156   -0.0191755    -0.0000001   -0.0000002     0.0000007   -0.0000007     0.0038839    0.0006798 
   0.009982000     0.9971851   -0.0195051    -0.0000002   -0.0000002    -0.0000004   -0.0000009     0.0038933    0.0006531 
   0.010231500     0.9970313   -0.0199837    -0.0000003    0.0000005     0.0000000   -0.0000004     0.0038703    0.0006417 
   0.010481000     0.9969999   -0.0204264     0.0000013   -0.0000008    -0.0000022   -0.0000004     0.0038701    0.0006235 
   0.010730500     0.9969300   -0.0210347     0.0000006    0.0000001     0.0000000   -0.0000014     0.0038629    0.0006127 
   0.010980000     0.9969552   -0.0215404     0.0000006    0.0000002     0.0000002   -0.0000008     0.0038516    0.0005935 
   0.011229500     0.9969027   -0.0218280    -0.0000003   -0.0000008    -0.0000007   -0.0000008     0.0038543    0.0005729 
   0.011479000     0.9968648   -0.0223923     0.0000000   -0.0000008    -0.0000008    0.0000002     0.0038638    0.0005590 
   0.011728500     0.9969937   -0.0227828    -0.0000005    0.0000011    -0.0000009   -0.0000006     0.0038631    0.0005239 
   0.011978000     0.9969597   -0.0231107    -0.0000002    0.0000002     0.0000008    0.0000006     0.0038478    0.0005236 
   0.012227500     0.9970221   -0.0236859     0.0000010   -0.0000003     0.0000003    0.0000010     0.0038551    0.0005099 
   0.012477000     0.9968859   -0.0241237     0.0000002   -0.0000003    -0.0000002    0.0000003     0.0038371    0.0004943 
   0.012726500     0.9968659   -0.0245367     0.0000004    0.0000001     0.0000004   -0.0000002     0.0038522    0.0004680 
   0.012976000     0.9968792   -0.0250929    -0.0000008   -0.0000002     0.0000008    0.0000000     0.0038469    0.0004502 
   0.013225500     0.9968122   -0.0255563    -0.0000002    0.0000017     0.0000007    0.0000001     0.0038373    0.0004335 
   0.013475000     0.9968237   -0.0260232     0.0000000   -0.0000005     0.0000005    0.0000018     0.0038353    0.0004163 
   0.013724500     0.9967372   -0.0263796     0.0000014    0.0000004    -0.0000002    0.0000014     0.0038400    0.0004066 
   0.013974000     0.9966794   -0.0268812     0.0000001   -0.0000029    -0.0000004   -0.0000003     0.0038392    0.0003963 
   0.014223500     0.9966719   -0.0273086     0.0000002   -0.0000008    -0.0000011    0.0000002     0.0038307    0.0003860 
   0.014473000     0.9966109   -0.0278439     0.0000001    0.0000001    -0.0000011   -0.0000007     0.0038188    0.0003843 
   0.014722500     0.9965063   -0.0283494     0.0000011    0.0000016     0.0000015    0.0000006     0.0038340    0.0003675 
   0.014972000     0.9966372   -0.0288026    -0.0000003   -0.0000001    -0.0000001    0.0000000     0.0038246    0.0003484 
   0.015221500     0.9966292   -0.0291924     0.0000002   -0.0000007     0.0000007   -0.0000005     0.0038234    0.0003598 
   0.015471000     0.9965101   -0.0296690    -0.0000009   -0.0000001     0.0000002   -0.0000002     0.0038194    0.0003361 
   0.015720500     0.9965039   -0.0300253    -0.0000006   -0.0000018     0.0000003    0.0000002     0.0038035    0.0003381 
   0.015970000     0.9963804   -0.0303536    -0.0000005   -0.0000006    -0.0000003   -0.0000011     0.0038043    0.0003164 
   0.016219500     0.9963387   -0.0310297    -0.0000009    0.0000006     0.0000000   -0.0000005     0.0037965    0.0003159 
   0.016469000     0.9963352   -0.0313504    -0.0000003    0.0000016    -0.0000004    0.0000007     0.0037790    0.0003092 
   0.016718500     0.9963571   -0.0319303    -0.0000010    0.0000001    -0.0000003    0.0000015     0.0037831    0.0002910 
   0.016968000     0.9963822   -0.0323852    -0.0000016    0.0000007    -0.0000002    0.0000000     0.0037637    0.0002658 
   0.017217500     0.9963915   -0.0327090    -0.0000012    0.0000001    -0.0000008   -0.0000008     0.0037658    0.0002592 
   0.017467000     0.9964142   -0.0331432     0.0000001   -0.0000009     0.0000011   -0.0000003     0.0037694    0.0002504 
   0.017716500     0.9964614   -0.0337402     0.0000009   -0.0000007     0.0000003   -0.0000003     0.0037848    0.0002540 
   0.017966000     0.9963123   -0.0342140    -0.0000012   -0.0000001     0.0000008    0.0000006     0.0037798    0.0002257 
   0.018215500     0.9963539   -0.0346562     0.0000000   -0.0000001    -0.0000009    0.0000005     0.0037875    0.0002129 
   0.018465000     0.9962018   -0.0350583    -0.0000005    0.0000007     0.0000001   -0.0000002     0.0037902    0.0002041 
   0.018714500     0.9962235   -0.0354138     0.0000002   -0.0000001     0.0000008   -0.0000004     0.0037993    0.0001973 
   0.018964000     0.9961128   -0.0359203     0.0000006   -0.0000001     0.0000005   -0.0000009     0.0038036    0.0001864 
   0.019213500     0.9961193   -0.0364458     0.0000000   -0.0000009     0.0000002   -0.0000010     0.0038111    0.0001809 
   0.019463000     0.9960404   -0.0368271    -0.0000004    0.0000008     0.0000008   -0.0000006     0.0038078    0.0001646 
   0.019712500     0.9959719   -0.0372449     0.0000001    0.0000001     0.0000009    0.0000006     0.0038214    0.0001603 
   0.019962000     0.9960454   -0.0376825     0.0000013    0.0000002     0.0000004   -0.0000008     0.0038363    0.0001549 
   0.020211500     0.9960386   -0.0381844     0.0000007    0.0000008    -0.0000001   -0.0000006     0.0038325    0.0001369 
   0.020461000     0.9959524   -0.0385477     0.0000006   -0.0000005     0.0000012   -0.0000007     0.0038335    0.0001361 
   0.020710500     0.9959323   -0.0390689     0.0000008    0.0000006    -0.0000004   -0.0000002     0.0038231    0.0001214 
   0.020960000     0.9958677   -0.0395513     0.0000007    0.0000002     0.0000002   -0.0000005     0.0038359    0.0001128 
   0.021209500     0.9957443   -0.0400000    -0.0000005    0.0000009     0.0000000    0.0000011     0.0038435    0.0000900 
   0.021459000     0.9957203   -0.0403498     0.0000020    0.0000001    -0.0000001    0.0000018     0.0038504    0.0000855 
   0.021708500     0.9957103   -0.0409432    -0.0000004   -0.0000001     0.0000002    0.0000002     0.0038693    0.0000725 
   0.021958000     0.9958726   -0.0413838    -0.0000003   -0.0000005    -0.0000001    0.0000000     0.0038673    0.0000739 
   0.022207500     0.9957706   -0.0418258     0.0000004    0.0000003     0.0000003   -0.0000004     0.0038846    0.0000603 
   0.022457000     0.9958540   -0.0423420     0.0000008    0.0000004    -0.0000007    0.0000002     0.0038674    0.0000707 
   0.022706500     0.9958251   -0.0426919     0.0000005    0.0000002     0.0000007    0.0000002     0.0038749    0.0000588 
   0.022956000     0.9956513   -0.0432472     0.0000003    0.0000008     0.0000003    0.0000000     0.0038980    0.0000339 
   0.023205500     0.9956665   -0.0436255     0.0000009   -0.0000003    -0.0000006    0.0000006     0.0039034    0.0000551 
   0.023455000     0.9955885   -0.0440281    -0.0000005    0.0000005     0.0000001   -0.0000004     0.0039086    0.0000355 
   0.023704500     0.9955499   -0.0444511     0.0000000   -0.0000006    -0.0000001   -0.0000008     0.0039153    0.0000249 
   0.023954000     0.9954255   -0.0450546     0.0000010    0.0000004     0.0000006   -0.0000002     0.0039264    0.0000241 
   0.024203500     0.9954668   -0.0454830     0.0000002   -0.0000003    -0.0000003   -0.0000002     0.0039359    0.0000163 
   0.024453000     0.9955091   -0.0458709    -0.0000009    0.0000007     0.0000003    0.0000001     0.0039371   -0.0000073 
   0.024702500     0.9954463   -0.0463629     0.0000004    0.0000010     0.0000006    0.0000003     0.0039505   -0.0000064 
   0.024952000     0.9954669   -0.0467907     0.0000007    0.0000000    -0.0000009   -0.0000005     0.0039565   -0.0000083 
   0.025201500     0.9958104   -0.0470964    -0.0000001    0.0000001    -0.0000011    0.0000000     0.0039055   -0.0000057 
   0.025451000     0.9954357   -0.0474823    -0.0000010   -0.0000021    -0.0000007   -0.0000002     0.0039772   -0.0000451 
   0.025700500     0.9953681   -0.0481129    -0.0000006   -0.0000001     0.0000001    0.0000000     0.0039688   -0.0000544 
   0.025950000     0.9954585   -0.0485475    -0.0000007    0.0000004     0.0000002   -0.0000004     0.0039888   -0.0000523 
   0.026199500     0.9953549   -0.0490583     0.0000011    0.0000005    -0.0000012    0.0000002     0.0039926   -0.0000862 
   0.026449000     0.9952365   -0.0494900     0.0000009    0.0000008    -0.0000004   -0.0000012     0.0040095   -0.0000792 
   0.026698500     0.9952501   -0.0499394     0.0000000   -0.0000004     0.0000002    0.0000000     0.0040162   -0.0000897 
   0.026948000     0.9951530   -0.0503732     0.0000007    0.0000005     0.0000002   -0.0000005     0.0040236   -0.0001044 
   0.027197500     0.9951595   -0.0508252     0.0000010    0.0000005     0.0000006   -0.0000001     0.0040298   -0.0001089 
   0.027447000     0.9951880   -0.0511354    -0.0000003   -0.0000008    -0.0000005   -0.0000001     0.0040539   -0.0001187 
   0.027696500     0.9951262   -0.0516205    -0.0000003   -0.0000020    -0.0000008   -0.0000002     0.0040581   -0.0001230 
   0.027946000     0.9951822   -0.0520734     0.0000013   -0.0000015    -0.0000002   -0.0000004     0.0040666   -0.0001359 
   0.028195500     0.9950388   -0.0523919    -0.0000009    0.0000002     0.0000014   -0.0000005     0.0040710   -0.0001469 
   0.028445000     0.9950030   -0.0529289     0.0000000    0.0000004     0.0000003    0.0000004     0.0040881   -0.0001545 
   0.028694500     0.9948592   -0.0533564     0.0000005   -0.0000005     0.0000005    0.0000003     0.0040945   -0.0001695 
   0.028944000     0.9947897   -0.0539119    -0.0000003    0.0000008    -0.0000003   -0.0000006     0.0041209   -0.0001566 
   0.029193500     0.9948098   -0.0543771     0.0000008    0.0000005     0.0000007    0.0000010     0.0041125   -0.0001729 
   0.029443000     0.9947643   -0.0547840     0.0000006    0.0000002    -0.0000001   -0.0000001     0.0041392   -0.0001851 
   0.029692500     0.9947466   -0.0553363     0.0000004    0.0000000     0.0000004   -0.0000003     0.0041481   -0.0001650 
   0.029942000     0.9946744   -0.0557475     0.0000004    0.0000003    -0.0000002    0.0000000     0.0041700   -0.0001813 
   0.030191500     0.9947371   -0.0559264     0.0000008    0.0000000     0.0000002    0.0000001     0.0041792   -0.0001803 
   0.030441000     0.9946075   -0.0564560     0.0000003    0.0000003    -0.0000003    0.0000001     0.0041951   -0.0001812 
   0.030690500     0.9946025   -0.0568267     0.0000017   -0.0000010    -0.0000001   -0.0000001     0.0042057   -0.0001957 
   0.030940000     0.9946282   -0.0573458    -0.0000008    0.0000001    -0.0000013    0.0000001     0.0042173   -0.0001911 
   0.031189500     0.9945770   -0.0576989    -0.0000006    0.0000002     0.0000003   -0.0000006     0.0042257   -0.0001922 
   0.031439000     0.9945517   -0.0581614     0.0000010    0.0000006    -0.0000006   -0.0000011     0.0042555   -0.0002047 
   0.031688500     0.9945778   -0.0588234     0.0000000   -0.0000006    -0.0000004    0.0000001     0.0042551   -0.0002049 
   0.031938000     0.9944711   -0.0592455    -0.0000002    0.0000006     0.0000009   -0.0000005     0.0042799   -0.0002025 
   0.032187500     0.9944783   -0.0594870     0.0000005    0.0000006     0.0000000   -0.0000003     0.0042916   -0.0001979 
   0.032437000     0.9944400   -0.0600031    -0.0000008   -0.0000011     0.0000008    0.0000004     0.0043094   -0.0002095 
   0.032686500     0.9944963   -0.0601945     0.0000011    0.0000004     0.0000004    0.0000005     0.0043528   -0.0002469 
   0.032936000     0.9943608   -0.0609147    -0.0000004   -0.0000003     0.0000003    0.0000000     0.0043400   -0.0002056 
   0.033185500     0.9943198   -0.0612075    -0.0000005    0.0000004    -0.0000020   -0.0000006     0.0043939   -0.0002513 
   0.033435000     0.9942886   -0.0617892     0.0000010    0.0000004     0.0000007   -0.0000002     0.0043845   -0.0001994 
   0.033684500     0.9942263   -0.0623255    -0.0000002    0.0000004     0.0000007    0.0000003     0.0044078   -0.0002057 
   0.033934000     0.9941576   -0.0627740     0.0000012    0.0000007     0.0000011   -0.0000011     0.0044200   -0.0002019 
   0.034183500     0.9941986   -0.0632836     0.0000005   -0.0000002     0.0000003   -0.0000009     0.0044368   -0.0001913 
   0.034433000     0.9942475   -0.0637426    -0.0000019   -0.0000014     0.0000009   -0.0000002     0.0044504   -0.0001817 
   0.034682500     0.9942572   -0.0641963    -0.0000026   -0.0000006    -0.0000003   -0.0000001     0.0044640   -0.0001781 
   0.034932000     0.9941906   -0.0645353    -0.0000009   -0.0000006     0.0000002   -0.0000008     0.0044927   -0.0001686 
   0.035181500     0.9941505   -0.0649478     0.0000007   -0.0000008    -0.0000006    0.0000005     0.0045091   -0.0001692 
   0.035431000     0.9942233   -0.0653497     0.0000013   -0.0000012    -0.0000004    0.0000001     0.0045210   -0.0001673 
   0.035680500     0.9940678   -0.0658352     0.0000012    0.0000005    -0.0000001    0.0000003     0.0045514   -0.0001539 
   0.035930000     0.9940554   -0.0663391    -0.0000009   -0.0000002    -0.0000009    0.0000002     0.0045524   -0.0001511 
   0.036179500     0.9939361   -0.0667818    -0.0000011    0.0000003    -0.0000002    0.0000007     0.0045648   -0.0001468 
   0.036429000     0.9938916   -0.0672408    -0.0000006    0.0000007    -0.0000001    0.0000008     0.0045737   -0.0001340 
   0.036678500     0.9938954   -0.0677622    -0.0000001   -0.0000002    -0.0000002   -0.0000001     0.0045864   -0.0001216 
   0.036928000     0.9938251   -0.0682240     0.0000000   -0.0000007    -0.0000003   -0.0000002     0.0046112   -0.0001173 
   0.037177500     0.9938087   -0.0686627    -0.0000010   -0.0000014    -0.0000003    0.0000005     0.0046287   -0.0001020 
   0.037427000     0.9938433   -0.0689800    -0.0000007   -0.0000002     0.0000002    0.0000006     0.0046432   -0.0001014 
   0.037676500     0.9938754   -0.0693719     0.0000002   -0.0000002     0.0000005    0.0000001     0.0046596   -0.0000901 
   0.037926000     0.9938702   -0.0697818     0.0000016    0.0000001     0.0000006    0.0000004     0.0046900   -0.0000749 
   0.038175500     0.9938162   -0.0702284     0.0000004   -0.0000008    -0.0000012    0.0000003     0.0047101   -0.0000718 
   0.038425000     0.9937730   -0.0706918    -0.0000005    0.0000000     0.0000001    0.0000001     0.0047279   -0.0000649 
   0.038674500     0.9937402   -0.0710813    -0.0000010    0.0000002     0.0000003    0.0000005     0.0047469   -0.0000659 
   0.038924000     0.9936860   -0.0717403     0.0000005   -0.0000004     0.0000005    0.0000016     0.0047479   -0.0000445 
   0.039173500     0.9936481   -0.0721757    -0.0000012    0.0000003    -0.0000011   -0.0000007     0.0047800   -0.0000400 
   0.039423000     0.9936543   -0.0726657     0.0000002   -0.0000012    -0.0000011    0.0000000     0.0048247   -0.0000333 
   0.039672500     0.9936813   -0.0727265    -0.0000005    0.0000007     0.0000008   -0.0000011     0.0048434   -0.0000194 
   0.039922000     0.9937996   -0.0731800     0.0000004    0.0000003    -0.0000021    0.0000000     0.0047975   -0.0000616 
   0.040171500     0.9938843   -0.0736843    -0.0000003    0.0000003    -0.0000009    0.0000003     0.0048339   -0.0000436 
