! COPPER MOUNTAIN TECHNOLOGIES, PLANAR TR1300/1, 00071119, 20.2.2/1.0
! Date: 7/24/2023 9:14:10 AM
! Data: Format [Calibration Info]
! Freq          	S11: Re/Im F1                  
# HZ S RI R 50
5.00000000E+07	 1.26808566E-01	-9.43289868E-02
5.00122080E+07	 1.26633241E-01	-9.45585231E-02
5.00244160E+07	 1.26461069E-01	-9.47826391E-02
5.00366241E+07	 1.26284868E-01	-9.50064919E-02
5.00488321E+07	 1.26111575E-01	-9.52311874E-02
5.00610401E+07	 1.25938951E-01	-9.54586864E-02
5.00732481E+07	 1.25759125E-01	-9.56752243E-02
5.00854562E+07	 1.25589707E-01	-9.59047893E-02
5.00976642E+07	 1.25410360E-01	-9.61265338E-02
5.01098722E+07	 1.25231218E-01	-9.63490201E-02
5.01220802E+07	 1.25054766E-01	-9.65715213E-02
5.01342883E+07	 1.24877068E-01	-9.67961039E-02
5.01464963E+07	 1.24704201E-01	-9.70155413E-02
5.01587043E+07	 1.24524948E-01	-9.72343958E-02
5.01709123E+07	 1.24344792E-01	-9.74616212E-02
5.01831204E+07	 1.24168227E-01	-9.76811770E-02
5.01953284E+07	 1.23994981E-01	-9.78997730E-02
5.02075364E+07	 1.23805314E-01	-9.81195160E-02
5.02197444E+07	 1.23630485E-01	-9.83439968E-02
5.02319525E+07	 1.23454473E-01	-9.85615915E-02
5.02441605E+07	 1.23265246E-01	-9.87760892E-02
5.02563685E+07	 1.23090576E-01	-9.90009563E-02
5.02685765E+07	 1.22904902E-01	-9.92202805E-02
5.02807846E+07	 1.22724952E-01	-9.94338778E-02
5.02929926E+07	 1.22550196E-01	-9.96551568E-02
5.03052006E+07	 1.22361830E-01	-9.98726630E-02
5.03174086E+07	 1.22177578E-01	-1.00089560E-01
5.03296167E+07	 1.21996181E-01	-1.00302770E-01
5.03418247E+07	 1.21811853E-01	-1.00519885E-01
5.03540327E+07	 1.21629046E-01	-1.00738467E-01
5.03662407E+07	 1.21446051E-01	-1.00955616E-01
5.03784488E+07	 1.21255265E-01	-1.01172264E-01
5.03906568E+07	 1.21072100E-01	-1.01391744E-01
5.04028648E+07	 1.20894392E-01	-1.01601071E-01
5.04150728E+07	 1.20702217E-01	-1.01816960E-01
5.04272809E+07	 1.20521259E-01	-1.02030751E-01
5.04394889E+07	 1.20330036E-01	-1.02248540E-01
5.04516969E+07	 1.20147271E-01	-1.02465065E-01
5.04639049E+07	 1.19955972E-01	-1.02675953E-01
5.04761130E+07	 1.19765564E-01	-1.02893211E-01
5.04883210E+07	 1.19586853E-01	-1.03097808E-01
5.05005290E+07	 1.19394408E-01	-1.03318763E-01
5.05127370E+07	 1.19205868E-01	-1.03527517E-01
5.05249451E+07	 1.19017576E-01	-1.03743915E-01
5.05371531E+07	 1.18828654E-01	-1.03947169E-01
5.05493611E+07	 1.18636475E-01	-1.04164944E-01
5.05615691E+07	 1.18453841E-01	-1.04371288E-01
5.05737772E+07	 1.18262782E-01	-1.04585496E-01
5.05859852E+07	 1.18062899E-01	-1.04799159E-01
5.05981932E+07	 1.17878055E-01	-1.05004856E-01
5.06104012E+07	 1.17679962E-01	-1.05213842E-01
5.06226093E+07	 1.17496407E-01	-1.05424925E-01
5.06348173E+07	 1.17298241E-01	-1.05629245E-01
5.06470253E+07	 1.17110998E-01	-1.05841553E-01
5.06592333E+07	 1.16914469E-01	-1.06048089E-01
5.06714414E+07	 1.16719689E-01	-1.06264499E-01
5.06836494E+07	 1.16529592E-01	-1.06470670E-01
5.06958574E+07	 1.16333400E-01	-1.06679488E-01
5.07080654E+07	 1.16140171E-01	-1.06887145E-01
5.07202735E+07	 1.15945168E-01	-1.07088975E-01
5.07324815E+07	 1.15749776E-01	-1.07291965E-01
5.07446895E+07	 1.15553798E-01	-1.07505588E-01
5.07568975E+07	 1.15366110E-01	-1.07704135E-01
5.07691056E+07	 1.15161939E-01	-1.07919807E-01
5.07813136E+07	 1.14966733E-01	-1.08115868E-01
5.07935216E+07	 1.14772484E-01	-1.08320139E-01
5.08057296E+07	 1.14572063E-01	-1.08529140E-01
5.08179377E+07	 1.14374820E-01	-1.08727871E-01
5.08301457E+07	 1.14176579E-01	-1.08938260E-01
5.08423537E+07	 1.13974946E-01	-1.09134150E-01
5.08545617E+07	 1.13781266E-01	-1.09342956E-01
5.08667698E+07	 1.13579050E-01	-1.09540950E-01
5.08789778E+07	 1.13377040E-01	-1.09745231E-01
5.08911858E+07	 1.13180854E-01	-1.09947587E-01
5.09033938E+07	 1.12984695E-01	-1.10148958E-01
5.09156019E+07	 1.12785650E-01	-1.10350123E-01
5.09278099E+07	 1.12581786E-01	-1.10552587E-01
5.09400179E+07	 1.12381196E-01	-1.10754203E-01
5.09522259E+07	 1.12185552E-01	-1.10952430E-01
5.09644340E+07	 1.11978738E-01	-1.11151212E-01
5.09766420E+07	 1.11776366E-01	-1.11348094E-01
5.09888500E+07	 1.11570898E-01	-1.11552792E-01
5.10010580E+07	 1.11369081E-01	-1.11754159E-01
5.10132661E+07	 1.11168306E-01	-1.11950107E-01
5.10254741E+07	 1.10960495E-01	-1.12147054E-01
5.10376821E+07	 1.10761581E-01	-1.12338246E-01
5.10498901E+07	 1.10556218E-01	-1.12541829E-01
5.10620982E+07	 1.10353615E-01	-1.12739829E-01
5.10743062E+07	 1.10147161E-01	-1.12935643E-01
5.10865142E+07	 1.09947388E-01	-1.13129966E-01
5.10987222E+07	 1.09746534E-01	-1.13326552E-01
5.11109303E+07	 1.09536867E-01	-1.13519407E-01
5.11231383E+07	 1.09328635E-01	-1.13718767E-01
5.11353463E+07	 1.09125156E-01	-1.13911138E-01
5.11475543E+07	 1.08917296E-01	-1.14108955E-01
5.11597624E+07	 1.08714292E-01	-1.14301447E-01
5.11719704E+07	 1.08507667E-01	-1.14494894E-01
5.11841784E+07	 1.08298665E-01	-1.14692896E-01
5.11963864E+07	 1.08089107E-01	-1.14882765E-01
5.12085944E+07	 1.07880358E-01	-1.15073280E-01
5.12208025E+07	 1.07677333E-01	-1.15266417E-01
5.12330105E+07	 1.07461856E-01	-1.15451193E-01
5.12452185E+07	 1.07253250E-01	-1.15647614E-01
5.12574265E+07	 1.07047034E-01	-1.15838721E-01
5.12696346E+07	 1.06837868E-01	-1.16030890E-01
5.12818426E+07	 1.06628978E-01	-1.16219221E-01
5.12940506E+07	 1.06422120E-01	-1.16416844E-01
5.13062586E+07	 1.06211137E-01	-1.16600001E-01
5.13184667E+07	 1.05997817E-01	-1.16785692E-01
5.13306747E+07	 1.05788823E-01	-1.16979722E-01
5.13428827E+07	 1.05572164E-01	-1.17165044E-01
5.13550907E+07	 1.05364091E-01	-1.17358390E-01
5.13672988E+07	 1.05153964E-01	-1.17543290E-01
5.13795068E+07	 1.04936374E-01	-1.17734176E-01
5.13917148E+07	 1.04722937E-01	-1.17912161E-01
5.14039228E+07	 1.04515832E-01	-1.18106561E-01
5.14161309E+07	 1.04297576E-01	-1.18292256E-01
5.14283389E+07	 1.04085966E-01	-1.18475920E-01
5.14405469E+07	 1.03870605E-01	-1.18661730E-01
5.14527549E+07	 1.03658093E-01	-1.18852100E-01
5.14649630E+07	 1.03435007E-01	-1.19030537E-01
5.14771710E+07	 1.03227771E-01	-1.19215415E-01
5.14893790E+07	 1.03004880E-01	-1.19399752E-01
5.15015870E+07	 1.02796529E-01	-1.19595015E-01
5.15137951E+07	 1.02583527E-01	-1.19768407E-01
5.15260031E+07	 1.02364178E-01	-1.19951572E-01
5.15382111E+07	 1.02147692E-01	-1.20137592E-01
5.15504191E+07	 1.01929986E-01	-1.20313741E-01
5.15626272E+07	 1.01714882E-01	-1.20498208E-01
5.15748352E+07	 1.01496601E-01	-1.20681512E-01
5.15870432E+07	 1.01281880E-01	-1.20863509E-01
5.15992512E+07	 1.01057813E-01	-1.21039917E-01
5.16114593E+07	 1.00842444E-01	-1.21220862E-01
5.16236673E+07	 1.00622688E-01	-1.21403931E-01
5.16358753E+07	 1.00403814E-01	-1.21584791E-01
5.16480833E+07	 1.00185370E-01	-1.21763295E-01
5.16602914E+07	 9.99643635E-02	-1.21941552E-01
5.16724994E+07	 9.97442838E-02	-1.22119846E-01
5.16847074E+07	 9.95249520E-02	-1.22300085E-01
5.16969154E+07	 9.93035363E-02	-1.22476886E-01
5.17091235E+07	 9.90798115E-02	-1.22650933E-01
5.17213315E+07	 9.88608495E-02	-1.22832852E-01
5.17335395E+07	 9.86423294E-02	-1.23005046E-01
5.17457475E+07	 9.84217972E-02	-1.23181944E-01
5.17579556E+07	 9.81968645E-02	-1.23353680E-01
5.17701636E+07	 9.79729274E-02	-1.23533967E-01
5.17823716E+07	 9.77513831E-02	-1.23706015E-01
5.17945796E+07	 9.75323575E-02	-1.23879888E-01
5.18067877E+07	 9.73007888E-02	-1.24056737E-01
5.18189957E+07	 9.70852684E-02	-1.24234415E-01
5.18312037E+07	 9.68597249E-02	-1.24403422E-01
5.18434117E+07	 9.66364633E-02	-1.24578691E-01
5.18556198E+07	 9.64118707E-02	-1.24749374E-01
5.18678278E+07	 9.61847811E-02	-1.24922779E-01
5.18800358E+07	 9.59582364E-02	-1.25097512E-01
5.18922438E+07	 9.57329592E-02	-1.25267557E-01
5.19044519E+07	 9.55030112E-02	-1.25435389E-01
5.19166599E+07	 9.52832895E-02	-1.25608550E-01
5.19288679E+07	 9.50584050E-02	-1.25782313E-01
5.19410759E+07	 9.48338735E-02	-1.25945965E-01
5.19532840E+07	 9.46044027E-02	-1.26111795E-01
5.19654920E+07	 9.43794455E-02	-1.26285180E-01
5.19777000E+07	 9.41474256E-02	-1.26460085E-01
5.19899080E+07	 9.39212761E-02	-1.26619254E-01
5.20021161E+07	 9.36985208E-02	-1.26789999E-01
5.20143241E+07	 9.34638621E-02	-1.26965563E-01
5.20265321E+07	 9.32362819E-02	-1.27122329E-01
5.20387401E+07	 9.30040968E-02	-1.27289220E-01
5.20509482E+07	 9.27789885E-02	-1.27458005E-01
5.20631562E+07	 9.25473475E-02	-1.27621489E-01
5.20753642E+07	 9.23194440E-02	-1.27788027E-01
5.20875722E+07	 9.20870190E-02	-1.27951272E-01
5.20997803E+07	 9.18560088E-02	-1.28116319E-01
5.21119883E+07	 9.16255180E-02	-1.28282528E-01
5.21241963E+07	 9.13972867E-02	-1.28445820E-01
5.21364043E+07	 9.11651401E-02	-1.28605451E-01
5.21486124E+07	 9.09310270E-02	-1.28776858E-01
5.21608204E+07	 9.06981269E-02	-1.28934076E-01
5.21730284E+07	 9.04704284E-02	-1.29100308E-01
5.21852364E+07	 9.02348704E-02	-1.29260406E-01
5.21974445E+07	 9.00032543E-02	-1.29418890E-01
5.22096525E+07	 8.97665407E-02	-1.29582085E-01
5.22218605E+07	 8.95363954E-02	-1.29743412E-01
5.22340685E+07	 8.93014651E-02	-1.29898792E-01
5.22462766E+07	 8.90668389E-02	-1.30064751E-01
5.22584846E+07	 8.88341866E-02	-1.30223384E-01
5.22706926E+07	 8.86023288E-02	-1.30378360E-01
5.22829006E+07	 8.83667705E-02	-1.30539611E-01
5.22951087E+07	 8.81278266E-02	-1.30699529E-01
5.23073167E+07	 8.78922810E-02	-1.30860137E-01
5.23195247E+07	 8.76610120E-02	-1.31012138E-01
5.23317327E+07	 8.74260083E-02	-1.31165019E-01
5.23439408E+07	 8.71862334E-02	-1.31321497E-01
5.23561488E+07	 8.69514730E-02	-1.31481255E-01
5.23683568E+07	 8.67157452E-02	-1.31638002E-01
5.23805648E+07	 8.64721278E-02	-1.31790321E-01
5.23927728E+07	 8.62389440E-02	-1.31948377E-01
5.24049809E+07	 8.60038090E-02	-1.32097356E-01
5.24171889E+07	 8.57643497E-02	-1.32256413E-01
5.24293969E+07	 8.55239132E-02	-1.32405887E-01
5.24416049E+07	 8.52910967E-02	-1.32562646E-01
5.24538130E+07	 8.50508043E-02	-1.32710605E-01
5.24660210E+07	 8.48124946E-02	-1.32870176E-01
5.24782290E+07	 8.45788574E-02	-1.33015563E-01
5.24904370E+07	 8.43297450E-02	-1.33168949E-01
5.25026451E+07	 8.40977961E-02	-1.33323174E-01
5.25148531E+07	 8.38550097E-02	-1.33472186E-01
5.25270611E+07	 8.36122297E-02	-1.33622924E-01
5.25392691E+07	 8.33741850E-02	-1.33775875E-01
5.25514772E+07	 8.31342362E-02	-1.33923070E-01
5.25636852E+07	 8.28933728E-02	-1.34066276E-01
5.25758932E+07	 8.26536267E-02	-1.34218171E-01
5.25881012E+07	 8.24167489E-02	-1.34363862E-01
5.26003093E+07	 8.21708957E-02	-1.34514687E-01
5.26125173E+07	 8.19287155E-02	-1.34662241E-01
5.26247253E+07	 8.16893516E-02	-1.34808195E-01
5.26369333E+07	 8.14416007E-02	-1.34955563E-01
5.26491414E+07	 8.12056797E-02	-1.35104339E-01
5.26613494E+07	 8.09589444E-02	-1.35245244E-01
5.26735574E+07	 8.07181494E-02	-1.35391890E-01
5.26857654E+07	 8.04717428E-02	-1.35537245E-01
5.26979735E+07	 8.02339105E-02	-1.35679261E-01
5.27101815E+07	 7.99873302E-02	-1.35827043E-01
5.27223895E+07	 7.97446636E-02	-1.35968276E-01
5.27345975E+07	 7.94973957E-02	-1.36109909E-01
5.27468056E+07	 7.92534965E-02	-1.36254642E-01
5.27590136E+07	 7.90103852E-02	-1.36394426E-01
5.27712216E+07	 7.87607923E-02	-1.36532463E-01
5.27834296E+07	 7.85210701E-02	-1.36682463E-01
5.27956377E+07	 7.82741677E-02	-1.36817412E-01
5.28078457E+07	 7.80312683E-02	-1.36961506E-01
5.28200537E+07	 7.77842611E-02	-1.37099051E-01
5.28322617E+07	 7.75342135E-02	-1.37236455E-01
5.28444698E+07	 7.72906393E-02	-1.37377083E-01
5.28566778E+07	 7.70472427E-02	-1.37517828E-01
5.28688858E+07	 7.68027116E-02	-1.37660774E-01
5.28810938E+07	 7.65482756E-02	-1.37793952E-01
5.28933019E+07	 7.62989597E-02	-1.37933462E-01
5.29055099E+07	 7.60558182E-02	-1.38066338E-01
5.29177179E+07	 7.58048464E-02	-1.38206209E-01
5.29299259E+07	 7.55571463E-02	-1.38335688E-01
5.29421340E+07	 7.53135119E-02	-1.38474970E-01
5.29543420E+07	 7.50627553E-02	-1.38609021E-01
5.29665500E+07	 7.48140031E-02	-1.38749761E-01
5.29787580E+07	 7.45640166E-02	-1.38880452E-01
5.29909661E+07	 7.43198029E-02	-1.39011438E-01
5.30031741E+07	 7.40693262E-02	-1.39147593E-01
5.30153821E+07	 7.38149672E-02	-1.39282538E-01
5.30275901E+07	 7.35672462E-02	-1.39414034E-01
5.30397982E+07	 7.33200336E-02	-1.39547020E-01
5.30520062E+07	 7.30671569E-02	-1.39676212E-01
5.30642142E+07	 7.28221693E-02	-1.39809343E-01
5.30764222E+07	 7.25695047E-02	-1.39943558E-01
5.30886303E+07	 7.23170411E-02	-1.40071284E-01
5.31008383E+07	 7.20708409E-02	-1.40203763E-01
5.31130463E+07	 7.18080655E-02	-1.40334669E-01
5.31252543E+07	 7.15654390E-02	-1.40460455E-01
5.31374624E+07	 7.13084154E-02	-1.40588589E-01
5.31496704E+07	 7.10582059E-02	-1.40724271E-01
5.31618784E+07	 7.08082724E-02	-1.40850013E-01
5.31740864E+07	 7.05505950E-02	-1.40974319E-01
5.31862945E+07	 7.03009365E-02	-1.41097264E-01
5.31985025E+07	 7.00516449E-02	-1.41223514E-01
5.32107105E+07	 6.97964131E-02	-1.41354879E-01
5.32229185E+07	 6.95462933E-02	-1.41480573E-01
5.32351266E+07	 6.92945017E-02	-1.41602728E-01
5.32473346E+07	 6.90344757E-02	-1.41733208E-01
5.32595426E+07	 6.87851537E-02	-1.41849757E-01
5.32717506E+07	 6.85378463E-02	-1.41974410E-01
5.32839587E+07	 6.82785609E-02	-1.42095720E-01
5.32961667E+07	 6.80206865E-02	-1.42219891E-01
5.33083747E+07	 6.77698095E-02	-1.42349703E-01
5.33205827E+07	 6.75140053E-02	-1.42468030E-01
5.33327908E+07	 6.72568563E-02	-1.42589916E-01
5.33449988E+07	 6.70014666E-02	-1.42713039E-01
5.33572068E+07	 6.67452406E-02	-1.42833527E-01
5.33694148E+07	 6.64861237E-02	-1.42947752E-01
5.33816229E+07	 6.62376211E-02	-1.43074857E-01
5.33938309E+07	 6.59807094E-02	-1.43194200E-01
5.34060389E+07	 6.57238442E-02	-1.43309419E-01
5.34182469E+07	 6.54697858E-02	-1.43427810E-01
5.34304550E+07	 6.52142772E-02	-1.43548032E-01
5.34426630E+07	 6.49520960E-02	-1.43665782E-01
5.34548710E+07	 6.46982230E-02	-1.43782975E-01
5.34670790E+07	 6.44391344E-02	-1.43900320E-01
5.34792871E+07	 6.41781241E-02	-1.44010640E-01
5.34914951E+07	 6.39225835E-02	-1.44131257E-01
5.35037031E+07	 6.36637701E-02	-1.44245219E-01
5.35159111E+07	 6.34058076E-02	-1.44365432E-01
5.35281192E+07	 6.31516746E-02	-1.44474474E-01
5.35403272E+07	 6.28896258E-02	-1.44587289E-01
5.35525352E+07	 6.26417173E-02	-1.44705873E-01
5.35647432E+07	 6.23760309E-02	-1.44818945E-01
5.35769512E+07	 6.21188588E-02	-1.44933957E-01
5.35891593E+07	 6.18588757E-02	-1.45044373E-01
5.36013673E+07	 6.15951115E-02	-1.45160057E-01
5.36135753E+07	 6.13413349E-02	-1.45266791E-01
5.36257833E+07	 6.10798884E-02	-1.45378367E-01
5.36379914E+07	 6.08198460E-02	-1.45491733E-01
5.36501994E+07	 6.05652386E-02	-1.45592538E-01
5.36624074E+07	 6.03000946E-02	-1.45710430E-01
5.36746154E+07	 6.00451889E-02	-1.45818877E-01
5.36868235E+07	 5.97790899E-02	-1.45925889E-01
5.36990315E+07	 5.95195152E-02	-1.46035286E-01
5.37112395E+07	 5.92584563E-02	-1.46144951E-01
5.37234475E+07	 5.89966575E-02	-1.46251542E-01
5.37356556E+07	 5.87364214E-02	-1.46355441E-01
5.37478636E+07	 5.84798804E-02	-1.46459968E-01
5.37600716E+07	 5.82154644E-02	-1.46569172E-01
5.37722796E+07	 5.79488866E-02	-1.46673466E-01
5.37844877E+07	 5.76833413E-02	-1.46776955E-01
5.37966957E+07	 5.74312371E-02	-1.46885171E-01
5.38089037E+07	 5.71636723E-02	-1.46987528E-01
5.38211117E+07	 5.69091347E-02	-1.47091634E-01
5.38333198E+07	 5.66336847E-02	-1.47194709E-01
5.38455278E+07	 5.63738680E-02	-1.47293196E-01
5.38577358E+07	 5.61110257E-02	-1.47398424E-01
5.38699438E+07	 5.58503415E-02	-1.47502941E-01
5.38821519E+07	 5.55837385E-02	-1.47603347E-01
5.38943599E+07	 5.53232105E-02	-1.47703276E-01
5.39065679E+07	 5.50630608E-02	-1.47803192E-01
5.39187759E+07	 5.47927616E-02	-1.47906459E-01
5.39309840E+07	 5.45295442E-02	-1.48006112E-01
5.39431920E+07	 5.42679739E-02	-1.48103642E-01
5.39554000E+07	 5.39975555E-02	-1.48207177E-01
5.39676080E+07	 5.37398903E-02	-1.48299985E-01
5.39798161E+07	 5.34760497E-02	-1.48395917E-01
5.39920241E+07	 5.32091591E-02	-1.48497647E-01
5.40042321E+07	 5.29452542E-02	-1.48597479E-01
5.40164401E+07	 5.26781111E-02	-1.48689591E-01
5.40286482E+07	 5.24095191E-02	-1.48783237E-01
5.40408562E+07	 5.21483365E-02	-1.48879442E-01
5.40530642E+07	 5.18756206E-02	-1.48974249E-01
5.40652722E+07	 5.16144484E-02	-1.49076141E-01
5.40774803E+07	 5.13489747E-02	-1.49162992E-01
5.40896883E+07	 5.10842936E-02	-1.49261730E-01
5.41018963E+07	 5.08178638E-02	-1.49347282E-01
5.41141043E+07	 5.05497493E-02	-1.49447447E-01
5.41263124E+07	 5.02817242E-02	-1.49540101E-01
5.41385204E+07	 5.00208610E-02	-1.49622862E-01
5.41507284E+07	 4.97437056E-02	-1.49719127E-01
5.41629364E+07	 4.94738452E-02	-1.49808097E-01
5.41751445E+07	 4.92108551E-02	-1.49901013E-01
5.41873525E+07	 4.89456508E-02	-1.49990863E-01
5.41995605E+07	 4.86789851E-02	-1.50077837E-01
5.42117685E+07	 4.84066866E-02	-1.50167499E-01
5.42239766E+07	 4.81412570E-02	-1.50259048E-01
5.42361846E+07	 4.78669952E-02	-1.50342589E-01
5.42483926E+07	 4.76052613E-02	-1.50433748E-01
5.42606006E+07	 4.73324522E-02	-1.50523840E-01
5.42728087E+07	 4.70684424E-02	-1.50610955E-01
5.42850167E+07	 4.67957825E-02	-1.50699422E-01
5.42972247E+07	 4.65266856E-02	-1.50775418E-01
5.43094327E+07	 4.62590041E-02	-1.50867100E-01
5.43216408E+07	 4.59916842E-02	-1.50952902E-01
5.43338488E+07	 4.57204471E-02	-1.51035638E-01
5.43460568E+07	 4.54518874E-02	-1.51119721E-01
5.43582648E+07	 4.51798714E-02	-1.51199074E-01
5.43704729E+07	 4.49070476E-02	-1.51285588E-01
5.43826809E+07	 4.46453020E-02	-1.51369472E-01
5.43948889E+07	 4.43685350E-02	-1.51449979E-01
5.44070969E+07	 4.41016858E-02	-1.51529687E-01
5.44193050E+07	 4.38339619E-02	-1.51610081E-01
5.44315130E+07	 4.35583438E-02	-1.51691030E-01
5.44437210E+07	 4.32917957E-02	-1.51776043E-01
5.44559290E+07	 4.30176158E-02	-1.51857989E-01
5.44681371E+07	 4.27417637E-02	-1.51928473E-01
5.44803451E+07	 4.24739034E-02	-1.52009075E-01
5.44925531E+07	 4.22027514E-02	-1.52089903E-01
5.45047611E+07	 4.19337540E-02	-1.52159973E-01
5.45169692E+07	 4.16636547E-02	-1.52244852E-01
5.45291772E+07	 4.13929741E-02	-1.52322780E-01
5.45413852E+07	 4.11216413E-02	-1.52396407E-01
5.45535932E+07	 4.08474904E-02	-1.52473705E-01
5.45658013E+07	 4.05718280E-02	-1.52549698E-01
5.45780093E+07	 4.03023372E-02	-1.52627258E-01
5.45902173E+07	 4.00326918E-02	-1.52698317E-01
5.46024253E+07	 3.97618439E-02	-1.52775642E-01
5.46146334E+07	 3.94849498E-02	-1.52847005E-01
5.46268414E+07	 3.92087988E-02	-1.52919701E-01
5.46390494E+07	 3.89423196E-02	-1.52988756E-01
5.46512574E+07	 3.86681990E-02	-1.53061821E-01
5.46634655E+07	 3.83952650E-02	-1.53133090E-01
5.46756735E+07	 3.81216543E-02	-1.53206582E-01
5.46878815E+07	 3.78476174E-02	-1.53275788E-01
5.47000895E+07	 3.75740756E-02	-1.53348579E-01
5.47122976E+07	 3.73037000E-02	-1.53416628E-01
5.47245056E+07	 3.70282466E-02	-1.53490611E-01
5.47367136E+07	 3.67572702E-02	-1.53557249E-01
5.47489216E+07	 3.64812637E-02	-1.53622739E-01
5.47611296E+07	 3.62049838E-02	-1.53690871E-01
5.47733377E+07	 3.59322573E-02	-1.53759095E-01
5.47855457E+07	 3.56598247E-02	-1.53822371E-01
5.47977537E+07	 3.53817283E-02	-1.53895185E-01
5.48099617E+07	 3.51131724E-02	-1.53960404E-01
5.48221698E+07	 3.48375457E-02	-1.54023069E-01
5.48343778E+07	 3.45615936E-02	-1.54085093E-01
5.48465858E+07	 3.42851301E-02	-1.54154345E-01
5.48587938E+07	 3.40142433E-02	-1.54214119E-01
5.48710019E+07	 3.37365298E-02	-1.54285810E-01
5.48832099E+07	 3.34608296E-02	-1.54342938E-01
5.48954179E+07	 3.31843025E-02	-1.54397923E-01
5.49076259E+07	 3.29087774E-02	-1.54466349E-01
5.49198340E+07	 3.26383948E-02	-1.54531304E-01
5.49320420E+07	 3.23584840E-02	-1.54590893E-01
5.49442500E+07	 3.20814198E-02	-1.54653112E-01
5.49564580E+07	 3.18048893E-02	-1.54711056E-01
5.49686661E+07	 3.15364491E-02	-1.54770164E-01
5.49808741E+07	 3.12650670E-02	-1.54834344E-01
5.49930821E+07	 3.09870016E-02	-1.54887570E-01
5.50052901E+07	 3.07060630E-02	-1.54944270E-01
5.50174982E+07	 3.04344007E-02	-1.55010349E-01
5.50297062E+07	 3.01514369E-02	-1.55065225E-01
5.50419142E+07	 2.98810421E-02	-1.55119383E-01
5.50541222E+07	 2.96066411E-02	-1.55178829E-01
5.50663303E+07	 2.93311283E-02	-1.55233221E-01
5.50785383E+07	 2.90568456E-02	-1.55293008E-01
5.50907463E+07	 2.87739588E-02	-1.55341961E-01
5.51029543E+07	 2.85015064E-02	-1.55399394E-01
5.51151624E+07	 2.82203502E-02	-1.55455580E-01
5.51273704E+07	 2.79487948E-02	-1.55509944E-01
