! COPPER MOUNTAIN TECHNOLOGIES, PLANAR TR1300/1, 00071119, 20.2.2/1.0
! Date: 11/21/2023 6:55:32 PM
! Data: Format [Calibration Info]
! Freq          	S11: Re/Im F1                  
# HZ S RI R 50
5.00000000E+07	 1.54340170E-01	 2.50747298E-02
5.00122080E+07	 1.54376136E-01	 2.48384019E-02
5.00244160E+07	 1.54416391E-01	 2.45963270E-02
5.00366241E+07	 1.54444591E-01	 2.43554686E-02
5.00488321E+07	 1.54475108E-01	 2.41123042E-02
5.00610401E+07	 1.54512285E-01	 2.38776692E-02
5.00732481E+07	 1.54549891E-01	 2.36354579E-02
5.00854562E+07	 1.54583368E-01	 2.33955686E-02
5.00976642E+07	 1.54617635E-01	 2.31538380E-02
5.01098722E+07	 1.54643758E-01	 2.29109108E-02
5.01220802E+07	 1.54677544E-01	 2.26782234E-02
5.01342883E+07	 1.54717222E-01	 2.24315575E-02
5.01464963E+07	 1.54743100E-01	 2.21923003E-02
5.01587043E+07	 1.54774862E-01	 2.19554581E-02
5.01709123E+07	 1.54804607E-01	 2.17111534E-02
5.01831204E+07	 1.54834939E-01	 2.14751348E-02
5.01953284E+07	 1.54865828E-01	 2.12333227E-02
5.02075364E+07	 1.54891064E-01	 2.09920324E-02
5.02197444E+07	 1.54922528E-01	 2.07482074E-02
5.02319525E+07	 1.54957260E-01	 2.05064593E-02
5.02441605E+07	 1.54983499E-01	 2.02648873E-02
5.02563685E+07	 1.55015035E-01	 2.00278840E-02
5.02685765E+07	 1.55038625E-01	 1.97846610E-02
5.02807846E+07	 1.55068838E-01	 1.95446066E-02
5.02929926E+07	 1.55096461E-01	 1.93008226E-02
5.03052006E+07	 1.55122103E-01	 1.90625114E-02
5.03174086E+07	 1.55149550E-01	 1.88193435E-02
5.03296167E+07	 1.55177099E-01	 1.85822125E-02
5.03418247E+07	 1.55204466E-01	 1.83373240E-02
5.03540327E+07	 1.55225996E-01	 1.80942715E-02
5.03662407E+07	 1.55250596E-01	 1.78580357E-02
5.03784488E+07	 1.55278709E-01	 1.76141354E-02
5.03906568E+07	 1.55300803E-01	 1.73728004E-02
5.04028648E+07	 1.55320459E-01	 1.71298226E-02
5.04150728E+07	 1.55349202E-01	 1.68909623E-02
5.04272809E+07	 1.55372373E-01	 1.66455427E-02
5.04394889E+07	 1.55393316E-01	 1.64057670E-02
5.04516969E+07	 1.55415898E-01	 1.61689346E-02
5.04639049E+07	 1.55437623E-01	 1.59216542E-02
5.04761130E+07	 1.55459875E-01	 1.56825610E-02
5.04883210E+07	 1.55481805E-01	 1.54434506E-02
5.05005290E+07	 1.55511037E-01	 1.51950764E-02
5.05127370E+07	 1.55526307E-01	 1.49540755E-02
5.05249451E+07	 1.55547481E-01	 1.47120051E-02
5.05371531E+07	 1.55569023E-01	 1.44714759E-02
5.05493611E+07	 1.55590698E-01	 1.42304120E-02
5.05615691E+07	 1.55604587E-01	 1.39875522E-02
5.05737772E+07	 1.55626134E-01	 1.37431468E-02
5.05859852E+07	 1.55644005E-01	 1.35074261E-02
5.05981932E+07	 1.55661693E-01	 1.32648208E-02
5.06104012E+07	 1.55681515E-01	 1.30203869E-02
5.06226093E+07	 1.55700462E-01	 1.27796289E-02
5.06348173E+07	 1.55716810E-01	 1.25406839E-02
5.06470253E+07	 1.55730714E-01	 1.22939942E-02
5.06592333E+07	 1.55747751E-01	 1.20522687E-02
5.06714414E+07	 1.55759577E-01	 1.18069595E-02
5.06836494E+07	 1.55778742E-01	 1.15642804E-02
5.06958574E+07	 1.55793565E-01	 1.13265443E-02
5.07080654E+07	 1.55812786E-01	 1.10815305E-02
5.07202735E+07	 1.55823298E-01	 1.08406160E-02
5.07324815E+07	 1.55835745E-01	 1.06027461E-02
5.07446895E+07	 1.55856595E-01	 1.03563352E-02
5.07568975E+07	 1.55865775E-01	 1.01122604E-02
5.07691056E+07	 1.55880523E-01	 9.87432489E-03
5.07813136E+07	 1.55896365E-01	 9.63081023E-03
5.07935216E+07	 1.55909858E-01	 9.38847141E-03
5.08057296E+07	 1.55914060E-01	 9.14565361E-03
5.08179377E+07	 1.55928505E-01	 8.90173850E-03
5.08301457E+07	 1.55940000E-01	 8.65929971E-03
5.08423537E+07	 1.55949503E-01	 8.41957199E-03
5.08545617E+07	 1.55963328E-01	 8.17886010E-03
5.08667698E+07	 1.55974637E-01	 7.93466102E-03
5.08789778E+07	 1.55983115E-01	 7.69166485E-03
5.08911858E+07	 1.55989768E-01	 7.44629896E-03
5.09033938E+07	 1.55994625E-01	 7.20855532E-03
5.09156019E+07	 1.56007062E-01	 6.96569908E-03
5.09278099E+07	 1.56013519E-01	 6.72322773E-03
5.09400179E+07	 1.56023083E-01	 6.47806750E-03
5.09522259E+07	 1.56031765E-01	 6.23924888E-03
5.09644340E+07	 1.56043028E-01	 5.99342924E-03
5.09766420E+07	 1.56049101E-01	 5.75539480E-03
5.09888500E+07	 1.56055401E-01	 5.50672852E-03
5.10010580E+07	 1.56064140E-01	 5.26290227E-03
5.10132661E+07	 1.56065269E-01	 5.02295242E-03
5.10254741E+07	 1.56074564E-01	 4.77663371E-03
5.10376821E+07	 1.56076244E-01	 4.53883203E-03
5.10498901E+07	 1.56080285E-01	 4.28960255E-03
5.10620982E+07	 1.56086319E-01	 4.05507529E-03
5.10743062E+07	 1.56094017E-01	 3.80593854E-03
5.10865142E+07	 1.56098085E-01	 3.57194191E-03
5.10987222E+07	 1.56100548E-01	 3.32280147E-03
5.11109303E+07	 1.56102751E-01	 3.07728653E-03
5.11231383E+07	 1.56104404E-01	 2.84020782E-03
5.11353463E+07	 1.56107888E-01	 2.59679560E-03
5.11475543E+07	 1.56113422E-01	 2.35866722E-03
5.11597624E+07	 1.56113651E-01	 2.11129385E-03
5.11719704E+07	 1.56111676E-01	 1.86845642E-03
5.11841784E+07	 1.56112297E-01	 1.62554043E-03
5.11963864E+07	 1.56112207E-01	 1.38526114E-03
5.12085944E+07	 1.56113296E-01	 1.13982732E-03
5.12208025E+07	 1.56118178E-01	 8.98215387E-04
5.12330105E+07	 1.56116643E-01	 6.59688662E-04
5.12452185E+07	 1.56114800E-01	 4.11905892E-04
5.12574265E+07	 1.56115368E-01	 1.73382190E-04
5.12696346E+07	 1.56111907E-01	-7.57139986E-05
5.12818426E+07	 1.56106583E-01	-3.17883185E-04
5.12940506E+07	 1.56106045E-01	-5.62664690E-04
5.13062586E+07	 1.56106702E-01	-8.03261545E-04
5.13184667E+07	 1.56101686E-01	-1.04412672E-03
5.13306747E+07	 1.56097984E-01	-1.28787495E-03
5.13428827E+07	 1.56093886E-01	-1.52846485E-03
5.13550907E+07	 1.56092198E-01	-1.76967736E-03
5.13672988E+07	 1.56085660E-01	-2.01728815E-03
5.13795068E+07	 1.56082221E-01	-2.26214637E-03
5.13917148E+07	 1.56075279E-01	-2.49888885E-03
5.14039228E+07	 1.56072155E-01	-2.74263352E-03
5.14161309E+07	 1.56066389E-01	-2.98216447E-03
5.14283389E+07	 1.56064694E-01	-3.23021150E-03
5.14405469E+07	 1.56052221E-01	-3.47026566E-03
5.14527549E+07	 1.56046245E-01	-3.71243259E-03
5.14649630E+07	 1.56040571E-01	-3.95866931E-03
5.14771710E+07	 1.56031371E-01	-4.20072790E-03
5.14893790E+07	 1.56024624E-01	-4.44237091E-03
5.15015870E+07	 1.56016059E-01	-4.68240961E-03
5.15137951E+07	 1.56008857E-01	-4.92399189E-03
5.15260031E+07	 1.55996683E-01	-5.16990005E-03
5.15382111E+07	 1.55990326E-01	-5.41000745E-03
5.15504191E+07	 1.55979518E-01	-5.65214927E-03
5.15626272E+07	 1.55964625E-01	-5.89512073E-03
5.15748352E+07	 1.55954753E-01	-6.13648411E-03
5.15870432E+07	 1.55948036E-01	-6.37749495E-03
5.15992512E+07	 1.55933027E-01	-6.62214305E-03
5.16114593E+07	 1.55924538E-01	-6.86649906E-03
5.16236673E+07	 1.55911658E-01	-7.10709469E-03
5.16358753E+07	 1.55900632E-01	-7.34687953E-03
5.16480833E+07	 1.55883114E-01	-7.59218298E-03
5.16602914E+07	 1.55876246E-01	-7.83379774E-03
5.16724994E+07	 1.55861770E-01	-8.07371302E-03
5.16847074E+07	 1.55845945E-01	-8.31827668E-03
5.16969154E+07	 1.55828951E-01	-8.55990754E-03
5.17091235E+07	 1.55816851E-01	-8.80185748E-03
5.17213315E+07	 1.55799479E-01	-9.04657373E-03
5.17335395E+07	 1.55785940E-01	-9.29190011E-03
5.17457475E+07	 1.55764627E-01	-9.53294954E-03
5.17579556E+07	 1.55755398E-01	-9.76729911E-03
5.17701636E+07	 1.55736533E-01	-1.00117934E-02
5.17823716E+07	 1.55721013E-01	-1.02556423E-02
5.17945796E+07	 1.55706836E-01	-1.04991415E-02
5.18067877E+07	 1.55686690E-01	-1.07417155E-02
5.18189957E+07	 1.55664490E-01	-1.09825334E-02
5.18312037E+07	 1.55649047E-01	-1.12236731E-02
5.18434117E+07	 1.55633771E-01	-1.14661833E-02
5.18556198E+07	 1.55610604E-01	-1.17106172E-02
5.18678278E+07	 1.55593563E-01	-1.19502345E-02
5.18800358E+07	 1.55572855E-01	-1.21922375E-02
5.18922438E+07	 1.55550242E-01	-1.24344298E-02
5.19044519E+07	 1.55535286E-01	-1.26741603E-02
5.19166599E+07	 1.55512282E-01	-1.29177398E-02
5.19288679E+07	 1.55484989E-01	-1.31585128E-02
5.19410759E+07	 1.55473236E-01	-1.33996158E-02
5.19532840E+07	 1.55450626E-01	-1.36421206E-02
5.19654920E+07	 1.55426715E-01	-1.38842787E-02
5.19777000E+07	 1.55402102E-01	-1.41247083E-02
5.19899080E+07	 1.55381128E-01	-1.43674501E-02
5.20021161E+07	 1.55356448E-01	-1.46112589E-02
5.20143241E+07	 1.55332270E-01	-1.48480064E-02
5.20265321E+07	 1.55309312E-01	-1.50882916E-02
5.20387401E+07	 1.55279462E-01	-1.53353555E-02
5.20509482E+07	 1.55259931E-01	-1.55757821E-02
5.20631562E+07	 1.55231991E-01	-1.58144723E-02
5.20753642E+07	 1.55208449E-01	-1.60585672E-02
5.20875722E+07	 1.55177686E-01	-1.62976923E-02
5.20997803E+07	 1.55154180E-01	-1.65357699E-02
5.21119883E+07	 1.55124385E-01	-1.67793658E-02
5.21241963E+07	 1.55101078E-01	-1.70226570E-02
5.21364043E+07	 1.55071724E-01	-1.72568462E-02
5.21486124E+07	 1.55045634E-01	-1.75034454E-02
5.21608204E+07	 1.55016706E-01	-1.77451196E-02
5.21730284E+07	 1.54989744E-01	-1.79880525E-02
5.21852364E+07	 1.54957107E-01	-1.82245239E-02
5.21974445E+07	 1.54926876E-01	-1.84640983E-02
5.22096525E+07	 1.54903593E-01	-1.87082238E-02
5.22218605E+07	 1.54868208E-01	-1.89461319E-02
5.22340685E+07	 1.54836328E-01	-1.91833094E-02
5.22462766E+07	 1.54806292E-01	-1.94306466E-02
5.22584846E+07	 1.54772406E-01	-1.96672944E-02
5.22706926E+07	 1.54740272E-01	-1.99122364E-02
5.22829006E+07	 1.54707577E-01	-2.01486279E-02
5.22951087E+07	 1.54680379E-01	-2.03905844E-02
5.23073167E+07	 1.54643142E-01	-2.06336808E-02
5.23195247E+07	 1.54613423E-01	-2.08648629E-02
5.23317327E+07	 1.54584745E-01	-2.11129831E-02
5.23439408E+07	 1.54551261E-01	-2.13543489E-02
5.23561488E+07	 1.54507741E-01	-2.15870516E-02
5.23683568E+07	 1.54467732E-01	-2.18296110E-02
5.23805648E+07	 1.54438886E-01	-2.20702110E-02
5.23927728E+07	 1.54407392E-01	-2.23103475E-02
5.24049809E+07	 1.54370810E-01	-2.25508966E-02
5.24171889E+07	 1.54332560E-01	-2.27919190E-02
5.24293969E+07	 1.54299272E-01	-2.30315541E-02
5.24416049E+07	 1.54261399E-01	-2.32677057E-02
5.24538130E+07	 1.54228572E-01	-2.35159766E-02
5.24660210E+07	 1.54189922E-01	-2.37485810E-02
5.24782290E+07	 1.54148133E-01	-2.39896312E-02
5.24904370E+07	 1.54110153E-01	-2.42294195E-02
5.25026451E+07	 1.54071098E-01	-2.44717474E-02
5.25148531E+07	 1.54029889E-01	-2.47055444E-02
5.25270611E+07	 1.53997401E-01	-2.49464249E-02
5.25392691E+07	 1.53952614E-01	-2.51879456E-02
5.25514772E+07	 1.53911703E-01	-2.54285424E-02
5.25636852E+07	 1.53874016E-01	-2.56668227E-02
5.25758932E+07	 1.53831554E-01	-2.59110024E-02
5.25881012E+07	 1.53786353E-01	-2.61435403E-02
5.26003093E+07	 1.53750749E-01	-2.63852738E-02
5.26125173E+07	 1.53705666E-01	-2.66242263E-02
5.26247253E+07	 1.53666546E-01	-2.68609045E-02
5.26369333E+07	 1.53618577E-01	-2.71025859E-02
5.26491414E+07	 1.53579054E-01	-2.73431179E-02
5.26613494E+07	 1.53535506E-01	-2.75766405E-02
5.26735574E+07	 1.53491712E-01	-2.78160002E-02
5.26857654E+07	 1.53450758E-01	-2.80562858E-02
5.26979735E+07	 1.53403031E-01	-2.82962103E-02
5.27101815E+07	 1.53358474E-01	-2.85311681E-02
5.27223895E+07	 1.53313637E-01	-2.87681771E-02
5.27345975E+07	 1.53271775E-01	-2.90090412E-02
5.27468056E+07	 1.53222519E-01	-2.92479909E-02
5.27590136E+07	 1.53178679E-01	-2.94882946E-02
5.27712216E+07	 1.53133220E-01	-2.97217116E-02
5.27834296E+07	 1.53084123E-01	-2.99640721E-02
5.27956377E+07	 1.53036366E-01	-3.01965490E-02
5.28078457E+07	 1.52993191E-01	-3.04349741E-02
5.28200537E+07	 1.52944152E-01	-3.06757117E-02
5.28322617E+07	 1.52896394E-01	-3.09084718E-02
5.28444698E+07	 1.52844977E-01	-3.11492511E-02
5.28566778E+07	 1.52798140E-01	-3.13854331E-02
5.28688858E+07	 1.52746451E-01	-3.16262866E-02
5.28810938E+07	 1.52697327E-01	-3.18585795E-02
5.28933019E+07	 1.52647189E-01	-3.21027813E-02
5.29055099E+07	 1.52601245E-01	-3.23414108E-02
5.29177179E+07	 1.52543750E-01	-3.25730052E-02
5.29299259E+07	 1.52497317E-01	-3.28105628E-02
5.29421340E+07	 1.52445840E-01	-3.30487899E-02
5.29543420E+07	 1.52391660E-01	-3.32843197E-02
5.29665500E+07	 1.52340830E-01	-3.35236549E-02
5.29787580E+07	 1.52285333E-01	-3.37579093E-02
5.29909661E+07	 1.52232379E-01	-3.39940471E-02
5.30031741E+07	 1.52179371E-01	-3.42339981E-02
5.30153821E+07	 1.52126958E-01	-3.44721304E-02
5.30275901E+07	 1.52072450E-01	-3.47058804E-02
5.30397982E+07	 1.52017422E-01	-3.49457650E-02
5.30520062E+07	 1.51961812E-01	-3.51793693E-02
5.30642142E+07	 1.51910612E-01	-3.54116727E-02
5.30764222E+07	 1.51856014E-01	-3.56481471E-02
5.30886303E+07	 1.51798013E-01	-3.58845566E-02
5.31008383E+07	 1.51745636E-01	-3.61230744E-02
5.31130463E+07	 1.51686009E-01	-3.63565098E-02
5.31252543E+07	 1.51633767E-01	-3.65969477E-02
5.31374624E+07	 1.51576491E-01	-3.68339415E-02
5.31496704E+07	 1.51512968E-01	-3.70647796E-02
5.31618784E+07	 1.51457770E-01	-3.72966789E-02
5.31740864E+07	 1.51402835E-01	-3.75375305E-02
5.31862945E+07	 1.51342626E-01	-3.77713226E-02
5.31985025E+07	 1.51282457E-01	-3.80091400E-02
5.32107105E+07	 1.51224918E-01	-3.82414022E-02
5.32229185E+07	 1.51165562E-01	-3.84739006E-02
5.32351266E+07	 1.51101716E-01	-3.87130615E-02
5.32473346E+07	 1.51042468E-01	-3.89414947E-02
5.32595426E+07	 1.50982144E-01	-3.91830473E-02
5.32717506E+07	 1.50923602E-01	-3.94174583E-02
5.32839587E+07	 1.50855529E-01	-3.96523727E-02
5.32961667E+07	 1.50795981E-01	-3.98842774E-02
5.33083747E+07	 1.50738813E-01	-4.01184445E-02
5.33205827E+07	 1.50671458E-01	-4.03525258E-02
5.33327908E+07	 1.50615089E-01	-4.05850133E-02
5.33449988E+07	 1.50549424E-01	-4.08252577E-02
5.33572068E+07	 1.50482988E-01	-4.10543008E-02
5.33694148E+07	 1.50421782E-01	-4.12858745E-02
5.33816229E+07	 1.50357475E-01	-4.15212832E-02
5.33938309E+07	 1.50296287E-01	-4.17585994E-02
5.34060389E+07	 1.50228712E-01	-4.19906985E-02
5.34182469E+07	 1.50158005E-01	-4.22244777E-02
5.34304550E+07	 1.50098692E-01	-4.24566437E-02
5.34426630E+07	 1.50033870E-01	-4.26881977E-02
5.34548710E+07	 1.49965253E-01	-4.29177802E-02
5.34670790E+07	 1.49896951E-01	-4.31538529E-02
5.34792871E+07	 1.49833425E-01	-4.33879617E-02
5.34914951E+07	 1.49765510E-01	-4.36254203E-02
5.35037031E+07	 1.49694024E-01	-4.38517937E-02
5.35159111E+07	 1.49628390E-01	-4.40919981E-02
5.35281192E+07	 1.49562521E-01	-4.43155978E-02
5.35403272E+07	 1.49492814E-01	-4.45536050E-02
5.35525352E+07	 1.49424002E-01	-4.47841236E-02
5.35647432E+07	 1.49355440E-01	-4.50146646E-02
5.35769512E+07	 1.49281234E-01	-4.52511243E-02
5.35891593E+07	 1.49213972E-01	-4.54819664E-02
5.36013673E+07	 1.49145264E-01	-4.57151724E-02
5.36135753E+07	 1.49070365E-01	-4.59472276E-02
5.36257833E+07	 1.48998523E-01	-4.61777717E-02
5.36379914E+07	 1.48930111E-01	-4.64107788E-02
5.36501994E+07	 1.48861442E-01	-4.66414573E-02
5.36624074E+07	 1.48782570E-01	-4.68688048E-02
5.36746154E+07	 1.48714039E-01	-4.71069883E-02
5.36868235E+07	 1.48638049E-01	-4.73384193E-02
5.36990315E+07	 1.48567577E-01	-4.75653224E-02
5.37112395E+07	 1.48502127E-01	-4.77964560E-02
5.37234475E+07	 1.48417969E-01	-4.80278874E-02
5.37356556E+07	 1.48340220E-01	-4.82597442E-02
5.37478636E+07	 1.48271423E-01	-4.84879366E-02
5.37600716E+07	 1.48196264E-01	-4.87189769E-02
5.37722796E+07	 1.48123044E-01	-4.89542668E-02
5.37844877E+07	 1.48045585E-01	-4.91817953E-02
5.37966957E+07	 1.47966985E-01	-4.94073689E-02
5.38089037E+07	 1.47891522E-01	-4.96412404E-02
5.38211117E+07	 1.47815879E-01	-4.98742087E-02
5.38333198E+07	 1.47737416E-01	-5.01006013E-02
5.38455278E+07	 1.47661964E-01	-5.03287836E-02
5.38577358E+07	 1.47581784E-01	-5.05631862E-02
5.38699438E+07	 1.47504717E-01	-5.07872540E-02
5.38821519E+07	 1.47430523E-01	-5.10213432E-02
5.38943599E+07	 1.47345858E-01	-5.12522846E-02
5.39065679E+07	 1.47269379E-01	-5.14732099E-02
5.39187759E+07	 1.47192029E-01	-5.17045038E-02
5.39309840E+07	 1.47107569E-01	-5.19372413E-02
5.39431920E+07	 1.47032319E-01	-5.21655444E-02
5.39554000E+07	 1.46951271E-01	-5.23944984E-02
5.39676080E+07	 1.46871014E-01	-5.26220411E-02
5.39798161E+07	 1.46784979E-01	-5.28450843E-02
5.39920241E+07	 1.46706052E-01	-5.30798055E-02
5.40042321E+07	 1.46625098E-01	-5.33095796E-02
5.40164401E+07	 1.46540582E-01	-5.35332507E-02
5.40286482E+07	 1.46456916E-01	-5.37633895E-02
5.40408562E+07	 1.46372397E-01	-5.39920273E-02
5.40530642E+07	 1.46292224E-01	-5.42212781E-02
5.40652722E+07	 1.46207889E-01	-5.44491656E-02
5.40774803E+07	 1.46122977E-01	-5.46726308E-02
5.40896883E+07	 1.46043419E-01	-5.49034895E-02
5.41018963E+07	 1.45954782E-01	-5.51294638E-02
5.41141043E+07	 1.45866066E-01	-5.53544323E-02
5.41263124E+07	 1.45782706E-01	-5.55854937E-02
5.41385204E+07	 1.45696360E-01	-5.58109690E-02
5.41507284E+07	 1.45610780E-01	-5.60383388E-02
5.41629364E+07	 1.45522844E-01	-5.62640550E-02
5.41751445E+07	 1.45436622E-01	-5.64927311E-02
5.41873525E+07	 1.45355439E-01	-5.67174171E-02
5.41995605E+07	 1.45262768E-01	-5.69395233E-02
5.42117685E+07	 1.45175686E-01	-5.71725077E-02
5.42239766E+07	 1.45089077E-01	-5.73970105E-02
5.42361846E+07	 1.44996141E-01	-5.76222406E-02
5.42483926E+07	 1.44908808E-01	-5.78511563E-02
5.42606006E+07	 1.44820235E-01	-5.80725066E-02
5.42728087E+07	 1.44729197E-01	-5.82954795E-02
5.42850167E+07	 1.44638871E-01	-5.85227213E-02
5.42972247E+07	 1.44544020E-01	-5.87475595E-02
5.43094327E+07	 1.44458907E-01	-5.89753757E-02
5.43216408E+07	 1.44368001E-01	-5.91952735E-02
5.43338488E+07	 1.44274290E-01	-5.94225909E-02
5.43460568E+07	 1.44184151E-01	-5.96495821E-02
5.43582648E+07	 1.44090663E-01	-5.98774581E-02
5.43704729E+07	 1.44002985E-01	-6.00980997E-02
5.43826809E+07	 1.43903981E-01	-6.03230367E-02
5.43948889E+07	 1.43816571E-01	-6.05486894E-02
5.44070969E+07	 1.43723709E-01	-6.07736746E-02
5.44193050E+07	 1.43629530E-01	-6.09934604E-02
5.44315130E+07	 1.43531569E-01	-6.12168529E-02
5.44437210E+07	 1.43446321E-01	-6.14401969E-02
5.44559290E+07	 1.43343740E-01	-6.16708882E-02
5.44681371E+07	 1.43248488E-01	-6.18897187E-02
5.44803451E+07	 1.43155626E-01	-6.21080169E-02
5.44925531E+07	 1.43058376E-01	-6.23278448E-02
5.45047611E+07	 1.42965691E-01	-6.25586285E-02
5.45169692E+07	 1.42866180E-01	-6.27813910E-02
5.45291772E+07	 1.42772665E-01	-6.30108106E-02
5.45413852E+07	 1.42671424E-01	-6.32260979E-02
5.45535932E+07	 1.42576160E-01	-6.34473327E-02
5.45658013E+07	 1.42479069E-01	-6.36713932E-02
5.45780093E+07	 1.42379134E-01	-6.38904633E-02
5.45902173E+07	 1.42282880E-01	-6.41142778E-02
5.46024253E+07	 1.42180959E-01	-6.43351444E-02
5.46146334E+07	 1.42084084E-01	-6.45553024E-02
5.46268414E+07	 1.41988346E-01	-6.47725917E-02
5.46390494E+07	 1.41884747E-01	-6.49995187E-02
5.46512574E+07	 1.41780407E-01	-6.52159307E-02
5.46634655E+07	 1.41682339E-01	-6.54421011E-02
5.46756735E+07	 1.41580976E-01	-6.56576514E-02
5.46878815E+07	 1.41483179E-01	-6.58833212E-02
5.47000895E+07	 1.41377498E-01	-6.61063951E-02
5.47122976E+07	 1.41277528E-01	-6.63208240E-02
5.47245056E+07	 1.41175348E-01	-6.65436289E-02
5.47367136E+07	 1.41075017E-01	-6.67636491E-02
5.47489216E+07	 1.40968224E-01	-6.69835667E-02
5.47611296E+07	 1.40863254E-01	-6.72068139E-02
5.47733377E+07	 1.40764448E-01	-6.74200613E-02
5.47855457E+07	 1.40660729E-01	-6.76366709E-02
5.47977537E+07	 1.40558522E-01	-6.78614334E-02
5.48099617E+07	 1.40452776E-01	-6.80790668E-02
5.48221698E+07	 1.40348264E-01	-6.82985050E-02
5.48343778E+07	 1.40241564E-01	-6.85165942E-02
5.48465858E+07	 1.40136434E-01	-6.87359208E-02
5.48587938E+07	 1.40032412E-01	-6.89567638E-02
5.48710019E+07	 1.39924667E-01	-6.91733013E-02
5.48832099E+07	 1.39820122E-01	-6.93909872E-02
5.48954179E+07	 1.39714296E-01	-6.96077639E-02
5.49076259E+07	 1.39604698E-01	-6.98279999E-02
5.49198340E+07	 1.39500063E-01	-7.00458916E-02
5.49320420E+07	 1.39391248E-01	-7.02634750E-02
5.49442500E+07	 1.39282378E-01	-7.04785081E-02
5.49564580E+07	 1.39173882E-01	-7.06981493E-02
5.49686661E+07	 1.39060686E-01	-7.09108181E-02
5.49808741E+07	 1.38955817E-01	-7.11308615E-02
5.49930821E+07	 1.38847437E-01	-7.13485270E-02
5.50052901E+07	 1.38736524E-01	-7.15665119E-02
5.50174982E+07	 1.38628101E-01	-7.17788418E-02
5.50297062E+07	 1.38520247E-01	-7.19981325E-02
5.50419142E+07	 1.38407600E-01	-7.22134624E-02
5.50541222E+07	 1.38294170E-01	-7.24247162E-02
5.50663303E+07	 1.38183375E-01	-7.26486383E-02
5.50785383E+07	 1.38073203E-01	-7.28579932E-02
5.50907463E+07	 1.37964633E-01	-7.30755934E-02
5.51029543E+07	 1.37846353E-01	-7.32904546E-02
5.51151624E+07	 1.37740151E-01	-7.35050656E-02
5.51273704E+07	 1.37627085E-01	-7.37238533E-02
