! COPPER MOUNTAIN TECHNOLOGIES, PLANAR TR1300/1, 00071119, 20.2.2/1.0
! Date: 11/21/2023 6:48:31 PM
! Data: Format [Calibration Info]
! Freq          	S11: Re/Im F1                  
# HZ S RI R 50
5.00000000E+07	-3.08968049E-01	 4.44804833E-01
5.00122080E+07	-3.06155461E-01	 4.46707664E-01
5.00244160E+07	-3.03328909E-01	 4.48601123E-01
5.00366241E+07	-3.00496453E-01	 4.50453542E-01
5.00488321E+07	-2.97641906E-01	 4.52295876E-01
5.00610401E+07	-2.94775029E-01	 4.54120899E-01
5.00732481E+07	-2.91905173E-01	 4.55927778E-01
5.00854562E+07	-2.89028156E-01	 4.57730102E-01
5.00976642E+07	-2.86127347E-01	 4.59506087E-01
5.01098722E+07	-2.83226453E-01	 4.61259502E-01
5.01220802E+07	-2.80288127E-01	 4.62971485E-01
5.01342883E+07	-2.77374824E-01	 4.64717473E-01
5.01464963E+07	-2.74430045E-01	 4.66417988E-01
5.01587043E+07	-2.71493235E-01	 4.68100238E-01
5.01709123E+07	-2.68529254E-01	 4.69762700E-01
5.01831204E+07	-2.65557411E-01	 4.71408884E-01
5.01953284E+07	-2.62576009E-01	 4.73040525E-01
5.02075364E+07	-2.59569991E-01	 4.74616052E-01
5.02197444E+07	-2.56581919E-01	 4.76239523E-01
5.02319525E+07	-2.53572601E-01	 4.77804497E-01
5.02441605E+07	-2.50554827E-01	 4.79358104E-01
5.02563685E+07	-2.47520894E-01	 4.80885334E-01
5.02685765E+07	-2.44472635E-01	 4.82374694E-01
5.02807846E+07	-2.41436150E-01	 4.83899613E-01
5.02929926E+07	-2.38365945E-01	 4.85373220E-01
5.03052006E+07	-2.35298645E-01	 4.86828755E-01
5.03174086E+07	-2.32228946E-01	 4.88268827E-01
5.03296167E+07	-2.29144541E-01	 4.89687900E-01
5.03418247E+07	-2.26047298E-01	 4.91081603E-01
5.03540327E+07	-2.22935919E-01	 4.92465950E-01
5.03662407E+07	-2.19836317E-01	 4.93826942E-01
5.03784488E+07	-2.16713430E-01	 4.95164826E-01
5.03906568E+07	-2.13570807E-01	 4.96458054E-01
5.04028648E+07	-2.10450844E-01	 4.97789698E-01
5.04150728E+07	-2.07305212E-01	 4.99070206E-01
5.04272809E+07	-2.04138187E-01	 5.00330365E-01
5.04394889E+07	-2.00975493E-01	 5.01544028E-01
5.04516969E+07	-1.97823413E-01	 5.02794199E-01
5.04639049E+07	-1.94650831E-01	 5.03996019E-01
5.04761130E+07	-1.91450563E-01	 5.05179862E-01
5.04883210E+07	-1.88273313E-01	 5.06350130E-01
5.05005290E+07	-1.85055115E-01	 5.07488949E-01
5.05127370E+07	-1.81858725E-01	 5.08608992E-01
5.05249451E+07	-1.78658274E-01	 5.09716025E-01
5.05371531E+07	-1.75421043E-01	 5.10808096E-01
5.05493611E+07	-1.72204536E-01	 5.11862008E-01
5.05615691E+07	-1.68969574E-01	 5.12915222E-01
5.05737772E+07	-1.65723804E-01	 5.13918021E-01
5.05859852E+07	-1.62483862E-01	 5.14931141E-01
5.05981932E+07	-1.59230519E-01	 5.15911682E-01
5.06104012E+07	-1.55969702E-01	 5.16872782E-01
5.06226093E+07	-1.52698421E-01	 5.17817173E-01
5.06348173E+07	-1.49430014E-01	 5.18730920E-01
5.06470253E+07	-1.46161834E-01	 5.19631630E-01
5.06592333E+07	-1.42868055E-01	 5.20504533E-01
5.06714414E+07	-1.39585621E-01	 5.21365159E-01
5.06836494E+07	-1.36295097E-01	 5.22213713E-01
5.06958574E+07	-1.32998790E-01	 5.23027539E-01
5.07080654E+07	-1.29698023E-01	 5.23824263E-01
5.07202735E+07	-1.26389195E-01	 5.24594391E-01
5.07324815E+07	-1.23078133E-01	 5.25344153E-01
5.07446895E+07	-1.19753088E-01	 5.26091505E-01
5.07568975E+07	-1.16428930E-01	 5.26785054E-01
5.07691056E+07	-1.13098786E-01	 5.27484213E-01
5.07813136E+07	-1.09760919E-01	 5.28166176E-01
5.07935216E+07	-1.06429941E-01	 5.28819662E-01
5.08057296E+07	-1.03091614E-01	 5.29451203E-01
5.08179377E+07	-9.97479340E-02	 5.30050890E-01
5.08301457E+07	-9.63900864E-02	 5.30653485E-01
5.08423537E+07	-9.30444291E-02	 5.31218964E-01
5.08545617E+07	-8.96927583E-02	 5.31768006E-01
5.08667698E+07	-8.63428312E-02	 5.32298989E-01
5.08789778E+07	-8.29603783E-02	 5.32783993E-01
5.08911858E+07	-7.96069843E-02	 5.33265248E-01
5.09033938E+07	-7.62446728E-02	 5.33741060E-01
5.09156019E+07	-7.28651471E-02	 5.34173648E-01
5.09278099E+07	-6.94967418E-02	 5.34585328E-01
5.09400179E+07	-6.61056905E-02	 5.34982609E-01
5.09522259E+07	-6.27297274E-02	 5.35367359E-01
5.09644340E+07	-5.93415877E-02	 5.35730560E-01
5.09766420E+07	-5.59704678E-02	 5.36061445E-01
5.09888500E+07	-5.25714041E-02	 5.36377880E-01
5.10010580E+07	-4.91861967E-02	 5.36651582E-01
5.10132661E+07	-4.57945515E-02	 5.36933133E-01
5.10254741E+07	-4.23961267E-02	 5.37181290E-01
5.10376821E+07	-3.90107450E-02	 5.37420368E-01
5.10498901E+07	-3.56087685E-02	 5.37607824E-01
5.10620982E+07	-3.22201878E-02	 5.37820486E-01
5.10743062E+07	-2.88067338E-02	 5.37969085E-01
5.10865142E+07	-2.54224727E-02	 5.38126141E-01
5.10987222E+07	-2.20147542E-02	 5.38228542E-01
5.11109303E+07	-1.86155680E-02	 5.38333502E-01
5.11231383E+07	-1.52084292E-02	 5.38412066E-01
5.11353463E+07	-1.18040858E-02	 5.38473467E-01
5.11475543E+07	-8.39534096E-03	 5.38528414E-01
5.11597624E+07	-4.99713877E-03	 5.38523657E-01
5.11719704E+07	-1.59890782E-03	 5.38526971E-01
5.11841784E+07	 1.80771045E-03	 5.38482386E-01
5.11963864E+07	 5.21510867E-03	 5.38441290E-01
5.12085944E+07	 8.61802356E-03	 5.38377958E-01
5.12208025E+07	 1.20211445E-02	 5.38278379E-01
5.12330105E+07	 1.54250040E-02	 5.38170993E-01
5.12452185E+07	 1.88243665E-02	 5.38025487E-01
5.12574265E+07	 2.22309843E-02	 5.37891419E-01
5.12696346E+07	 2.56302106E-02	 5.37694333E-01
5.12818426E+07	 2.90270694E-02	 5.37489098E-01
5.12940506E+07	 3.24268764E-02	 5.37272511E-01
5.13062586E+07	 3.58264921E-02	 5.37018360E-01
5.13184667E+07	 3.92207100E-02	 5.36772642E-01
5.13306747E+07	 4.26204821E-02	 5.36488463E-01
5.13428827E+07	 4.60155188E-02	 5.36184547E-01
5.13550907E+07	 4.93952614E-02	 5.35850676E-01
5.13672988E+07	 5.27824519E-02	 5.35508567E-01
5.13795068E+07	 5.61821755E-02	 5.35137856E-01
5.13917148E+07	 5.95609438E-02	 5.34740575E-01
5.14039228E+07	 6.29369769E-02	 5.34320916E-01
5.14161309E+07	 6.63152343E-02	 5.33895890E-01
5.14283389E+07	 6.97037267E-02	 5.33453378E-01
5.14405469E+07	 7.30706966E-02	 5.32966015E-01
5.14527549E+07	 7.64459240E-02	 5.32460171E-01
5.14649630E+07	 7.98165365E-02	 5.31955495E-01
5.14771710E+07	 8.31922894E-02	 5.31393950E-01
5.14893790E+07	 8.65466338E-02	 5.30837129E-01
5.15015870E+07	 8.98952306E-02	 5.30272783E-01
5.15137951E+07	 9.32579691E-02	 5.29658573E-01
5.15260031E+07	 9.66118205E-02	 5.29033125E-01
5.15382111E+07	 9.99657568E-02	 5.28385623E-01
5.15504191E+07	 1.03297401E-01	 5.27718908E-01
5.15626272E+07	 1.06644157E-01	 5.27033129E-01
5.15748352E+07	 1.09969223E-01	 5.26320967E-01
5.15870432E+07	 1.13315504E-01	 5.25586349E-01
5.15992512E+07	 1.16643553E-01	 5.24838929E-01
5.16114593E+07	 1.19961171E-01	 5.24077872E-01
5.16236673E+07	 1.23273654E-01	 5.23266663E-01
5.16358753E+07	 1.26594076E-01	 5.22463589E-01
5.16480833E+07	 1.29896166E-01	 5.21624691E-01
5.16602914E+07	 1.33201277E-01	 5.20771983E-01
5.16724994E+07	 1.36497410E-01	 5.19893389E-01
5.16847074E+07	 1.39793451E-01	 5.18995434E-01
5.16969154E+07	 1.43077717E-01	 5.18075894E-01
5.17091235E+07	 1.46358611E-01	 5.17134987E-01
5.17213315E+07	 1.49637655E-01	 5.16171839E-01
5.17335395E+07	 1.52903565E-01	 5.15192286E-01
5.17457475E+07	 1.56156001E-01	 5.14181046E-01
5.17579556E+07	 1.59420792E-01	 5.13169431E-01
5.17701636E+07	 1.62669067E-01	 5.12124714E-01
5.17823716E+07	 1.65920868E-01	 5.11054045E-01
5.17945796E+07	 1.69161194E-01	 5.09973952E-01
5.18067877E+07	 1.72389095E-01	 5.08872553E-01
5.18189957E+07	 1.75616561E-01	 5.07753220E-01
5.18312037E+07	 1.78836423E-01	 5.06602472E-01
5.18434117E+07	 1.82047797E-01	 5.05429196E-01
5.18556198E+07	 1.85237684E-01	 5.04252516E-01
5.18678278E+07	 1.88440341E-01	 5.03052650E-01
5.18800358E+07	 1.91625327E-01	 5.01814677E-01
5.18922438E+07	 1.94807153E-01	 5.00572584E-01
5.19044519E+07	 1.97982301E-01	 4.99297776E-01
5.19166599E+07	 2.01142619E-01	 4.98029642E-01
5.19288679E+07	 2.04297490E-01	 4.96705353E-01
5.19410759E+07	 2.07455087E-01	 4.95396902E-01
5.19532840E+07	 2.10607250E-01	 4.94046857E-01
5.19654920E+07	 2.13722656E-01	 4.92665218E-01
5.19777000E+07	 2.16862072E-01	 4.91282569E-01
5.19899080E+07	 2.19982535E-01	 4.89869265E-01
5.20021161E+07	 2.23082791E-01	 4.88439322E-01
5.20143241E+07	 2.26170891E-01	 4.87012995E-01
5.20265321E+07	 2.29258398E-01	 4.85535563E-01
5.20387401E+07	 2.32343047E-01	 4.84047230E-01
5.20509482E+07	 2.35416226E-01	 4.82540804E-01
5.20631562E+07	 2.38474101E-01	 4.81027418E-01
5.20753642E+07	 2.41516213E-01	 4.79480454E-01
5.20875722E+07	 2.44569082E-01	 4.77913435E-01
5.20997803E+07	 2.47599417E-01	 4.76327067E-01
5.21119883E+07	 2.50621521E-01	 4.74732016E-01
5.21241963E+07	 2.53639994E-01	 4.73113372E-01
5.21364043E+07	 2.56640514E-01	 4.71466938E-01
5.21486124E+07	 2.59646115E-01	 4.69805828E-01
5.21608204E+07	 2.62615503E-01	 4.68128939E-01
5.21730284E+07	 2.65598369E-01	 4.66438927E-01
5.21852364E+07	 2.68539926E-01	 4.64711813E-01
5.21974445E+07	 2.71500123E-01	 4.62983112E-01
5.22096525E+07	 2.74432350E-01	 4.61240985E-01
5.22218605E+07	 2.77366638E-01	 4.59460429E-01
5.22340685E+07	 2.80281962E-01	 4.57661796E-01
5.22462766E+07	 2.83188519E-01	 4.55858564E-01
5.22584846E+07	 2.86075345E-01	 4.54036216E-01
5.22706926E+07	 2.88960337E-01	 4.52170675E-01
5.22829006E+07	 2.91831325E-01	 4.50303828E-01
5.22951087E+07	 2.94704426E-01	 4.48440500E-01
5.23073167E+07	 2.97542172E-01	 4.46521122E-01
5.23195247E+07	 3.00387708E-01	 4.44619414E-01
5.23317327E+07	 3.03209142E-01	 4.42668546E-01
5.23439408E+07	 3.06028772E-01	 4.40717115E-01
5.23561488E+07	 3.08820192E-01	 4.38744404E-01
5.23683568E+07	 3.11601725E-01	 4.36756925E-01
5.23805648E+07	 3.14377121E-01	 4.34737498E-01
5.23927728E+07	 3.17144431E-01	 4.32721599E-01
5.24049809E+07	 3.19898688E-01	 4.30672449E-01
5.24171889E+07	 3.22636180E-01	 4.28616764E-01
5.24293969E+07	 3.25362680E-01	 4.26529560E-01
5.24416049E+07	 3.28077553E-01	 4.24419859E-01
5.24538130E+07	 3.30773887E-01	 4.22316343E-01
5.24660210E+07	 3.33464587E-01	 4.20193272E-01
5.24782290E+07	 3.36118505E-01	 4.18034880E-01
5.24904370E+07	 3.38766762E-01	 4.15868957E-01
5.25026451E+07	 3.41432467E-01	 4.13691903E-01
5.25148531E+07	 3.44063244E-01	 4.11489052E-01
5.25270611E+07	 3.46682120E-01	 4.09262916E-01
5.25392691E+07	 3.49283165E-01	 4.07035107E-01
5.25514772E+07	 3.51876231E-01	 4.04785061E-01
5.25636852E+07	 3.54454928E-01	 4.02509233E-01
5.25758932E+07	 3.57012445E-01	 4.00232982E-01
5.25881012E+07	 3.59547791E-01	 3.97922279E-01
5.26003093E+07	 3.62094622E-01	 3.95623112E-01
5.26125173E+07	 3.64600134E-01	 3.93280322E-01
5.26247253E+07	 3.67108762E-01	 3.90939128E-01
5.26369333E+07	 3.69592156E-01	 3.88565778E-01
5.26491414E+07	 3.72070239E-01	 3.86184781E-01
5.26613494E+07	 3.74524504E-01	 3.83794894E-01
5.26735574E+07	 3.76963984E-01	 3.81385022E-01
5.26857654E+07	 3.79403130E-01	 3.78949773E-01
5.26979735E+07	 3.81810253E-01	 3.76505820E-01
5.27101815E+07	 3.84215578E-01	 3.74061335E-01
5.27223895E+07	 3.86597192E-01	 3.71586952E-01
5.27345975E+07	 3.88953047E-01	 3.69090718E-01
5.27468056E+07	 3.91299654E-01	 3.66573981E-01
5.27590136E+07	 3.93641846E-01	 3.64062108E-01
5.27712216E+07	 3.95966152E-01	 3.61524513E-01
5.27834296E+07	 3.98269166E-01	 3.58970937E-01
5.27956377E+07	 4.00547593E-01	 3.56414905E-01
5.28078457E+07	 4.02823165E-01	 3.53841518E-01
5.28200537E+07	 4.05076839E-01	 3.51235209E-01
5.28322617E+07	 4.07323646E-01	 3.48628401E-01
5.28444698E+07	 4.09530456E-01	 3.46014420E-01
5.28566778E+07	 4.11753353E-01	 3.43375766E-01
5.28688858E+07	 4.13925168E-01	 3.40721653E-01
5.28810938E+07	 4.16104851E-01	 3.38057738E-01
5.28933019E+07	 4.18269091E-01	 3.35370636E-01
5.29055099E+07	 4.20402588E-01	 3.32674352E-01
5.29177179E+07	 4.22516158E-01	 3.29974909E-01
5.29299259E+07	 4.24617547E-01	 3.27248652E-01
5.29421340E+07	 4.26719119E-01	 3.24511078E-01
5.29543420E+07	 4.28778240E-01	 3.21767663E-01
5.29665500E+07	 4.30832286E-01	 3.19012417E-01
5.29787580E+07	 4.32859566E-01	 3.16225926E-01
5.29909661E+07	 4.34879227E-01	 3.13449159E-01
5.30031741E+07	 4.36875166E-01	 3.10651269E-01
5.30153821E+07	 4.38855967E-01	 3.07837121E-01
5.30275901E+07	 4.40823265E-01	 3.05002993E-01
5.30397982E+07	 4.42768535E-01	 3.02168135E-01
5.30520062E+07	 4.44685213E-01	 2.99308929E-01
5.30642142E+07	 4.46609754E-01	 2.96449003E-01
5.30764222E+07	 4.48506921E-01	 2.93578927E-01
5.30886303E+07	 4.50371032E-01	 2.90677716E-01
5.31008383E+07	 4.52233329E-01	 2.87790300E-01
5.31130463E+07	 4.54062260E-01	 2.84871536E-01
5.31252543E+07	 4.55883009E-01	 2.81942706E-01
5.31374624E+07	 4.57677100E-01	 2.79010955E-01
5.31496704E+07	 4.59455491E-01	 2.76060689E-01
5.31618784E+07	 4.61217760E-01	 2.73103958E-01
5.31740864E+07	 4.62962737E-01	 2.70127299E-01
5.31862945E+07	 4.64694293E-01	 2.67148511E-01
5.31985025E+07	 4.66396388E-01	 2.64157321E-01
5.32107105E+07	 4.68085968E-01	 2.61149156E-01
5.32229185E+07	 4.69749268E-01	 2.58140151E-01
5.32351266E+07	 4.71392695E-01	 2.55105948E-01
5.32473346E+07	 4.73026675E-01	 2.52065639E-01
5.32595426E+07	 4.74643754E-01	 2.49031473E-01
5.32717506E+07	 4.76230847E-01	 2.45970642E-01
5.32839587E+07	 4.77800441E-01	 2.42889093E-01
5.32961667E+07	 4.79352122E-01	 2.39813790E-01
5.33083747E+07	 4.80876674E-01	 2.36731949E-01
5.33205827E+07	 4.82388147E-01	 2.33625897E-01
5.33327908E+07	 4.83887372E-01	 2.30523672E-01
5.33449988E+07	 4.85364309E-01	 2.27396990E-01
5.33572068E+07	 4.86816001E-01	 2.24276400E-01
5.33694148E+07	 4.88249650E-01	 2.21141209E-01
5.33816229E+07	 4.89665019E-01	 2.17988797E-01
5.33938309E+07	 4.91046884E-01	 2.14836365E-01
5.34060389E+07	 4.92424070E-01	 2.11668465E-01
5.34182469E+07	 4.93774769E-01	 2.08497174E-01
5.34304550E+07	 4.95110360E-01	 2.05309619E-01
5.34426630E+07	 4.96426595E-01	 2.02127364E-01
5.34548710E+07	 4.97704496E-01	 1.98924051E-01
5.34670790E+07	 4.98984087E-01	 1.95709077E-01
5.34792871E+07	 5.00237007E-01	 1.92491769E-01
5.34914951E+07	 5.01468004E-01	 1.89269154E-01
5.35037031E+07	 5.02671669E-01	 1.86039921E-01
5.35159111E+07	 5.03864016E-01	 1.82796811E-01
5.35281192E+07	 5.05030351E-01	 1.79553556E-01
5.35403272E+07	 5.06183036E-01	 1.76293240E-01
5.35525352E+07	 5.07313411E-01	 1.73034515E-01
5.35647432E+07	 5.08409280E-01	 1.69753647E-01
5.35769512E+07	 5.09501032E-01	 1.66480157E-01
5.35891593E+07	 5.10562447E-01	 1.63196311E-01
5.36013673E+07	 5.11604979E-01	 1.59898335E-01
5.36135753E+07	 5.12620136E-01	 1.56599518E-01
5.36257833E+07	 5.13622176E-01	 1.53289377E-01
5.36379914E+07	 5.14610792E-01	 1.49975014E-01
5.36501994E+07	 5.15568849E-01	 1.46659443E-01
5.36624074E+07	 5.16504454E-01	 1.43340749E-01
5.36746154E+07	 5.17419155E-01	 1.40009681E-01
5.36868235E+07	 5.18325336E-01	 1.36662059E-01
5.36990315E+07	 5.19191518E-01	 1.33325828E-01
5.37112395E+07	 5.20055229E-01	 1.29980990E-01
5.37234475E+07	 5.20882153E-01	 1.26620389E-01
5.37356556E+07	 5.21687539E-01	 1.23258737E-01
5.37478636E+07	 5.22466851E-01	 1.19897034E-01
5.37600716E+07	 5.23237911E-01	 1.16526231E-01
5.37722796E+07	 5.23992600E-01	 1.13152862E-01
5.37844877E+07	 5.24703904E-01	 1.09768059E-01
5.37966957E+07	 5.25405236E-01	 1.06384338E-01
5.38089037E+07	 5.26082255E-01	 1.02985540E-01
5.38211117E+07	 5.26744474E-01	 9.95917780E-02
5.38333198E+07	 5.27388106E-01	 9.62009124E-02
5.38455278E+07	 5.27996278E-01	 9.27934378E-02
5.38577358E+07	 5.28592353E-01	 8.93816104E-02
5.38699438E+07	 5.29158439E-01	 8.59775609E-02
5.38821519E+07	 5.29711034E-01	 8.25596744E-02
5.38943599E+07	 5.30228064E-01	 7.91329523E-02
5.39065679E+07	 5.30741933E-01	 7.57110650E-02
5.39187759E+07	 5.31223818E-01	 7.22901784E-02
5.39309840E+07	 5.31676943E-01	 6.88635568E-02
5.39431920E+07	 5.32129917E-01	 6.54297302E-02
5.39554000E+07	 5.32534383E-01	 6.20000654E-02
5.39676080E+07	 5.32934768E-01	 5.85542213E-02
5.39798161E+07	 5.33307546E-01	 5.51138468E-02
5.39920241E+07	 5.33654583E-01	 5.16696573E-02
5.40042321E+07	 5.33991704E-01	 4.82320079E-02
5.40164401E+07	 5.34305756E-01	 4.47752702E-02
5.40286482E+07	 5.34586234E-01	 4.13240707E-02
5.40408562E+07	 5.34838957E-01	 3.78771299E-02
5.40530642E+07	 5.35085826E-01	 3.44207098E-02
5.40652722E+07	 5.35300463E-01	 3.09635950E-02
5.40774803E+07	 5.35505689E-01	 2.75160888E-02
5.40896883E+07	 5.35685145E-01	 2.40514035E-02
5.41018963E+07	 5.35829326E-01	 2.05964452E-02
5.41141043E+07	 5.35957390E-01	 1.71321250E-02
5.41263124E+07	 5.36065411E-01	 1.36690716E-02
5.41385204E+07	 5.36152003E-01	 1.02093496E-02
5.41507284E+07	 5.36213507E-01	 6.74836476E-03
5.41629364E+07	 5.36255505E-01	 3.27828502E-03
5.41751445E+07	 5.36270971E-01	-1.85116587E-04
5.41873525E+07	 5.36273438E-01	-3.64931821E-03
5.41995605E+07	 5.36241851E-01	-7.10916697E-03
5.42117685E+07	 5.36193324E-01	-1.05821237E-02
5.42239766E+07	 5.36117781E-01	-1.40449772E-02
5.42361846E+07	 5.36027091E-01	-1.75031236E-02
5.42483926E+07	 5.35921624E-01	-2.09717669E-02
5.42606006E+07	 5.35776657E-01	-2.44304323E-02
5.42728087E+07	 5.35619349E-01	-2.78959617E-02
5.42850167E+07	 5.35429639E-01	-3.13562670E-02
5.42972247E+07	 5.35218601E-01	-3.48198021E-02
5.43094327E+07	 5.34996320E-01	-3.82747287E-02
5.43216408E+07	 5.34750959E-01	-4.17262413E-02
5.43338488E+07	 5.34480035E-01	-4.51966310E-02
5.43460568E+07	 5.34193901E-01	-4.86402626E-02
5.43582648E+07	 5.33875998E-01	-5.21037715E-02
5.43704729E+07	 5.33540409E-01	-5.55480751E-02
5.43826809E+07	 5.33178200E-01	-5.89997288E-02
5.43948889E+07	 5.32794475E-01	-6.24441369E-02
5.44070969E+07	 5.32394600E-01	-6.58842428E-02
5.44193050E+07	 5.31965155E-01	-6.93347792E-02
5.44315130E+07	 5.31516762E-01	-7.27663340E-02
5.44437210E+07	 5.31045571E-01	-7.62051917E-02
5.44559290E+07	 5.30557588E-01	-7.96391475E-02
5.44681371E+07	 5.30038936E-01	-8.30750269E-02
5.44803451E+07	 5.29505800E-01	-8.64967985E-02
5.44925531E+07	 5.28937426E-01	-8.99157180E-02
5.45047611E+07	 5.28363737E-01	-9.33401665E-02
5.45169692E+07	 5.27760207E-01	-9.67591848E-02
5.45291772E+07	 5.27129968E-01	-1.00171559E-01
5.45413852E+07	 5.26482333E-01	-1.03575906E-01
5.45535932E+07	 5.25808794E-01	-1.06980286E-01
5.45658013E+07	 5.25125176E-01	-1.10386144E-01
5.45780093E+07	 5.24402555E-01	-1.13775430E-01
5.45902173E+07	 5.23672576E-01	-1.17163948E-01
5.46024253E+07	 5.22918795E-01	-1.20552046E-01
5.46146334E+07	 5.22140568E-01	-1.23936496E-01
5.46268414E+07	 5.21338692E-01	-1.27308335E-01
5.46390494E+07	 5.20512391E-01	-1.30689588E-01
5.46512574E+07	 5.19662407E-01	-1.34044154E-01
5.46634655E+07	 5.18806136E-01	-1.37412280E-01
5.46756735E+07	 5.17910890E-01	-1.40758634E-01
5.46878815E+07	 5.17010460E-01	-1.44113968E-01
5.47000895E+07	 5.16075607E-01	-1.47457662E-01
5.47122976E+07	 5.15128550E-01	-1.50793204E-01
5.47245056E+07	 5.14148443E-01	-1.54129754E-01
5.47367136E+07	 5.13157342E-01	-1.57453133E-01
5.47489216E+07	 5.12136996E-01	-1.60772261E-01
5.47611296E+07	 5.11100054E-01	-1.64091353E-01
5.47733377E+07	 5.10041326E-01	-1.67392712E-01
5.47855457E+07	 5.08957028E-01	-1.70687391E-01
5.47977537E+07	 5.07863225E-01	-1.73981225E-01
5.48099617E+07	 5.06737096E-01	-1.77269159E-01
5.48221698E+07	 5.05586311E-01	-1.80540710E-01
5.48343778E+07	 5.04424180E-01	-1.83821455E-01
5.48465858E+07	 5.03235334E-01	-1.87078380E-01
5.48587938E+07	 5.02030359E-01	-1.90335241E-01
5.48710019E+07	 5.00802250E-01	-1.93589472E-01
5.48832099E+07	 4.99547707E-01	-1.96826800E-01
5.48954179E+07	 4.98273157E-01	-2.00045213E-01
5.49076259E+07	 4.96986216E-01	-2.03277855E-01
5.49198340E+07	 4.95665531E-01	-2.06494887E-01
5.49320420E+07	 4.94341232E-01	-2.09705160E-01
5.49442500E+07	 4.92982939E-01	-2.12888239E-01
5.49564580E+07	 4.91604893E-01	-2.16087479E-01
5.49686661E+07	 4.90216963E-01	-2.19263304E-01
5.49808741E+07	 4.88796486E-01	-2.22439816E-01
5.49930821E+07	 4.87362263E-01	-2.25598645E-01
5.50052901E+07	 4.85906892E-01	-2.28751019E-01
5.50174982E+07	 4.84424959E-01	-2.31898418E-01
5.50297062E+07	 4.82932356E-01	-2.35029219E-01
5.50419142E+07	 4.81413502E-01	-2.38155666E-01
5.50541222E+07	 4.79870984E-01	-2.41267352E-01
5.50663303E+07	 4.78317957E-01	-2.44375532E-01
5.50785383E+07	 4.76748906E-01	-2.47465866E-01
5.50907463E+07	 4.75141909E-01	-2.50549378E-01
5.51029543E+07	 4.73496381E-01	-2.53611691E-01
5.51151624E+07	 4.71885096E-01	-2.56692292E-01
5.51273704E+07	 4.70234232E-01	-2.59745627E-01
