! COPPER MOUNTAIN TECHNOLOGIES, PLANAR TR1300/1, 00071119, 20.2.2/1.0
! Date: 7/24/2023 9:07:19 AM
! Data: Format [Calibration Info]
! Freq          	S11: Re/Im F1                  
# HZ S RI R 50
5.00000000E+07	 3.69732775E-01	-4.03485012E-01
5.00122080E+07	 3.66953058E-01	-4.06067943E-01
5.00244160E+07	 3.64172684E-01	-4.08613154E-01
5.00366241E+07	 3.61364175E-01	-4.11138778E-01
5.00488321E+07	 3.58555183E-01	-4.13663040E-01
5.00610401E+07	 3.55715030E-01	-4.16146265E-01
5.00732481E+07	 3.52861604E-01	-4.18607591E-01
5.00854562E+07	 3.49994299E-01	-4.21070064E-01
5.00976642E+07	 3.47110454E-01	-4.23499882E-01
5.01098722E+07	 3.44191553E-01	-4.25902748E-01
5.01220802E+07	 3.41250820E-01	-4.28257391E-01
5.01342883E+07	 3.38334634E-01	-4.30662655E-01
5.01464963E+07	 3.35378090E-01	-4.33005073E-01
5.01587043E+07	 3.32408327E-01	-4.35329080E-01
5.01709123E+07	 3.29406444E-01	-4.37637555E-01
5.01831204E+07	 3.26421838E-01	-4.39923698E-01
5.01953284E+07	 3.23406712E-01	-4.42178740E-01
5.02075364E+07	 3.20337271E-01	-4.44390894E-01
5.02197444E+07	 3.17303887E-01	-4.46635435E-01
5.02319525E+07	 3.14231902E-01	-4.48823474E-01
5.02441605E+07	 3.11144650E-01	-4.51002270E-01
5.02563685E+07	 3.08066138E-01	-4.53158461E-01
5.02685765E+07	 3.04934109E-01	-4.55265417E-01
5.02807846E+07	 3.01814015E-01	-4.57397361E-01
5.02929926E+07	 2.98680311E-01	-4.59483746E-01
5.03052006E+07	 2.95514750E-01	-4.61543575E-01
5.03174086E+07	 2.92345290E-01	-4.63580030E-01
5.03296167E+07	 2.89162499E-01	-4.65597604E-01
5.03418247E+07	 2.85955108E-01	-4.67592023E-01
5.03540327E+07	 2.82753087E-01	-4.69563419E-01
5.03662407E+07	 2.79513258E-01	-4.71519553E-01
5.03784488E+07	 2.76276838E-01	-4.73446122E-01
5.03906568E+07	 2.73016510E-01	-4.75317534E-01
5.04028648E+07	 2.69751292E-01	-4.77221414E-01
5.04150728E+07	 2.66482734E-01	-4.79089529E-01
5.04272809E+07	 2.63180954E-01	-4.80920692E-01
5.04394889E+07	 2.59857887E-01	-4.82700986E-01
5.04516969E+07	 2.56557197E-01	-4.84513239E-01
5.04639049E+07	 2.53225950E-01	-4.86276490E-01
5.04761130E+07	 2.49879133E-01	-4.88011052E-01
5.04883210E+07	 2.46534269E-01	-4.89729346E-01
5.05005290E+07	 2.43165446E-01	-4.91428893E-01
5.05127370E+07	 2.39783162E-01	-4.93083898E-01
5.05249451E+07	 2.36392044E-01	-4.94741640E-01
5.05371531E+07	 2.32988108E-01	-4.96354090E-01
5.05493611E+07	 2.29581556E-01	-4.97954354E-01
5.05615691E+07	 2.26154936E-01	-4.99522781E-01
5.05737772E+07	 2.22720949E-01	-5.01061415E-01
5.05859852E+07	 2.19276279E-01	-5.02586487E-01
5.05981932E+07	 2.15818875E-01	-5.04087058E-01
5.06104012E+07	 2.12356776E-01	-5.05565204E-01
5.06226093E+07	 2.08882398E-01	-5.07003100E-01
5.06348173E+07	 2.05386278E-01	-5.08424468E-01
5.06470253E+07	 2.01894222E-01	-5.09830125E-01
5.06592333E+07	 1.98392157E-01	-5.11196150E-01
5.06714414E+07	 1.94867028E-01	-5.12557093E-01
5.06836494E+07	 1.91347607E-01	-5.13879079E-01
5.06958574E+07	 1.87806403E-01	-5.15169356E-01
5.07080654E+07	 1.84270710E-01	-5.16452371E-01
5.07202735E+07	 1.80717930E-01	-5.17698418E-01
5.07324815E+07	 1.77143200E-01	-5.18913558E-01
5.07446895E+07	 1.73588609E-01	-5.20124068E-01
5.07568975E+07	 1.70025879E-01	-5.21294804E-01
5.07691056E+07	 1.66430981E-01	-5.22449067E-01
5.07813136E+07	 1.62843159E-01	-5.23541244E-01
5.07935216E+07	 1.59234454E-01	-5.24658320E-01
5.08057296E+07	 1.55628956E-01	-5.25733818E-01
5.08179377E+07	 1.52017127E-01	-5.26762277E-01
5.08301457E+07	 1.48401897E-01	-5.27792546E-01
5.08423537E+07	 1.44776141E-01	-5.28778606E-01
5.08545617E+07	 1.41128328E-01	-5.29762194E-01
5.08667698E+07	 1.37483475E-01	-5.30696708E-01
5.08789778E+07	 1.33831937E-01	-5.31605730E-01
5.08911858E+07	 1.30178295E-01	-5.32508884E-01
5.09033938E+07	 1.26522955E-01	-5.33366768E-01
5.09156019E+07	 1.22860260E-01	-5.34218125E-01
5.09278099E+07	 1.19182539E-01	-5.35014332E-01
5.09400179E+07	 1.15502199E-01	-5.35808506E-01
5.09522259E+07	 1.11826920E-01	-5.36575084E-01
5.09644340E+07	 1.08126929E-01	-5.37308454E-01
5.09766420E+07	 1.04444130E-01	-5.38005939E-01
5.09888500E+07	 1.00740377E-01	-5.38704169E-01
5.10010580E+07	 9.70342010E-02	-5.39351571E-01
5.10132661E+07	 9.33298264E-02	-5.39981946E-01
5.10254741E+07	 8.96201420E-02	-5.40594040E-01
5.10376821E+07	 8.59141953E-02	-5.41168486E-01
5.10498901E+07	 8.21819141E-02	-5.41717297E-01
5.10620982E+07	 7.84759475E-02	-5.42246831E-01
5.10743062E+07	 7.47498194E-02	-5.42734401E-01
5.10865142E+07	 7.10137384E-02	-5.43210533E-01
5.10987222E+07	 6.73014462E-02	-5.43649371E-01
5.11109303E+07	 6.35653543E-02	-5.44058955E-01
5.11231383E+07	 5.98210726E-02	-5.44462794E-01
5.11353463E+07	 5.60794901E-02	-5.44828668E-01
5.11475543E+07	 5.23316619E-02	-5.45184534E-01
5.11597624E+07	 4.86082940E-02	-5.45490574E-01
5.11719704E+07	 4.48591569E-02	-5.45767949E-01
5.11841784E+07	 4.11092151E-02	-5.46039135E-01
5.11963864E+07	 3.73596826E-02	-5.46260698E-01
5.12085944E+07	 3.36019913E-02	-5.46477692E-01
5.12208025E+07	 2.98662898E-02	-5.46664144E-01
5.12330105E+07	 2.61107350E-02	-5.46812488E-01
5.12452185E+07	 2.23590020E-02	-5.46936003E-01
5.12574265E+07	 1.86104663E-02	-5.47043592E-01
5.12696346E+07	 1.48533896E-02	-5.47117239E-01
5.12818426E+07	 1.11008574E-02	-5.47162889E-01
5.12940506E+07	 7.34270773E-03	-5.47194290E-01
5.13062586E+07	 3.60371020E-03	-5.47177111E-01
5.13184667E+07	-1.57413064E-04	-5.47147178E-01
5.13306747E+07	-3.91958483E-03	-5.47092227E-01
5.13428827E+07	-7.67313531E-03	-5.47010153E-01
5.13550907E+07	-1.14123763E-02	-5.46899779E-01
5.13672988E+07	-1.51597200E-02	-5.46758268E-01
5.13795068E+07	-1.89184879E-02	-5.46599287E-01
5.13917148E+07	-2.26655120E-02	-5.46399901E-01
5.14039228E+07	-2.64011146E-02	-5.46187576E-01
5.14161309E+07	-3.01497830E-02	-5.45945751E-01
5.14283389E+07	-3.38982984E-02	-5.45692193E-01
5.14405469E+07	-3.76273408E-02	-5.45381610E-01
5.14527549E+07	-4.13633411E-02	-5.45065350E-01
5.14649630E+07	-4.51076229E-02	-5.44715751E-01
5.14771710E+07	-4.88382056E-02	-5.44333290E-01
5.14893790E+07	-5.25634252E-02	-5.43933804E-01
5.15015870E+07	-5.62953950E-02	-5.43524514E-01
5.15137951E+07	-6.00020567E-02	-5.43052611E-01
5.15260031E+07	-6.37314324E-02	-5.42584992E-01
5.15382111E+07	-6.74406950E-02	-5.42073443E-01
5.15504191E+07	-7.11561162E-02	-5.41544300E-01
5.15626272E+07	-7.48655073E-02	-5.40974708E-01
5.15748352E+07	-7.85746700E-02	-5.40401015E-01
5.15870432E+07	-8.22557776E-02	-5.39793212E-01
5.15992512E+07	-8.59636837E-02	-5.39137903E-01
5.16114593E+07	-8.96460223E-02	-5.38495421E-01
5.16236673E+07	-9.33301785E-02	-5.37807317E-01
5.16358753E+07	-9.70138645E-02	-5.37095421E-01
5.16480833E+07	-1.00672438E-01	-5.36350000E-01
5.16602914E+07	-1.04359698E-01	-5.35581645E-01
5.16724994E+07	-1.08017966E-01	-5.34792582E-01
5.16847074E+07	-1.11667491E-01	-5.33980791E-01
5.16969154E+07	-1.15329083E-01	-5.33122262E-01
5.17091235E+07	-1.18968566E-01	-5.32248868E-01
5.17213315E+07	-1.22604929E-01	-5.31365258E-01
5.17335395E+07	-1.26230054E-01	-5.30442107E-01
5.17457475E+07	-1.29852470E-01	-5.29492438E-01
5.17579556E+07	-1.33470762E-01	-5.28525211E-01
5.17701636E+07	-1.37086328E-01	-5.27529205E-01
5.17823716E+07	-1.40691859E-01	-5.26510535E-01
5.17945796E+07	-1.44279200E-01	-5.25460641E-01
5.18067877E+07	-1.47878780E-01	-5.24375925E-01
5.18189957E+07	-1.51456973E-01	-5.23288652E-01
5.18312037E+07	-1.55027080E-01	-5.22165611E-01
5.18434117E+07	-1.58588109E-01	-5.21007175E-01
5.18556198E+07	-1.62144245E-01	-5.19836809E-01
5.18678278E+07	-1.65694193E-01	-5.18645524E-01
5.18800358E+07	-1.69234571E-01	-5.17433106E-01
5.18922438E+07	-1.72762228E-01	-5.16179801E-01
5.19044519E+07	-1.76292120E-01	-5.14895253E-01
5.19166599E+07	-1.79783453E-01	-5.13617510E-01
5.19288679E+07	-1.83284959E-01	-5.12275487E-01
5.19410759E+07	-1.86781026E-01	-5.10943490E-01
5.19532840E+07	-1.90265220E-01	-5.09567683E-01
5.19654920E+07	-1.93732573E-01	-5.08162875E-01
5.19777000E+07	-1.97206215E-01	-5.06753196E-01
5.19899080E+07	-2.00646344E-01	-5.05298911E-01
5.20021161E+07	-2.04088657E-01	-5.03835348E-01
5.20143241E+07	-2.07533644E-01	-5.02340566E-01
5.20265321E+07	-2.10944006E-01	-5.00826479E-01
5.20387401E+07	-2.14359141E-01	-4.99279432E-01
5.20509482E+07	-2.17753457E-01	-4.97715385E-01
5.20631562E+07	-2.21138557E-01	-4.96121862E-01
5.20753642E+07	-2.24500817E-01	-4.94510839E-01
5.20875722E+07	-2.27880571E-01	-4.92878851E-01
5.20997803E+07	-2.31223557E-01	-4.91208431E-01
5.21119883E+07	-2.34567439E-01	-4.89527763E-01
5.21241963E+07	-2.37886493E-01	-4.87832361E-01
5.21364043E+07	-2.41206970E-01	-4.86101205E-01
5.21486124E+07	-2.44519453E-01	-4.84336122E-01
5.21608204E+07	-2.47796985E-01	-4.82561230E-01
5.21730284E+07	-2.51088021E-01	-4.80766987E-01
5.21852364E+07	-2.54341650E-01	-4.78941012E-01
5.21974445E+07	-2.57591205E-01	-4.77104806E-01
5.22096525E+07	-2.60832358E-01	-4.75229339E-01
5.22218605E+07	-2.64061796E-01	-4.73339766E-01
5.22340685E+07	-2.67265550E-01	-4.71419443E-01
5.22462766E+07	-2.70475230E-01	-4.69483565E-01
5.22584846E+07	-2.73655523E-01	-4.67527127E-01
5.22706926E+07	-2.76814849E-01	-4.65546045E-01
5.22829006E+07	-2.79972908E-01	-4.63543164E-01
5.22951087E+07	-2.83117471E-01	-4.61525938E-01
5.23073167E+07	-2.86250877E-01	-4.59466591E-01
5.23195247E+07	-2.89349507E-01	-4.57411050E-01
5.23317327E+07	-2.92441800E-01	-4.55304560E-01
5.23439408E+07	-2.95539676E-01	-4.53196351E-01
5.23561488E+07	-2.98595165E-01	-4.51061557E-01
5.23683568E+07	-3.01650632E-01	-4.48913867E-01
5.23805648E+07	-3.04687794E-01	-4.46736488E-01
5.23927728E+07	-3.07715290E-01	-4.44532233E-01
5.24049809E+07	-3.10712646E-01	-4.42307452E-01
5.24171889E+07	-3.13715970E-01	-4.40071545E-01
5.24293969E+07	-3.16677838E-01	-4.37813466E-01
5.24416049E+07	-3.19637276E-01	-4.35528896E-01
5.24538130E+07	-3.22572664E-01	-4.33228096E-01
5.24660210E+07	-3.25505178E-01	-4.30905591E-01
5.24782290E+07	-3.28404697E-01	-4.28560544E-01
5.24904370E+07	-3.31301618E-01	-4.26197703E-01
5.25026451E+07	-3.34167733E-01	-4.23820330E-01
5.25148531E+07	-3.37028810E-01	-4.21413793E-01
5.25270611E+07	-3.39872788E-01	-4.18989228E-01
5.25392691E+07	-3.42690014E-01	-4.16543747E-01
5.25514772E+07	-3.45500787E-01	-4.14074616E-01
5.25636852E+07	-3.48284629E-01	-4.11590557E-01
5.25758932E+07	-3.51059343E-01	-4.09102276E-01
5.25881012E+07	-3.53798764E-01	-4.06569378E-01
5.26003093E+07	-3.56537115E-01	-4.04038220E-01
5.26125173E+07	-3.59257650E-01	-4.01473404E-01
5.26247253E+07	-3.61942059E-01	-3.98900495E-01
5.26369333E+07	-3.64636304E-01	-3.96292362E-01
5.26491414E+07	-3.67300589E-01	-3.93692790E-01
5.26613494E+07	-3.69937758E-01	-3.91041479E-01
5.26735574E+07	-3.72562103E-01	-3.88391624E-01
5.26857654E+07	-3.75164057E-01	-3.85717046E-01
5.26979735E+07	-3.77746988E-01	-3.83041010E-01
5.27101815E+07	-3.80316008E-01	-3.80314087E-01
5.27223895E+07	-3.82871532E-01	-3.77607030E-01
5.27345975E+07	-3.85379703E-01	-3.74858627E-01
5.27468056E+07	-3.87894832E-01	-3.72104267E-01
5.27590136E+07	-3.90390133E-01	-3.69321900E-01
5.27712216E+07	-3.92849740E-01	-3.66512459E-01
5.27834296E+07	-3.95300894E-01	-3.63712691E-01
5.27956377E+07	-3.97725349E-01	-3.60876734E-01
5.28078457E+07	-4.00141429E-01	-3.58030871E-01
5.28200537E+07	-4.02538750E-01	-3.55166143E-01
5.28322617E+07	-4.04906183E-01	-3.52285700E-01
5.28444698E+07	-4.07246914E-01	-3.49383747E-01
5.28566778E+07	-4.09577362E-01	-3.46480264E-01
5.28688858E+07	-4.11878748E-01	-3.43550664E-01
5.28810938E+07	-4.14177186E-01	-3.40609539E-01
5.28933019E+07	-4.16436299E-01	-3.37645352E-01
5.29055099E+07	-4.18678116E-01	-3.34664565E-01
5.29177179E+07	-4.20901793E-01	-3.31670050E-01
5.29299259E+07	-4.23096997E-01	-3.28659237E-01
5.29421340E+07	-4.25281348E-01	-3.25639734E-01
5.29543420E+07	-4.27443230E-01	-3.22594537E-01
5.29665500E+07	-4.29580584E-01	-3.19550245E-01
5.29787580E+07	-4.31689982E-01	-3.16480393E-01
5.29909661E+07	-4.33784142E-01	-3.13393131E-01
5.30031741E+07	-4.35860387E-01	-3.10309260E-01
5.30153821E+07	-4.37908469E-01	-3.07197363E-01
5.30275901E+07	-4.39940086E-01	-3.04066745E-01
5.30397982E+07	-4.41945788E-01	-3.00930240E-01
5.30520062E+07	-4.43927478E-01	-2.97778418E-01
5.30642142E+07	-4.45886974E-01	-2.94607305E-01
5.30764222E+07	-4.47824644E-01	-2.91430144E-01
5.30886303E+07	-4.49749722E-01	-2.88234891E-01
5.31008383E+07	-4.51641022E-01	-2.85037463E-01
5.31130463E+07	-4.53515588E-01	-2.81806339E-01
5.31252543E+07	-4.55363214E-01	-2.78577885E-01
5.31374624E+07	-4.57184799E-01	-2.75329001E-01
5.31496704E+07	-4.58988190E-01	-2.72068838E-01
5.31618784E+07	-4.60772150E-01	-2.68793772E-01
5.31740864E+07	-4.62524550E-01	-2.65522600E-01
5.31862945E+07	-4.64257196E-01	-2.62220213E-01
5.31985025E+07	-4.65970897E-01	-2.58904774E-01
5.32107105E+07	-4.67655606E-01	-2.55590602E-01
5.32229185E+07	-4.69324338E-01	-2.52267163E-01
5.32351266E+07	-4.70958527E-01	-2.48920778E-01
5.32473346E+07	-4.72583111E-01	-2.45562927E-01
5.32595426E+07	-4.74166209E-01	-2.42196570E-01
5.32717506E+07	-4.75737792E-01	-2.38826876E-01
5.32839587E+07	-4.77274995E-01	-2.35421374E-01
5.32961667E+07	-4.78796253E-01	-2.32035437E-01
5.33083747E+07	-4.80304543E-01	-2.28633470E-01
5.33205827E+07	-4.81769173E-01	-2.25213925E-01
5.33327908E+07	-4.83223956E-01	-2.21785016E-01
5.33449988E+07	-4.84652697E-01	-2.18345973E-01
5.33572068E+07	-4.86049600E-01	-2.14902801E-01
5.33694148E+07	-4.87428289E-01	-2.11436692E-01
5.33816229E+07	-4.88774715E-01	-2.07969529E-01
5.33938309E+07	-4.90097753E-01	-2.04493611E-01
5.34060389E+07	-4.91397535E-01	-2.00997475E-01
5.34182469E+07	-4.92678708E-01	-1.97513079E-01
5.34304550E+07	-4.93932098E-01	-1.94015913E-01
5.34426630E+07	-4.95161264E-01	-1.90501746E-01
5.34548710E+07	-4.96360953E-01	-1.86983046E-01
5.34670790E+07	-4.97542181E-01	-1.83441569E-01
5.34792871E+07	-4.98694325E-01	-1.79914897E-01
5.34914951E+07	-4.99838232E-01	-1.76369881E-01
5.35037031E+07	-5.00922847E-01	-1.72810096E-01
5.35159111E+07	-5.02018623E-01	-1.69245792E-01
5.35281192E+07	-5.03060148E-01	-1.65689991E-01
5.35403272E+07	-5.04095403E-01	-1.62112470E-01
5.35525352E+07	-5.05097944E-01	-1.58525544E-01
5.35647432E+07	-5.06070020E-01	-1.54943420E-01
5.35769512E+07	-5.07035187E-01	-1.51349017E-01
5.35891593E+07	-5.07953331E-01	-1.47747656E-01
5.36013673E+07	-5.08853561E-01	-1.44124896E-01
5.36135753E+07	-5.09729876E-01	-1.40513442E-01
5.36257833E+07	-5.10583202E-01	-1.36900002E-01
5.36379914E+07	-5.11412460E-01	-1.33267556E-01
5.36501994E+07	-5.12213461E-01	-1.29644585E-01
5.36624074E+07	-5.12987522E-01	-1.26010551E-01
5.36746154E+07	-5.13735433E-01	-1.22370469E-01
5.36868235E+07	-5.14464593E-01	-1.18710656E-01
5.36990315E+07	-5.15152755E-01	-1.15063904E-01
5.37112395E+07	-5.15832164E-01	-1.11402513E-01
5.37234475E+07	-5.16471151E-01	-1.07739629E-01
5.37356556E+07	-5.17093107E-01	-1.04080774E-01
5.37478636E+07	-5.17681181E-01	-1.00410607E-01
5.37600716E+07	-5.18257661E-01	-9.67390219E-02
5.37722796E+07	-5.18801022E-01	-9.30606740E-02
5.37844877E+07	-5.19313936E-01	-8.93684700E-02
5.37966957E+07	-5.19799489E-01	-8.56893521E-02
5.38089037E+07	-5.20270084E-01	-8.20036792E-02
5.38211117E+07	-5.20708087E-01	-7.83132145E-02
5.38333198E+07	-5.21121618E-01	-7.46150426E-02
5.38455278E+07	-5.21511120E-01	-7.09154750E-02
5.38577358E+07	-5.21870790E-01	-6.72231569E-02
5.38699438E+07	-5.22205397E-01	-6.35164557E-02
5.38821519E+07	-5.22518933E-01	-5.98225585E-02
5.38943599E+07	-5.22784434E-01	-5.61058338E-02
5.39065679E+07	-5.23056316E-01	-5.24023467E-02
5.39187759E+07	-5.23275002E-01	-4.86978818E-02
5.39309840E+07	-5.23484203E-01	-4.49814950E-02
5.39431920E+07	-5.23665661E-01	-4.12629165E-02
5.39554000E+07	-5.23812354E-01	-3.75490226E-02
5.39676080E+07	-5.23940680E-01	-3.38385832E-02
5.39798161E+07	-5.24040953E-01	-3.01389222E-02
5.39920241E+07	-5.24107881E-01	-2.64096323E-02
5.40042321E+07	-5.24161205E-01	-2.26976421E-02
5.40164401E+07	-5.24187142E-01	-1.89798651E-02
5.40286482E+07	-5.24171544E-01	-1.52630377E-02
5.40408562E+07	-5.24148256E-01	-1.15498141E-02
5.40530642E+07	-5.24089481E-01	-7.83826296E-03
5.40652722E+07	-5.24006557E-01	-4.11862461E-03
5.40774803E+07	-5.23895967E-01	-4.08382195E-04
5.40896883E+07	-5.23759264E-01	 3.31080034E-03
5.41018963E+07	-5.23597421E-01	 7.02306106E-03
5.41141043E+07	-5.23408691E-01	 1.07142750E-02
5.41263124E+07	-5.23193218E-01	 1.44263787E-02
5.41385204E+07	-5.22949103E-01	 1.81328203E-02
5.41507284E+07	-5.22684569E-01	 2.18462275E-02
5.41629364E+07	-5.22394353E-01	 2.55489168E-02
5.41751445E+07	-5.22080527E-01	 2.92507325E-02
5.41873525E+07	-5.21732958E-01	 3.29500234E-02
5.41995605E+07	-5.21356782E-01	 3.66514821E-02
5.42117685E+07	-5.20957092E-01	 4.03369217E-02
5.42239766E+07	-5.20539834E-01	 4.40298149E-02
5.42361846E+07	-5.20095982E-01	 4.77238195E-02
5.42483926E+07	-5.19616444E-01	 5.14077466E-02
5.42606006E+07	-5.19115035E-01	 5.50908186E-02
5.42728087E+07	-5.18591771E-01	 5.87561440E-02
5.42850167E+07	-5.18036970E-01	 6.24176025E-02
5.42972247E+07	-5.17447187E-01	 6.61027080E-02
5.43094327E+07	-5.16848911E-01	 6.97643688E-02
5.43216408E+07	-5.16230315E-01	 7.34273425E-02
5.43338488E+07	-5.15571595E-01	 7.70775230E-02
5.43460568E+07	-5.14889541E-01	 8.07389801E-02
5.43582648E+07	-5.14188285E-01	 8.43787142E-02
5.43704729E+07	-5.13462141E-01	 8.80161183E-02
5.43826809E+07	-5.12689188E-01	 9.16528549E-02
5.43948889E+07	-5.11910473E-01	 9.52848678E-02
5.44070969E+07	-5.11101686E-01	 9.89157053E-02
5.44193050E+07	-5.10266708E-01	 1.02520436E-01
5.44315130E+07	-5.09411294E-01	 1.06139537E-01
5.44437210E+07	-5.08520136E-01	 1.09738964E-01
5.44559290E+07	-5.07610137E-01	 1.13337279E-01
5.44681371E+07	-5.06681977E-01	 1.16938519E-01
5.44803451E+07	-5.05725303E-01	 1.20519446E-01
5.44925531E+07	-5.04730794E-01	 1.24096382E-01
5.45047611E+07	-5.03713349E-01	 1.27675981E-01
5.45169692E+07	-5.02684237E-01	 1.31239933E-01
5.45291772E+07	-5.01614820E-01	 1.34784015E-01
5.45413852E+07	-5.00541864E-01	 1.38340426E-01
5.45535932E+07	-4.99421570E-01	 1.41877293E-01
5.45658013E+07	-4.98295268E-01	 1.45422086E-01
5.45780093E+07	-4.97126482E-01	 1.48942373E-01
5.45902173E+07	-4.95927079E-01	 1.52450199E-01
5.46024253E+07	-4.94725448E-01	 1.55971063E-01
5.46146334E+07	-4.93493136E-01	 1.59474237E-01
5.46268414E+07	-4.92226936E-01	 1.62959207E-01
5.46390494E+07	-4.90949858E-01	 1.66434556E-01
5.46512574E+07	-4.89625457E-01	 1.69910557E-01
5.46634655E+07	-4.88287781E-01	 1.73374744E-01
5.46756735E+07	-4.86946023E-01	 1.76832860E-01
5.46878815E+07	-4.85563382E-01	 1.80272160E-01
5.47000895E+07	-4.84164421E-01	 1.83712576E-01
5.47122976E+07	-4.82728337E-01	 1.87143972E-01
5.47245056E+07	-4.81266707E-01	 1.90550002E-01
5.47367136E+07	-4.79802963E-01	 1.93956960E-01
5.47489216E+07	-4.78299596E-01	 1.97352779E-01
5.47611296E+07	-4.76777114E-01	 2.00733199E-01
5.47733377E+07	-4.75212934E-01	 2.04106853E-01
5.47855457E+07	-4.73640159E-01	 2.07469147E-01
5.47977537E+07	-4.72041608E-01	 2.10816542E-01
5.48099617E+07	-4.70424190E-01	 2.14157902E-01
5.48221698E+07	-4.68777824E-01	 2.17476798E-01
5.48343778E+07	-4.67108873E-01	 2.20793787E-01
5.48465858E+07	-4.65426324E-01	 2.24103329E-01
5.48587938E+07	-4.63702657E-01	 2.27397366E-01
5.48710019E+07	-4.61971363E-01	 2.30673700E-01
5.48832099E+07	-4.60220008E-01	 2.33931644E-01
5.48954179E+07	-4.58425460E-01	 2.37189380E-01
5.49076259E+07	-4.56617461E-01	 2.40440377E-01
5.49198340E+07	-4.54792176E-01	 2.43662339E-01
5.49320420E+07	-4.52946772E-01	 2.46880523E-01
5.49442500E+07	-4.51067894E-01	 2.50069670E-01
5.49564580E+07	-4.49168338E-01	 2.53266240E-01
5.49686661E+07	-4.47256646E-01	 2.56441377E-01
5.49808741E+07	-4.45301727E-01	 2.59602276E-01
5.49930821E+07	-4.43346901E-01	 2.62754458E-01
5.50052901E+07	-4.41363720E-01	 2.65885711E-01
5.50174982E+07	-4.39346590E-01	 2.69006582E-01
5.50297062E+07	-4.37324935E-01	 2.72123502E-01
5.50419142E+07	-4.35278964E-01	 2.75206360E-01
5.50541222E+07	-4.33195401E-01	 2.78274642E-01
5.50663303E+07	-4.31108381E-01	 2.81337857E-01
5.50785383E+07	-4.28990086E-01	 2.84399124E-01
5.50907463E+07	-4.26847873E-01	 2.87423110E-01
5.51029543E+07	-4.24669726E-01	 2.90426997E-01
5.51151624E+07	-4.22517517E-01	 2.93452063E-01
5.51273704E+07	-4.20312596E-01	 2.96443772E-01
